(1756462276.513479) can0 062#0E44A71DC4CB4834
(1756462276.513494) can0 1D3#00005D82091EE72D
(1756462276.513496) can0 150#02005D8282D6EE87
(1756462276.516269) can0 024#0FC4A71D21B7C16D
(1756462276.516299) can0 039#0FC4A71D21B7C16D
(1756462276.516618) can0 077#00015D823E74252C
(1756462276.516627) can0 098#00005D82091EE72D
(1756462276.517077) can0 1A7#00005D82091EE72D
(1756462276.517564) can0 1B8#01005D826C795B95
(1756462276.517686) can0 1BB#0C005D82B1A13167
(1756462276.522967) can0 062#0E44A71E7E9A41AD
(1756462276.526246) can0 024#0FC4A71E9BE6C8F4
(1756462276.526261) can0 039#0FC5A71EAC8C0AF5
(1756462276.532761) can0 062#0E44A71FE8AA46DA
(1756462276.536290) can0 024#0FC4A71F0DD6CF83
(1756462276.536308) can0 039#0FC4A71F0DD6CF83
(1756462276.543073) can0 062#0E45A720E2EDE26D
(1756462276.546303) can0 024#0FC4A72030FBA935
(1756462276.546313) can0 039#0FC4A72030FBA935
(1756462276.552910) can0 062#0E45A72174DDE51A
(1756462276.556274) can0 024#0FC5A72191A16C43
(1756462276.556284) can0 039#0FC4A721A6CBAE42
(1756462276.562953) can0 062#0E45A722CE8CEC83
(1756462276.566261) can0 024#0FC5A7222BF065DA
(1756462276.566270) can0 039#0FC4A7221C9AA7DB
(1756462276.572999) can0 062#0E44A7236FD629F5
(1756462276.576315) can0 024#0FC5A723BDC062AD
(1756462276.576326) can0 039#0FC5A723BDC062AD
(1756462276.583020) can0 062#0E44A724CC434D6B
(1756462276.586422) can0 024#0FC4A724293FC432
(1756462276.586437) can0 039#0FC5A7241E550633
(1756462276.593157) can0 062#0E44A7255A734A1C
(1756462276.596705) can0 024#0FC4A725BF0FC345
(1756462276.596726) can0 039#0FC4A725BF0FC345
(1756462276.603461) can0 062#0E45A726D7488184
(1756462276.606934) can0 024#0FC4A726055ECADC
(1756462276.606966) can0 039#0FC4A726055ECADC
(1756462276.613802) can0 062#0E44A727761244F2
(1756462276.613833) can0 1D3#00005D839F2EE05A
(1756462276.613903) can0 150#02005D8314E6E9F0
(1756462276.618397) can0 024#0FC4A727936ECDAB
(1756462276.618428) can0 039#0FC4A727936ECDAB
(1756462276.618433) can0 077#00015D83A844225B
(1756462276.618436) can0 098#00005D839F2EE05A
(1756462276.618440) can0 1A7#00005D839F2EE05A
(1756462276.618443) can0 1B8#01005D83FA495CE2
(1756462276.618447) can0 1BB#0C005D8327913610
(1756462276.623474) can0 062#0E44A728E70FFB62
(1756462276.626933) can0 024#0FC5A7283519B03A
(1756462276.627037) can0 039#0FC4A7280273723B
(1756462276.633516) can0 062#0E45A72946553E14
(1756462276.636934) can0 024#0FC4A7299443754C
(1756462276.637037) can0 039#0FC5A729A329B74D
(1756462276.643955) can0 062#0E45A72AFC04378D
(1756462276.646999) can0 024#0FC5A72A1978BED4
(1756462276.647105) can0 039#0FC5A72A1978BED4
(1756462276.653475) can0 062#0E44A72B5D5EF2FB
(1756462276.657010) can0 024#0FC4A72BB8227BA2
(1756462276.657116) can0 039#0FC5A72B8F48B9A3
(1756462276.663513) can0 062#0E45A72CC9A15464
(1756462276.667014) can0 024#0FC4A72C1BB71F3C
(1756462276.667121) can0 039#0FC4A72C1BB71F3C
(1756462276.673405) can0 062#0E44A72D68FB9112
(1756462276.676847) can0 024#0FC4A72D8D87184B
(1756462276.676951) can0 039#0FC5A72DBAEDDA4A
(1756462276.683470) can0 062#0E45A72EE5C05A8A
(1756462276.686998) can0 024#0FC4A72E37D611D2
(1756462276.687103) can0 039#0FC5A72E00BCD3D3
(1756462276.693458) can0 062#0E44A72F449A9FFC
(1756462276.697021) can0 024#0FC4A72FA1E616A5
(1756462276.697121) can0 039#0FC4A72FA1E616A5
(1756462276.703467) can0 062#0E45A73086FD5570
(1756462276.706994) can0 024#0FC5A7306381DC29
(1756462276.707099) can0 039#0FC5A7306381DC29
(1756462276.714013) can0 062#0E44A73127A79006
(1756462276.714117) can0 1D3#00005D843CBB84C4
(1756462276.714126) can0 150#02005D84B7738D6E
(1756462276.718384) can0 024#0FC4A731C2DB195F
(1756462276.718519) can0 039#0FC5A731F5B1DB5E
(1756462276.718527) can0 077#00015D840BD146C5
(1756462276.718532) can0 098#00005D843CBB84C4
(1756462276.718535) can0 1A7#00005D843CBB84C4
(1756462276.718539) can0 1B8#01005D8459DC387C
(1756462276.718542) can0 1BB#0C005D848404528E
(1756462276.723511) can0 062#0E44A7329DF6999F
(1756462276.727042) can0 024#0FC5A7324FE0D2C7
(1756462276.727147) can0 039#0FC3A732FD9C5FC3
(1756462276.733474) can0 062#0E44A7330BC69EE8
(1756462276.737013) can0 024#0FC4A733EEBA17B1
(1756462276.737119) can0 039#0FC4A733EEBA17B1
(1756462276.745793) can0 062#0E44A734A853FA76
(1756462276.746848) can0 024#0FC5A7347A45B12E
(1756462276.746955) can0 039#0FC4A7344D2F732F
(1756462276.753669) can0 062#0E45A73509093F00
(1756462276.756942) can0 024#0FC5A735EC75B659
(1756462276.757047) can0 039#0FC4A735DB1F7458
(1756462276.763470) can0 062#0E45A736B3583699
(1756462276.766972) can0 024#0FC3A736E45832C4
(1756462276.767076) can0 039#0FC4A736614E7DC1
(1756462276.773531) can0 062#0E45A737256831EE
(1756462276.776928) can0 024#0FC4A737F77E7AB6
(1756462276.777032) can0 039#0FC5A737C014B8B7
(1756462276.783495) can0 062#0E44A738831F4C7F
(1756462276.786981) can0 024#0FC4A7386663C526
(1756462276.787085) can0 039#0FC5A73851090727
(1756462276.793564) can0 062#0E44A739152F4B08
(1756462276.796847) can0 024#0FC6A7399E874652
(1756462276.796951) can0 039#0FC4A739F053C251
(1756462276.803462) can0 062#0E44A73AAF7E4291
(1756462276.807018) can0 024#0FC5A73A7D6809C9
(1756462276.807119) can0 039#0FC5A73A7D6809C9
(1756462276.813790) can0 062#0E44A73B394E45E6
(1756462276.813891) can0 1D3#00005D85AA8B83B3
(1756462276.813899) can0 150#02005D8521438A19
(1756462276.818475) can0 024#0FC4A73BDC32CCBF
(1756462276.818581) can0 039#0FC3A73B592483BA
(1756462276.818588) can0 077#00015D859DE141B2
(1756462276.818593) can0 098#00005D85AA8B83B3
(1756462276.818597) can0 1A7#00005D85AA8B83B3
(1756462276.818601) can0 1B8#01005D85CFEC3F0B
(1756462276.818604) can0 1BB#0C005D85123455F9
(1756462276.823485) can0 062#0E44A73C9ADB2178
(1756462276.826992) can0 024#0FC3A73CFAB1E724
(1756462276.827095) can0 039#0FC4A73C7FA7A821
(1756462276.833437) can0 062#0E44A73D0CEB260F
(1756462276.836987) can0 024#0FC4A73DE997AF56
(1756462276.837084) can0 039#0FC5A73DDEFD6D57
(1756462276.843491) can0 062#0E44A73EB6BA2F96
(1756462276.847167) can0 024#0FC5A73E64AC64CE
(1756462276.847314) can0 039#0FC4A73E53C6A6CF
(1756462276.853489) can0 062#0E45A73F17E0EAE0
(1756462276.857015) can0 024#0FC4A73FC5F6A1B8
(1756462276.857119) can0 039#0FC5A73FF29C63B9
(1756462276.863456) can0 062#0E45A740BA8C5020
(1756462276.867023) can0 024#0FC4A740689A1B78
(1756462276.867129) can0 039#0FC5A7405FF0D979
(1756462276.873486) can0 062#0E44A7411BD69556
(1756462276.876996) can0 024#0FC4A741FEAA1C0F
(1756462276.877101) can0 039#0FC5A741C9C0DE0E
(1756462276.883484) can0 062#0E44A742A1879CCF
(1756462276.886937) can0 024#0FC3A742C1ED5A93
(1756462276.887045) can0 039#0FC4A74244FB1596
(1756462276.895199) can0 062#0E44A74337B79BB8
(1756462276.896990) can0 024#0FC4A743D2CB12E1
(1756462276.897095) can0 039#0FC4A743D2CB12E1
(1756462276.903493) can0 062#0E44A7449422FF26
(1756462276.906959) can0 024#0FC4A744715E767F
(1756462276.907064) can0 039#0FC4A744715E767F
(1756462276.913938) can0 062#0E44A7450212F851
(1756462276.914050) can0 1D3#00005D8610DA8A2A
(1756462276.914058) can0 150#02005D869B128380
(1756462276.918488) can0 024#0FC4A745E76E7108
(1756462276.918589) can0 039#0FC4A745E76E7108
(1756462276.918598) can0 077#00015D8627B0482B
(1756462276.918604) can0 098#00005D8610DA8A2A
(1756462276.918608) can0 1A7#00005D8610DA8A2A
(1756462276.918611) can0 1B8#01005D8675BD3692
(1756462276.918614) can0 1BB#0C005D86A8655C60
(1756462276.923431) can0 062#0E44A746B843F1C8
(1756462276.926946) can0 024#0FC4A7465D3F7891
(1756462276.927051) can0 039#0FC4A7465D3F7891
(1756462276.933415) can0 062#0E44A7472E73F6BF
(1756462276.936999) can0 024#0FC4A747CB0F7FE6
(1756462276.937101) can0 039#0FC4A747CB0F7FE6
(1756462276.943577) can0 062#0E44A748BF6E492F
(1756462276.947000) can0 024#0FC4A7485A12C076
(1756462276.947103) can0 039#0FC4A7485A12C076
(1756462276.953384) can0 062#0E45A7491E348C59
(1756462276.956909) can0 024#0FC4A749CC22C701
(1756462276.957022) can0 039#0FC5A749FB480500
(1756462276.963413) can0 062#0E44A74A930F47C1
(1756462276.966978) can0 024#0FC5A74A41190C99
(1756462276.967082) can0 039#0FC4A74A7673CE98
(1756462276.973318) can0 062#0E45A74B325582B7
(1756462276.976984) can0 024#0FC4A74BE043C9EF
(1756462276.977089) can0 039#0FC4A74BE043C9EF
(1756462276.983480) can0 062#0E45A74C91C0E629
(1756462276.986988) can0 024#0FC4A74C43D6AD71
(1756462276.987094) can0 039#0FC3A74CC6C0E274
(1756462276.995679) can0 062#0E45A74D07F0E15E
(1756462276.996921) can0 024#0FC5A74DE28C6807
(1756462276.996966) can0 039#0FC4A74DD5E6AA06
(1756462277.003463) can0 062#0E44A74E8ACB2AC6
(1756462277.007018) can0 024#0FC4A74E6FB7A39F
(1756462277.007057) can0 039#0FC4A74E6FB7A39F
(1756462277.015478) can0 062#0E44A74F1CFB2DB1
(1756462277.015510) can0 1D3#00005D8786EA8D5D
(1756462277.015514) can0 150#02005D870D2284F7
(1756462277.018882) can0 024#0FC4A74FF987A4E8
(1756462277.018915) can0 039#0FC4A74FF987A4E8
(1756462277.018920) can0 077#00015D87B1804F5C
(1756462277.018923) can0 098#00005D8786EA8D5D
(1756462277.018927) can0 1A7#00005D8786EA8D5D
(1756462277.018930) can0 1B8#01005D87E38D31E5
(1756462277.018933) can0 1BB#0C005D873E555B17
(1756462277.023466) can0 062#0E45A750DE9CE73D
(1756462277.027232) can0 024#0FC4A7500C8AAC65
(1756462277.027317) can0 039#0FC4A7500C8AAC65
(1756462277.033383) can0 062#0E44A7517FC6224B
(1756462277.037110) can0 024#0FC3A7511FACE417
(1756462277.037202) can0 039#0FC4A7519ABAAB12
(1756462277.045613) can0 062#0E44A752C5972BD2
(1756462277.047609) can0 024#0FC4A75220EBA28B
(1756462277.047640) can0 039#0FC4A75220EBA28B
(1756462277.053461) can0 062#0E44A75353A72CA5
(1756462277.056977) can0 024#0FC4A753B6DBA5FC
(1756462277.057009) can0 039#0FC4A753B6DBA5FC
(1756462277.063464) can0 062#0E44A754F032483B
(1756462277.066978) can0 024#0FC4A754154EC162
(1756462277.067010) can0 039#0FC4A754154EC162
(1756462277.073393) can0 062#0E44A75566024F4C
(1756462277.077021) can0 024#0FC4A755837EC615
(1756462277.077052) can0 039#0FC4A755837EC615
(1756462277.083438) can0 062#0E44A756DC5346D5
(1756462277.086978) can0 024#0FC5A7560E450D8D
(1756462277.087009) can0 039#0FC4A756392FCF8C
(1756462277.093587) can0 062#0E44A7574A6341A2
(1756462277.097336) can0 024#0FC4A757AF1FC8FB
(1756462277.097369) can0 039#0FC4A757AF1FC8FB
(1756462277.103540) can0 062#0E44A758DB7EFE32
(1756462277.107030) can0 024#0FC4A7583E02776B
(1756462277.107062) can0 039#0FC4A7583E02776B
(1756462277.113807) can0 062#0E44A7594D4EF945
(1756462277.113898) can0 1D3#00005D8817F732CD
(1756462277.113909) can0 150#02005D889C3F3B67
(1756462277.118446) can0 024#0FC5A7599F58B21D
(1756462277.118477) can0 039#0FC4A759A832701C
(1756462277.118481) can0 077#00015D88209DF0CC
(1756462277.118485) can0 098#00005D8817F732CD
(1756462277.118488) can0 1A7#00005D8817F732CD
(1756462277.118492) can0 1B8#01005D8872908E75
(1756462277.118495) can0 1BB#0C005D88AF48E487
(1756462277.123459) can0 062#0E45A75AC07532DD
(1756462277.127031) can0 024#0FC3A75A97753680
(1756462277.127062) can0 039#0FC5A75A2509BB84
(1756462277.133498) can0 062#0E44A75B612FF7AB
(1756462277.136921) can0 024#0FC4A75B84537EF2
(1756462277.136952) can0 039#0FC5A75BB339BCF3
(1756462277.145199) can0 062#0E44A75CC2BA9335
(1756462277.146920) can0 024#0FC3A75CA2D05569
(1756462277.146950) can0 039#0FC4A75C27C61A6C
(1756462277.153522) can0 062#0E45A75D63E05643
(1756462277.156982) can0 024#0FC4A75DB1F61D1B
(1756462277.157014) can0 039#0FC4A75DB1F61D1B
(1756462277.163473) can0 062#0E45A75ED9B15FDA
(1756462277.167022) can0 024#0FC4A75E0BA71482
(1756462277.167110) can0 039#0FC4A75E0BA71482
(1756462277.173415) can0 062#0E45A75F4F8158AD
(1756462277.176994) can0 024#0FC6A75FF34397F6
(1756462277.177025) can0 039#0FC4A75F9D9713F5
(1756462277.183457) can0 062#0E45A76072AC3E1B
(1756462277.187015) can0 024#0FC5A76097D0B742
(1756462277.187047) can0 039#0FC5A76097D0B742
(1756462277.195574) can0 062#0E45A761E49C396C
(1756462277.196948) can0 024#0FC4A761368A7234
(1756462277.196979) can0 039#0FC5A76101E0B035
(1756462277.203553) can0 062#0E44A76269A7F2F4
(1756462277.207084) can0 024#0FC5A762BBB1B9AC
(1756462277.207116) can0 039#0FC5A762BBB1B9AC
(1756462277.213906) can0 062#0E44A763FF97F583
(1756462277.213938) can0 1D3#00005D8981C735BA
(1756462277.213942) can0 150#02005D890A0F3C10
(1756462277.218849) can0 024#0FC4A7631AEB7CDA
(1756462277.218901) can0 039#0FC5A7632D81BEDB
(1756462277.218908) can0 077#00015D89B6ADF7BB
(1756462277.218913) can0 098#00005D8981C735BA
(1756462277.218917) can0 1A7#00005D8981C735BA
(1756462277.218922) can0 1B8#01005D89E4A08902
(1756462277.218927) can0 1BB#0C005D893978E3F0
(1756462277.223486) can0 062#0E44A7645C02911D
(1756462277.227009) can0 024#0FC4A764B97E1844
(1756462277.227040) can0 039#0FC5A7648E14DA45
(1756462277.233466) can0 062#0E43A7654F24D96F
(1756462277.237032) can0 024#0FC4A7652F4E1F33
(1756462277.237064) can0 039#0FC4A7652F4E1F33
(1756462277.245614) can0 062#0E44A76670639FF3
(1756462277.247621) can0 024#0FC4A766951F16AA
(1756462277.247652) can0 039#0FC4A766951F16AA
(1756462277.253491) can0 062#0E45A767D1395A85
(1756462277.257027) can0 024#0FC4A767032F11DD
(1756462277.257058) can0 039#0FC5A7673445D3DC
(1756462277.263469) can0 062#0E45A7684024E515
(1756462277.267021) can0 024#0FC5A768A5586C4C
(1756462277.267057) can0 039#0FC4A7689232AE4D
(1756462277.273490) can0 062#0E45A769D614E262
(1756462277.277001) can0 024#0FC4A7690402A93A
(1756462277.277032) can0 039#0FC4A7690402A93A
(1756462277.283367) can0 062#0E44A76A5B2F29FA
(1756462277.287037) can0 024#0FC5A76A893962A2
(1756462277.287069) can0 039#0FC5A76A893962A2
(1756462277.295620) can0 062#0E44A76BCD1F2E8D
(1756462277.297777) can0 024#0FC5A76B1F0965D5
(1756462277.297867) can0 039#0FC4A76B2863A7D4
(1756462277.303458) can0 062#0E45A76C59E08812
(1756462277.307019) can0 024#0FC4A76C8BF6C34A
(1756462277.307051) can0 039#0FC4A76C8BF6C34A
(1756462277.314379) can0 062#0E44A76DF8BA4D64
(1756462277.314430) can0 1D3#00005D8A3B963C23
(1756462277.314437) can0 150#02005D8AB05E3589
(1756462277.318922) can0 024#0FC5A76D2AAC063C
(1756462277.319032) can0 039#0FC4A76D1DC6C43D
(1756462277.319040) can0 077#00015D8A0CFCFE22
(1756462277.319044) can0 098#00005D8A3B963C23
(1756462277.319047) can0 1A7#00005D8A3B963C23
(1756462277.319051) can0 1B8#01005D8A5EF1809B
(1756462277.319054) can0 1BB#0C005D8A8329EA69
(1756462277.323548) can0 062#0E44A76E42EB44FD
(1756462277.326916) can0 024#0FC4A76EA797CDA4
(1756462277.327018) can0 039#0FC4A76EA797CDA4
(1756462277.333525) can0 062#0E45A76FE3B1818B
(1756462277.337023) can0 024#0FC5A76F06CD08D2
(1756462277.337127) can0 039#0FC5A76F06CD08D2
(1756462277.344092) can0 062#0E44A77021D64B07
(1756462277.347021) can0 024#0FC4A770C4AAC25E
(1756462277.347128) can0 039#0FC5A770F3C0005F
(1756462277.353444) can0 062#0E45A771808C8E71
(1756462277.357069) can0 024#0FC4A771529AC529
(1756462277.357174) can0 039#0FC5A77165F00728
(1756462277.363474) can0 062#0E44A7720DB745E9
(1756462277.367024) can0 024#0FC4A772E8CBCCB0
(1756462277.367126) can0 039#0FC4A772E8CBCCB0
(1756462277.373471) can0 062#0E45A773ACED809F
(1756462277.377050) can0 024#0FC4A7737EFBCBC7
(1756462277.377156) can0 039#0FC4A7737EFBCBC7
(1756462277.383462) can0 062#0E44A77438122600
(1756462277.387007) can0 024#0FC3A7745878E05C
(1756462277.387112) can0 039#0FC5A774EA046D58
(1756462277.395619) can0 062#0E44A775AE222177
(1756462277.396889) can0 024#0FC4A7754B5EA82E
(1756462277.396990) can0 039#0FC4A7754B5EA82E
(1756462277.403436) can0 062#0E44A776147328EE
(1756462277.406990) can0 024#0FC4A776F10FA1B7
(1756462277.407091) can0 039#0FC6A7769FDB25B4
(1756462277.413822) can0 062#0E45A777B529ED98
(1756462277.413924) can0 1D3#00005D8BADA63B54
(1756462277.413933) can0 150#02005D8B266E32FE
(1756462277.418466) can0 024#0FC4A777673FA6C0
(1756462277.418568) can0 039#0FC4A777673FA6C0
(1756462277.418578) can0 077#00015D8B9ACCF955
(1756462277.418582) can0 098#00005D8BADA63B54
(1756462277.418586) can0 1A7#00005D8BADA63B54
(1756462277.418589) can0 1B8#01005D8BC8C187EC
(1756462277.418593) can0 1BB#0C005D8B1519ED1E
(1756462277.423448) can0 062#0E44A778135E9009
(1756462277.426938) can0 024#0FC4A778F6221950
(1756462277.427041) can0 039#0FC5A778C148DB51
(1756462277.433460) can0 062#0E44A779856E977E
(1756462277.436966) can0 024#0FC4A77960121E27
(1756462277.437133) can0 039#0FC5A7795778DC26
(1756462277.443593) can0 062#0E44A77A3F3F9EE7
(1756462277.447012) can0 024#0FC4A77ADA4317BE
(1756462277.447115) can0 039#0FC5A77AED29D5BF
(1756462277.453524) can0 062#0E45A77B9E655B91
(1756462277.457031) can0 024#0FC4A77B4C7310C9
(1756462277.457133) can0 039#0FC5A77B7B19D2C8
(1756462277.463543) can0 062#0E44A77C0A9AFD0E
(1756462277.467018) can0 024#0FC5A77CD88CB656
(1756462277.467123) can0 039#0FC4A77CEFE67457
(1756462277.473469) can0 062#0E44A77D9CAAFA79
(1756462277.476962) can0 024#0FC3A77DFCC03C25
(1756462277.477066) can0 039#0FC5A77D4EBCB121
(1756462277.483458) can0 062#0E44A77E26FBF3E0
(1756462277.487082) can0 024#0FC5A77EF4EDB8B8
(1756462277.487194) can0 039#0FC4A77EC3877AB9
(1756462277.495233) can0 062#0E44A77FB0CBF497
(1756462277.497024) can0 024#0FC4A77F55B77DCE
(1756462277.497128) can0 039#0FC4A77F55B77DCE
(1756462277.503481) can0 062#0E44A7803D24F6BA
(1756462277.507016) can0 024#0FC4A780D8587FE3
(1756462277.507121) can0 039#0FC4A780D8587FE3
(1756462277.513999) can0 062#0E45A7819C7E33CC
(1756462277.514107) can0 1D3#00005D8C0E335FCA
(1756462277.514115) can0 150#02005D8C85FB5660
(1756462277.518465) can0 024#0FC5A7817902BA95
(1756462277.518567) can0 039#0FC5A7817902BA95
(1756462277.518575) can0 077#00015D8C39599DCB
(1756462277.518580) can0 098#00005D8C0E335FCA
(1756462277.518583) can0 1A7#00005D8C0E335FCA
(1756462277.518587) can0 1B8#01005D8C6B54E372
(1756462277.518590) can0 1BB#0C005D8CB68C8980
(1756462277.523480) can0 062#0E44A7821145F854
(1756462277.526994) can0 024#0FC5A782C353B30C
(1756462277.527098) can0 039#0FC4A782F439710D
(1756462277.533496) can0 062#0E44A7838775FF23
(1756462277.536979) can0 024#0FC4A7836209767A
(1756462277.537083) can0 039#0FC4A7836209767A
(1756462277.543586) can0 062#0E44A78424E09BBD
(1756462277.546993) can0 024#0FC5A784F6F6D0E5
(1756462277.547104) can0 039#0FC4A784C19C12E4
(1756462277.553502) can0 062#0E44A785B2D09CCA
(1756462277.557058) can0 024#0FC4A78557AC1593
(1756462277.557162) can0 039#0FC5A78560C6D792
(1756462277.563475) can0 062#0E44A78608819553
(1756462277.566933) can0 024#0FC4A786EDFD1C0A
(1756462277.567037) can0 039#0FC4A786EDFD1C0A
(1756462277.573454) can0 062#0E44A7879EB19224
(1756462277.576933) can0 024#0FC4A7877BCD1B7D
(1756462277.577038) can0 039#0FC5A7874CA7D97C
(1756462277.583517) can0 062#0E44A7880FAC2DB4
(1756462277.587020) can0 024#0FC4A788EAD0A4ED
(1756462277.587121) can0 039#0FC5A788DDBA66EC
(1756462277.593573) can0 062#0E44A789999C2AC3
(1756462277.597036) can0 024#0FC5A7894B8A619B
(1756462277.597138) can0 039#0FC4A7897CE0A39A
(1756462277.603467) can0 062#0E45A78A14A7E15B
(1756462277.607005) can0 024#0FC4A78AC6B1AA03
(1756462277.607110) can0 039#0FC4A78AC6B1AA03
(1756462277.614017) can0 062#0E44A78BB5FD242D
(1756462277.614120) can0 1D3#00005D8D980358BD
(1756462277.614129) can0 150#02005D8D13CB5117
(1756462277.618439) can0 024#0FC4A78B5081AD74
(1756462277.618538) can0 039#0FC4A78B5081AD74
(1756462277.618546) can0 077#00015D8DAF699ABC
(1756462277.618551) can0 098#00005D8D980358BD
(1756462277.618554) can0 1A7#00005D8D980358BD
(1756462277.618558) can0 1B8#01005D8DFD64E405
(1756462277.618561) can0 1BB#0C005D8D20BC8EF7
(1756462277.623527) can0 062#0E44A78C166840B3
(1756462277.626992) can0 024#0FC4A78CF314C9EA
(1756462277.627095) can0 039#0FC4A78CF314C9EA
(1756462277.633489) can0 062#0E44A78D805847C4
(1756462277.637001) can0 024#0FC4A78D6524CE9D
(1756462277.637107) can0 039#0FC5A78D524E0C9C
(1756462277.643504) can0 062#0E44A78E3A094E5D
(1756462277.647034) can0 024#0FC5A78EE81F0505
(1756462277.647140) can0 039#0FC4A78EDF75C704
(1756462277.653409) can0 062#0E44A78FAC39492A
(1756462277.657039) can0 024#0FC5A78F7E2F0272
(1756462277.657148) can0 039#0FC4A78F4945C073
(1756462277.663541) can0 062#0E44A790593441A7
(1756462277.666958) can0 024#0FC4A790BC48C8FE
(1756462277.667062) can0 039#0FC5A7908B220AFF
(1756462277.673483) can0 062#0E45A791F86E84D1
(1756462277.676922) can0 024#0FC3A791AF6E808C
(1756462277.677025) can0 039#0FC4A7912A78CF89
(1756462277.683455) can0 062#0E45A792423F8D48
(1756462277.687109) can0 024#0FC4A7929029C610
(1756462277.687214) can0 039#0FC4A7929029C610
(1756462277.695616) can0 062#0E45A793D40F8A3F
(1756462277.697008) can0 024#0FC5A79331730366
(1756462277.697112) can0 039#0FC5A79331730366
(1756462277.703465) can0 062#0E45A794779AEEA1
(1756462277.706942) can0 024#0FC4A794A58CA5F9
(1756462277.707047) can0 039#0FC4A794A58CA5F9
(1756462277.713786) can0 062#0E44A795D6C02BD7
(1756462277.713890) can0 1D3#00005D8E22525124
(1756462277.713899) can0 150#02005D8EA99A588E
(1756462277.718587) can0 024#0FC3A795B6AAED8B
(1756462277.718688) can0 039#0FC4A79533BCA28E
(1756462277.718696) can0 077#00015D8E15389325
(1756462277.718700) can0 098#00005D8E22525124
(1756462277.718704) can0 1A7#00005D8E22525124
(1756462277.718707) can0 1B8#01005D8E4735ED9C
(1756462277.718712) can0 1BB#0C005D8E9AED876E
(1756462277.723439) can0 062#0E45A7965BFBE04F
(1756462277.727105) can0 024#0FC5A796BE876916
(1756462277.727212) can0 039#0FC4A79689EDAB17
(1756462277.733290) can0 062#0E45A797CDCBE738
(1756462277.737038) can0 024#0FC4A7971FDDAC60
(1756462277.737070) can0 039#0FC4A7971FDDAC60
(1756462277.743394) can0 062#0E44A7986BBC9AA9
(1756462277.747144) can0 024#0FC4A7988EC013F0
(1756462277.747183) can0 039#0FC4A7988EC013F0
(1756462277.753460) can0 062#0E45A799CAE65FDF
(1756462277.757005) can0 024#0FC5A7992F9AD686
(1756462277.757037) can0 039#0FC4A79918F01487
(1756462277.763399) can0 062#0E44A79A47DD9447
(1756462277.766980) can0 024#0FC4A79AA2A11D1E
(1756462277.767012) can0 039#0FC5A79A95CBDF1F
(1756462277.773349) can0 062#0E45A79BE6875131
(1756462277.776948) can0 024#0FC4A79B34911A69
(1756462277.776980) can0 039#0FC4A79B34911A69
(1756462277.783455) can0 062#0E44A79C7278F7AE
(1756462277.787022) can0 024#0FC4A79C97047EF7
(1756462277.787053) can0 039#0FC4A79C97047EF7
(1756462277.793903) can0 062#0E44A79DE448F0D9
(1756462277.797037) can0 024#0FC4A79D01347980
(1756462277.797069) can0 039#0FC5A79D365EBB81
(1756462277.803417) can0 062#0E45A79E69733B41
(1756462277.807103) can0 024#0FC4A79EBB657019
(1756462277.807144) can0 039#0FC5A79E8C0FB218
(1756462277.813813) can0 062#0E44A79FC829FE37
(1756462277.813845) can0 1D3#00005D8FB4625653
(1756462277.813850) can0 150#02005D8F3FAA5FF9
(1756462277.818507) can0 024#0FC4A79F2D55776E
(1756462277.818538) can0 039#0FC4A79F2D55776E
(1756462277.818542) can0 077#00015D8F83089452
(1756462277.818546) can0 098#00005D8FB4625653
(1756462277.818549) can0 1A7#00005D8FB4625653
(1756462277.818553) can0 1B8#01005D8FD105EAEB
(1756462277.818556) can0 1BB#0C005D8F0CDD8019
(1756462277.823312) can0 062#0E45A7A0C26E5A80
(1756462277.827121) can0 024#0FC4A7A0107811D8
(1756462277.827153) can0 039#0FC4A7A0107811D8
(1756462277.833412) can0 062#0E45A7A1545E5DF7
(1756462277.837079) can0 024#0FC4A7A1864816AF
(1756462277.837110) can0 039#0FC4A7A1864816AF
(1756462277.843961) can0 062#0E45A7A2EE0F546E
(1756462277.847088) can0 024#0FC4A7A23C191F36
(1756462277.847176) can0 039#0FC5A7A20B73DD37
(1756462277.853853) can0 062#0E44A7A34F559118
(1756462277.857101) can0 024#0FC5A7A39D43DA40
(1756462277.857132) can0 039#0FC4A7A3AA291841
(1756462277.863346) can0 062#0E45A7A4DBAA3787
(1756462277.867107) can0 024#0FC4A7A409BC7CDF
(1756462277.867138) can0 039#0FC4A7A409BC7CDF
(1756462277.873436) can0 062#0E44A7A57AF0F2F1
(1756462277.876998) can0 024#0FC4A7A59F8C7BA8
(1756462277.877029) can0 039#0FC3A7A51A9A34AD
(1756462277.883443) can0 062#0E45A7A6F7CB3969
(1756462277.887080) can0 024#0FC4A7A625DD7231
(1756462277.887110) can0 039#0FC4A7A625DD7231
(1756462277.893424) can0 062#0E44A7A75691FC1F
(1756462277.896997) can0 024#0FC5A7A78487B747
(1756462277.897028) can0 039#0FC4A7A7B3ED7546
(1756462277.903427) can0 062#0E44A7A8C78C438F
(1756462277.907031) can0 024#0FC4A7A822F0CAD6
(1756462277.907063) can0 039#0FC5A7A8159A08D7
(1756462277.913818) can0 062#0E44A7A951BC44F8
(1756462277.913848) can0 1D3#00005D90416F5EDE
(1756462277.913853) can0 150#02005D90CAA75774
(1756462277.918446) can0 024#0FC5A7A983AA0FA0
(1756462277.918537) can0 039#0FC5A7A983AA0FA0
(1756462277.918548) can0 077#00015D9076059CDF
(1756462277.918552) can0 098#00005D90416F5EDE
(1756462277.918555) can0 1A7#00005D90416F5EDE
(1756462277.918558) can0 1B8#01005D902408E266
(1756462277.918562) can0 1BB#0C005D90F9D08894
(1756462277.923496) can0 062#0E45A7AADC878F60
(1756462277.926947) can0 024#0FC5A7AA39FB0639
(1756462277.926979) can0 039#0FC4A7AA0E91C438
(1756462277.933385) can0 062#0E45A7AB4AB78817
(1756462277.936944) can0 024#0FC5A7ABAFCB014E
(1756462277.936974) can0 039#0FC4A7AB98A1C34F
(1756462277.943634) can0 062#0E44A7ACDE482E88
(1756462277.947016) can0 024#0FC4A7AC3B34A7D1
(1756462277.947054) can0 039#0FC5A7AC0C5E65D0
(1756462277.953350) can0 062#0E44A7AD487829FF
(1756462277.957060) can0 024#0FC5A7AD9A6E62A7
(1756462277.957165) can0 039#0FC5A7AD9A6E62A7
(1756462277.963652) can0 062#0E44A7AEF2292066
(1756462277.966828) can0 024#0FC4A7AE1755A93F
(1756462277.966933) can0 039#0FC5A7AE203F6B3E
(1756462277.973516) can0 062#0E45A7AF5373E510
(1756462277.976931) can0 024#0FC4A7AF8165AE48
(1756462277.977036) can0 039#0FC4A7AF8165AE48
(1756462277.983433) can0 062#0E44A7B091142F9C
(1756462277.986969) can0 024#0FC4A7B07468A6C5
(1756462277.987075) can0 039#0FC4A7B07468A6C5
(1756462277.995524) can0 062#0E45A7B1304EEAEA
(1756462277.996936) can0 024#0FC4A7B1E258A1B2
(1756462277.997040) can0 039#0FC6A7B18C8C25B1
(1756462278.003519) can0 062#0E44A7B2BD752172
(1756462278.006937) can0 024#0FC4A7B25809A82B
(1756462278.007040) can0 039#0FC5A7B26F636A2A
(1756462278.014157) can0 062#0E45A7B31C2FE404
(1756462278.014293) can0 1D3#00005D91D75F59A9
(1756462278.014304) can0 150#02005D915C975003
(1756462278.018761) can0 024#0FC5A7B3F9536D5D
(1756462278.018877) can0 039#0FC5A7B3F9536D5D
(1756462278.018887) can0 077#00015D91E0359BA8
(1756462278.018892) can0 098#00005D91D75F59A9
(1756462278.018898) can0 1A7#00005D91D75F59A9
(1756462278.018904) can0 1B8#01005D91B238E511
(1756462278.018909) can0 1BB#0C005D916FE08FE3
(1756462278.023436) can0 062#0E44A7B488D0429B
(1756462278.026958) can0 024#0FC5A7B45AC609C3
(1756462278.027065) can0 039#0FC4A7B46DACCBC2
(1756462278.033310) can0 062#0E45A7B5298A87ED
(1756462278.036585) can0 024#0FC4A7B5FB9CCCB5
(1756462278.036645) can0 039#0FC4A7B5FB9CCCB5
(1756462278.043343) can0 062#0E45A7B693DB8E74
(1756462278.046174) can0 024#0FC4A7B641CDC52C
(1756462278.046199) can0 039#0FC3A7B6C4DB8A29
(1756462278.052801) can0 062#0E44A7B732814B02
(1756462278.056235) can0 024#0FC4A7B7D7FDC25B
(1756462278.056267) can0 039#0FC5A7B7E097005A
(1756462278.062802) can0 062#0E44A7B8A39CF492
(1756462278.066043) can0 024#0FC5A7B8718ABFCA
(1756462278.066191) can0 039#0FC4A7B846E07DCB
(1756462278.072867) can0 062#0E45A7B902C631E4
(1756462278.076217) can0 024#0FC4A7B9D0D07ABC
(1756462278.076245) can0 039#0FC5A7B9E7BAB8BD
(1756462278.082798) can0 062#0E45A7BAB897387D
(1756462278.086187) can0 024#0FC4A7BA6A817325
(1756462278.086216) can0 039#0FC4A7BA6A817325
(1756462278.092853) can0 062#0E45A7BB2EA73F0A
(1756462278.096231) can0 024#0FC5A7BBCBDBB653
(1756462278.096260) can0 039#0FC4A7BBFCB17452
(1756462278.102804) can0 062#0E45A7BC8D325B94
(1756462278.106228) can0 024#0FC4A7BC5F2410CC
(1756462278.106256) can0 039#0FC4A7BC5F2410CC
(1756462278.112818) can0 062#0E44A7BD2C689EE2
(1756462278.113149) can0 1D3#00005D926D0E5030
(1756462278.113176) can0 150#02005D92E6C6599A
(1756462278.116208) can0 024#0FC4A7BDC91417BB
(1756462278.116235) can0 039#0FC5A7BDFE7ED5BA
(1756462278.116602) can0 077#00015D925A649231
(1756462278.116702) can0 098#00005D926D0E5030
(1756462278.117054) can0 1A7#00005D926D0E5030
(1756462278.117637) can0 1B8#01005D920869EC88
(1756462278.117663) can0 1BB#0C005D92D5B1867A
(1756462278.122766) can0 062#0E44A7BE9639977B
(1756462278.126218) can0 024#0FC4A7BE73451E22
(1756462278.126243) can0 039#0FC5A7BE442FDC23
(1756462278.132796) can0 062#0E45A7BF3763520D
(1756462278.136168) can0 024#0FC4A7BFE5751955
(1756462278.136300) can0 039#0FC5A7BFD21FDB54
(1756462278.142936) can0 062#0E45A7C09A0FE8CD
(1756462278.146043) can0 024#0FC5A7C07F736194
(1756462278.146190) can0 039#0FC5A7C07F736194
(1756462278.152825) can0 062#0E45A7C10C3FEFBA
(1756462278.156054) can0 024#0FC4A7C1DE29A4E2
(1756462278.156283) can0 039#0FC4A7C1DE29A4E2
(1756462278.162794) can0 062#0E45A7C2B66EE623
(1756462278.166207) can0 024#0FC4A7C26478AD7B
(1756462278.166241) can0 039#0FC5A7C253126F7A
(1756462278.172863) can0 062#0E45A7C3205EE154
(1756462278.176198) can0 024#0FC3A7C3775EE509
(1756462278.176225) can0 039#0FC5A7C3C522680D
(1756462278.182867) can0 062#0E44A7C4B4A147CB
(1756462278.186177) can0 024#0FC4A7C451DDCE92
(1756462278.186307) can0 039#0FC4A7C451DDCE92
(1756462278.194960) can0 062#0E45A7C515FB82BD
(1756462278.196218) can0 024#0FC4A7C5C7EDC9E5
(1756462278.196245) can0 039#0FC4A7C5C7EDC9E5
(1756462278.202877) can0 062#0E44A7C698C04925
(1756462278.206105) can0 024#0FC5A7C64AD6027D
(1756462278.206264) can0 039#0FC5A7C64AD6027D
(1756462278.212997) can0 062#0E44A7C70EF04E52
(1756462278.213030) can0 1D3#00005D93FB3E5747
(1756462278.213303) can0 150#02005D9370F65EED
(1756462278.216109) can0 024#0FC4A7C7EB8CC70B
(1756462278.216389) can0 039#0FC5A7C7DCE6050A
(1756462278.216412) can0 077#00015D93CC549546
(1756462278.216699) can0 098#00005D93FB3E5747
(1756462278.216886) can0 1A7#00005D93FB3E5747
(1756462278.217645) can0 1B8#01005D939E59EBFF
(1756462278.217673) can0 1BB#0C005D934381810D
(1756462278.222841) can0 062#0E44A7C89FEDF1C2
(1756462278.226183) can0 024#0FC5A7C84DFBBA9A
(1756462278.226212) can0 039#0FC4A7C87A91789B
(1756462278.232841) can0 062#0E44A7C909DDF6B5
(1756462278.236201) can0 024#0FC5A7C9DBCBBDED
(1756462278.236230) can0 039#0FC5A7C9DBCBBDED
(1756462278.244504) can0 062#0E44A7CAB38CFF2C
(1756462278.246198) can0 024#0FC4A7CA56F07675
(1756462278.246227) can0 039#0FC4A7CA56F07675
(1756462278.252848) can0 062#0E44A7CB25BCF85B
(1756462278.256109) can0 024#0FC5A7CBF7AAB303
(1756462278.256248) can0 039#0FC5A7CBF7AAB303
(1756462278.262845) can0 062#0E44A7CC86299CC5
(1756462278.266187) can0 024#0FC4A7CC6355159C
(1756462278.266216) can0 039#0FC4A7CC6355159C
(1756462278.272869) can0 062#0E45A7CD277359B3
(1756462278.276177) can0 024#0FC4A7CDF56512EB
(1756462278.276276) can0 039#0FC4A7CDF56512EB
(1756462278.282933) can0 062#0E44A7CEAA48922B
(1756462278.286720) can0 024#0FC5A7CE785ED973
(1756462278.286798) can0 039#0FC4A7CE4F341B72
(1756462278.293347) can0 062#0E45A7CF0B12575D
(1756462278.296603) can0 024#0FC4A7CFD9041C05
(1756462278.296659) can0 039#0FC4A7CFD9041C05
(1756462278.303177) can0 062#0E45A7D0FE1F5FD0
(1756462278.306563) can0 024#0FC4A7D02C091488
(1756462278.306621) can0 039#0FC5A7D01B63D689
(1756462278.313540) can0 062#0E44A7D15F459AA6
(1756462278.313597) can0 1D3#00005D9458AB33D9
(1756462278.313601) can0 150#02005D94D3633A73
(1756462278.317204) can0 024#0FC4A7D1BA3913FF
(1756462278.317259) can0 039#0FC4A7D1BA3913FF
(1756462278.317263) can0 077#00015D946FC1F1D8
(1756462278.317265) can0 098#00005D9458AB33D9
(1756462278.317267) can0 1A7#00005D9458AB33D9
(1756462278.317954) can0 1B8#01005D943DCC8F61
(1756462278.318010) can0 1BB#0C005D94E014E593
(1756462278.323207) can0 062#0E44A7D2E514933F
(1756462278.326689) can0 024#0FC5A7D23702D867
(1756462278.326770) can0 039#0FC5A7D23702D867
(1756462278.333220) can0 062#0E45A7D3444E5649
(1756462278.336427) can0 024#0FC4A7D396581D11
(1756462278.336484) can0 039#0FC5A7D3A132DF10
(1756462278.345277) can0 062#0E43A7D455A7BFD3
(1756462278.347212) can0 024#0FC4A7D435CD798F
(1756462278.347262) can0 039#0FC5A7D402A7BB8E
(1756462278.353100) can0 062#0E45A7D571EB35A0
(1756462278.356426) can0 024#0FC4A7D5A3FD7EF8
(1756462278.356479) can0 039#0FC4A7D5A3FD7EF8
(1756462278.363048) can0 062#0E45A7D6CBBA3C39
(1756462278.366343) can0 024#0FC3A7D69CBA3864
(1756462278.366396) can0 039#0FC4A7D619AC7761
(1756462278.373004) can0 062#0E45A7D75D8A3B4E
(1756462278.376349) can0 024#0FC5A7D7B8F6B217
(1756462278.376391) can0 039#0FC4A7D78F9C7016
(1756462278.383031) can0 062#0E44A7D8FBFD46DF
(1756462278.386304) can0 024#0FC5A7D829EB0D87
(1756462278.386335) can0 039#0FC4A7D81E81CF86
(1756462278.395029) can0 062#0E44A7D96DCD41A8
(1756462278.397006) can0 024#0FC4A7D988B1C8F1
(1756462278.397038) can0 039#0FC5A7D9BFDB0AF0
(1756462278.402959) can0 062#0E44A7DAD79C4831
(1756462278.406312) can0 024#0FC5A7DA058A0369
(1756462278.406343) can0 039#0FC4A7DA32E0C168
(1756462278.413026) can0 062#0E45A7DB76C68D47
(1756462278.413062) can0 1D3#00005D95CE9B34AE
(1756462278.413219) can0 150#02005D9545533D04
(1756462278.416323) can0 024#0FC5A7DB93BA041E
(1756462278.416360) can0 039#0FC4A7DBA4D0C61F
(1756462278.416499) can0 077#00015D95F9F1F6AF
(1756462278.416696) can0 098#00005D95CE9B34AE
(1756462278.417136) can0 1A7#00005D95CE9B34AE
(1756462278.417707) can0 1B8#01005D95ABFC8816
(1756462278.417738) can0 1BB#0C005D957624E2E4
(1756462278.422868) can0 062#0E45A7DCD553E9D9
(1756462278.426265) can0 024#0FC5A7DC302F6080
(1756462278.426297) can0 039#0FC4A7DC0745A281
(1756462278.432935) can0 062#0E44A7DD74092CAF
(1756462278.436279) can0 024#0FC5A7DDA61F67F7
(1756462278.436288) can0 039#0FC5A7DDA61F67F7
(1756462278.443016) can0 062#0E44A7DECE582536
(1756462278.446278) can0 024#0FC5A7DE1C4E6E6E
(1756462278.446290) can0 039#0FC5A7DE1C4E6E6E
(1756462278.452889) can0 062#0E44A7DF58682241
(1756462278.456285) can0 024#0FC5A7DF8A7E6919
(1756462278.456295) can0 039#0FC4A7DFBD14AB18
(1756462278.462968) can0 062#0E45A7E0522F86F6
(1756462278.466223) can0 024#0FC4A7E08039CDAE
(1756462278.466233) can0 039#0FC5A7E0B7530FAF
(1756462278.472917) can0 062#0E44A7E1F3754380
(1756462278.476345) can0 024#0FC3A7E1931F85DC
(1756462278.476362) can0 039#0FC5A7E1216308D8
(1756462278.482936) can0 062#0E45A7E27E4E8818
(1756462278.486300) can0 024#0FC4A7E2AC58C340
(1756462278.486310) can0 039#0FC3A7E2294E8C45
(1756462278.495061) can0 062#0E44A7E3DF144D6E
(1756462278.497097) can0 024#0FC5A7E30D020636
(1756462278.497107) can0 039#0FC5A7E30D020636
(1756462278.502933) can0 062#0E44A7E47C8129F0
(1756462278.506340) can0 024#0FC4A7E499FDA0A9
(1756462278.506351) can0 039#0FC5A7E4AE9762A8
(1756462278.512992) can0 062#0E44A7E5EAB12E87
(1756462278.513000) can0 1D3#00005D9674CA3D37
(1756462278.513361) can0 150#02005D96FF02349D
(1756462278.516506) can0 024#0FC4A7E50FCDA7DE
(1756462278.516515) can0 039#0FC4A7E50FCDA7DE
(1756462278.516517) can0 077#00015D9643A0FF36
(1756462278.516996) can0 098#00005D9674CA3D37
(1756462278.517005) can0 1A7#00005D9674CA3D37
(1756462278.517788) can0 1B8#01005D9611AD818F
(1756462278.517797) can0 1BB#0C005D96CC75EB7D
(1756462278.523027) can0 062#0E45A7E6678AE51F
(1756462278.526427) can0 024#0FC4A7E6B59CAE47
(1756462278.526461) can0 039#0FC5A7E682F66C46
(1756462278.533122) can0 062#0E44A7E7C6D02069
(1756462278.536491) can0 024#0FC4A7E723ACA930
(1756462278.536508) can0 039#0FC4A7E723ACA930
(1756462278.545381) can0 062#0E45A7E860A75DF8
(1756462278.546975) can0 024#0FC4A7E8B2B116A0
(1756462278.547001) can0 039#0FC5A7E885DBD4A1
(1756462278.553373) can0 062#0E44A7E9C1FD988E
(1756462278.556987) can0 024#0FC4A7E9248111D7
(1756462278.557017) can0 039#0FC4A7E9248111D7
(1756462278.563525) can0 062#0E45A7EA4CC65316
(1756462278.567434) can0 024#0FC5A7EAA9BADA4F
(1756462278.567475) can0 039#0FC4A7EA9ED0184E
(1756462278.573494) can0 062#0E44A7EBED9C9660
(1756462278.577065) can0 024#0FC5A7EB3F8ADD38
(1756462278.577097) can0 039#0FC4A7EB08E01F39
(1756462278.583446) can0 062#0E44A7EC4E09F2FE
(1756462278.587123) can0 024#0FC4A7ECAB757BA7
(1756462278.587154) can0 039#0FC4A7ECAB757BA7
(1756462278.593525) can0 062#0E45A7EDEF533788
(1756462278.597131) can0 024#0FC4A7ED3D457CD0
(1756462278.597163) can0 039#0FC4A7ED3D457CD0
(1756462278.603517) can0 062#0E44A7EE6268FC10
(1756462278.607131) can0 024#0FC5A7EEB07EB748
(1756462278.607162) can0 039#0FC4A7EE87147549
(1756462278.614245) can0 062#0E44A7EFF458FB67
(1756462278.614286) can0 1D3#00005D97E2FA3A40
(1756462278.614290) can0 150#02005D97693233EA
(1756462278.618521) can0 024#0FC4A7EF1124723E
(1756462278.618554) can0 039#0FC4A7EF1124723E
(1756462278.618558) can0 077#00015D97D590F841
(1756462278.618562) can0 098#00005D97E2FA3A40
(1756462278.618565) can0 1A7#00005D97E2FA3A40
(1756462278.618568) can0 1B8#01005D97879D86F8
(1756462278.618572) can0 1BB#0C005D975A45EC0A
(1756462278.623491) can0 062#0E44A7F00155F3EA
(1756462278.627032) can0 024#0FC4A7F0E4297AB3
(1756462278.627063) can0 039#0FC4A7F0E4297AB3
(1756462278.633582) can0 062#0E44A7F19765F49D
(1756462278.636979) can0 024#0FC5A7F14573BFC5
(1756462278.637010) can0 039#0FC4A7F172197DC4
(1756462278.643516) can0 062#0E45A7F21A5E3F05
(1756462278.646973) can0 024#0FC5A7F2FF22B65C
(1756462278.647003) can0 039#0FC5A7F2FF22B65C
(1756462278.653524) can0 062#0E45A7F38C6E3872
(1756462278.657038) can0 024#0FC5A7F36912B12B
(1756462278.657126) can0 039#0FC4A7F35E78732A
(1756462278.663553) can0 062#0E44A7F418919EED
(1756462278.666997) can0 024#0FC4A7F4FDED17B4
(1756462278.667028) can0 039#0FC4A7F4FDED17B4
(1756462278.673527) can0 062#0E45A7F5B9CB5B9B
(1756462278.676941) can0 024#0FC5A7F55CB7D2C2
(1756462278.676972) can0 039#0FC5A7F55CB7D2C2
(1756462278.683546) can0 062#0E44A7F634F09003
(1756462278.687034) can0 024#0FC4A7F6D18C195A
(1756462278.687065) can0 039#0FC4A7F6D18C195A
(1756462278.693517) can0 062#0E45A7F795AA5575
(1756462278.697063) can0 024#0FC5A7F770D6DC2C
(1756462278.697094) can0 039#0FC4A7F747BC1E2D
(1756462278.703575) can0 062#0E45A7F804B7EAE5
(1756462278.707040) can0 024#0FC4A7F8D6A1A1BD
(1756462278.707071) can0 039#0FC4A7F8D6A1A1BD
(1756462278.713898) can0 062#0E45A7F99287ED92
(1756462278.713929) can0 1D3#00005D9873E785D0
(1756462278.713933) can0 150#02005D98F82F8C7A
(1756462278.718508) can0 024#0FC5A7F977FB64CB
(1756462278.718539) can0 039#0FC5A7F977FB64CB
(1756462278.718543) can0 077#00015D98448D47D1
(1756462278.718547) can0 098#00005D9873E785D0
(1756462278.718630) can0 1A7#00005D9873E785D0
(1756462278.718642) can0 1B8#01005D9816803968
(1756462278.718645) can0 1BB#0C005D98CB58539A
(1756462278.723408) can0 062#0E45A7FA28D6E40B
(1756462278.727134) can0 024#0FC4A7FAFAC0AF53
(1756462278.727164) can0 039#0FC5A7FACDAA6D52
(1756462278.733486) can0 062#0E45A7FBBEE6E37C
(1756462278.737098) can0 024#0FC4A7FB6CF0A824
(1756462278.737129) can0 039#0FC5A7FB5B9A6A25
(1756462278.745571) can0 062#0E44A7FC2A1945E3
(1756462278.747052) can0 024#0FC4A7FCCF65CCBA
(1756462278.747083) can0 039#0FC3A7FC4A7383BF
(1756462278.753511) can0 062#0E44A7FDBC294294
(1756462278.757129) can0 024#0FC4A7FD5955CBCD
(1756462278.757162) can0 039#0FC4A7FD5955CBCD
(1756462278.763531) can0 062#0E44A7FE06784B0D
(1756462278.767044) can0 024#0FC4A7FEE304C254
(1756462278.767080) can0 039#0FC4A7FEE304C254
(1756462278.773491) can0 062#0E44A7FF90484C7A
(1756462278.777122) can0 024#0FC4A7FF7534C523
(1756462278.777153) can0 039#0FC4A7FF7534C523
(1756462278.783522) can0 062#0E44A800D2BBD6D0
(1756462278.787147) can0 024#0FC5A80000AD9D88
(1756462278.787234) can0 039#0FC4A80037C75F89
(1756462278.795608) can0 062#0E44A801448BD1A7
(1756462278.797742) can0 024#0FC5A801969D9AFF
(1756462278.797773) can0 039#0FC5A801969D9AFF
(1756462278.803530) can0 062#0E45A802C9B01A3F
(1756462278.807114) can0 024#0FC4A8021BA65167
(1756462278.807145) can0 039#0FC4A8021BA65167
(1756462278.813943) can0 062#0E45A8035F801D48
(1756462278.813973) can0 1D3#00005D99E5D782A7
(1756462278.813978) can0 150#02005D996E1F8B0D
(1756462278.818479) can0 024#0FC4A8038D965610
(1756462278.818510) can0 039#0FC4A8038D965610
(1756462278.818514) can0 077#00015D99D2BD40A6
(1756462278.818518) can0 098#00005D99E5D782A7
(1756462278.818521) can0 1A7#00005D99E5D782A7
(1756462278.818525) can0 1B8#01005D9980B03E1F
(1756462278.818528) can0 1BB#0C005D995D6854ED
(1756462278.823530) can0 062#0E45A804FC1579D6
(1756462278.827118) can0 024#0FC4A8042E03328E
(1756462278.827149) can0 039#0FC4A8042E03328E
(1756462278.833463) can0 062#0E45A8056A257EA1
(1756462278.837169) can0 024#0FC4A805B83335F9
(1756462278.837199) can0 039#0FC4A805B83335F9
(1756462278.845611) can0 062#0E44A806E71EB539
(1756462278.847171) can0 024#0FC4A80602623C60
(1756462278.847217) can0 039#0FC3A80687747365
(1756462278.853534) can0 062#0E44A807712EB24E
(1756462278.857050) can0 024#0FC4A80794523B17
(1756462278.857081) can0 039#0FC4A80794523B17
(1756462278.863525) can0 062#0E45A808D759CFDF
(1756462278.867054) can0 024#0FC5A80832254686
(1756462278.867085) can0 039#0FC5A80832254686
(1756462278.873534) can0 062#0E45A8094169C8A8
(1756462278.877166) can0 024#0FC4A809937F83F0
(1756462278.877207) can0 039#0FC4A809937F83F0
(1756462278.883477) can0 062#0E44A80ACC520330
(1756462278.887049) can0 024#0FC4A80A292E8A69
(1756462278.887081) can0 039#0FC4A80A292E8A69
(1756462278.893968) can0 062#0E44A80B5A620447
(1756462278.896986) can0 024#0FC4A80BBF1E8D1E
(1756462278.897018) can0 039#0FC4A80BBF1E8D1E
(1756462278.903511) can0 062#0E44A80CF9F760D9
(1756462278.907368) can0 024#0FC4A80C1C8BE980
(1756462278.907420) can0 039#0FC4A80C1C8BE980
(1756462278.913940) can0 062#0E45A80D58ADA5AF
(1756462278.914040) can0 1D3#00005D9A5F868B3E
(1756462278.914050) can0 150#02005D9AD44E8294
(1756462278.918531) can0 024#0FC4A80D8ABBEEF7
(1756462278.918631) can0 039#0FC4A80D8ABBEEF7
(1756462278.918640) can0 077#00015D9A68EC493F
(1756462278.918644) can0 098#00005D9A5F868B3E
(1756462278.918648) can0 1A7#00005D9A5F868B3E
(1756462278.918651) can0 1B8#01005D9A3AE13786
(1756462278.918655) can0 1BB#0C005D9AE7395D74
(1756462278.923537) can0 062#0E44A80ED5966E37
(1756462278.926984) can0 024#0FC4A80E30EAE76E
(1756462278.927086) can0 039#0FC4A80E30EAE76E
(1756462278.933429) can0 062#0E44A80F43A66940
(1756462278.937007) can0 024#0FC4A80FA6DAE019
(1756462278.937111) can0 039#0FC4A80FA6DAE019
(1756462278.943515) can0 062#0E44A810B6AB61CD
(1756462278.947020) can0 024#0FC4A81053D7E894
(1756462278.947052) can0 039#0FC4A81053D7E894
(1756462278.953694) can0 062#0E44A811209B66BA
(1756462278.957059) can0 024#0FC4A811C5E7EFE3
(1756462278.957090) can0 039#0FC4A811C5E7EFE3
(1756462278.963512) can0 062#0E44A8129ACA6F23
(1756462278.966945) can0 024#0FC4A8127FB6E67A
(1756462278.966976) can0 039#0FC4A8127FB6E67A
(1756462278.973532) can0 062#0E44A8130CFA6854
(1756462278.976929) can0 024#0FC4A813E986E10D
(1756462278.976961) can0 039#0FC5A813DEEC230C
(1756462278.983518) can0 062#0E44A814AF6F0CCA
(1756462278.987109) can0 024#0FC5A8147D794792
(1756462278.987141) can0 039#0FC4A8144A138593
(1756462278.993614) can0 062#0E44A815395F0BBD
(1756462278.996992) can0 024#0FC4A815DC2382E4
(1756462278.997095) can0 039#0FC5A815EB4940E5
(1756462279.003478) can0 062#0E44A816830E0224
(1756462279.006967) can0 024#0FC4A81666728B7D
(1756462279.006998) can0 039#0FC5A8165118497C
(1756462279.014207) can0 062#0E45A8172254C752
(1756462279.014239) can0 1D3#00005D9BC9B68C49
(1756462279.014243) can0 150#02005D9B427E85E3
(1756462279.018568) can0 024#0FC4A817F0428C0A
(1756462279.018598) can0 039#0FC4A817F0428C0A
(1756462279.018603) can0 077#00015D9BFEDC4E48
(1756462279.018606) can0 098#00005D9BC9B68C49
(1756462279.018610) can0 1A7#00005D9BC9B68C49
(1756462279.018613) can0 1B8#01005D9BACD130F1
(1756462279.018617) can0 1BB#0C005D9B71095A03
(1756462279.023488) can0 062#0E44A8188423BAC3
(1756462279.026968) can0 024#0FC4A818615F339A
(1756462279.026998) can0 039#0FC5A8185635F19B
(1756462279.033520) can0 062#0E44A8191213BDB4
(1756462279.037059) can0 024#0FC5A819C005F6EC
(1756462279.037089) can0 039#0FC4A819F76F34ED
(1756462279.043444) can0 062#0E44A81AA842B42D
(1756462279.047055) can0 024#0FC4A81A4D3E3D74
(1756462279.047087) can0 039#0FC5A81A7A54FF75
(1756462279.053520) can0 062#0E44A81B3E72B35A
(1756462279.057008) can0 024#0FC4A81BDB0E3A03
(1756462279.057040) can0 039#0FC4A81BDB0E3A03
(1756462279.063540) can0 062#0E45A81CAA8D15C5
(1756462279.067007) can0 024#0FC4A81C789B5E9D
(1756462279.067038) can0 039#0FC4A81C789B5E9D
(1756462279.073495) can0 062#0E45A81D3CBD12B2
(1756462279.077092) can0 024#0FC4A81DEEAB59EA
(1756462279.077121) can0 039#0FC4A81DEEAB59EA
(1756462279.083515) can0 062#0E45A81E86EC1B2B
(1756462279.087060) can0 024#0FC4A81E54FA5073
(1756462279.087091) can0 039#0FC4A81E54FA5073
(1756462279.095603) can0 062#0E44A81F27B6DE5D
(1756462279.097102) can0 024#0FC4A81FC2CA5704
(1756462279.097132) can0 039#0FC4A81FC2CA5704
(1756462279.103512) can0 062#0E44A8201A9BB8EB
(1756462279.107042) can0 024#0FC5A820C88DF3B3
(1756462279.107072) can0 039#0FC3A8207AF17EB7
(1756462279.113307) can0 062#0E45A821BBC17D9D
(1756462279.113319) can0 1D3#00005D9C6A23E8D7
(1756462279.113320) can0 150#02005D9CE1EBE17D
(1756462279.116287) can0 024#0FC4A82169D736C5
(1756462279.116296) can0 039#0FC4A82169D736C5
(1756462279.116593) can0 077#00015D9C5D492AD6
(1756462279.116956) can0 098#00005D9C6A23E8D7
(1756462279.116964) can0 1A7#00005D9C6A23E8D7
(1756462279.117720) can0 1B8#01005D9C0F44546F
(1756462279.117728) can0 1BB#0C005D9CD29C3E9D
(1756462279.123052) can0 062#0E44A82236FAB605
(1756462279.126346) can0 024#0FC5A822E4ECFD5D
(1756462279.126356) can0 039#0FC5A822E4ECFD5D
(1756462279.133129) can0 062#0E45A82397A07373
(1756462279.136407) can0 024#0FC5A82372DCFA2A
(1756462279.136419) can0 039#0FC5A82372DCFA2A
(1756462279.144808) can0 062#0E45A824343517ED
(1756462279.146581) can0 024#0FC4A824E6235CB5
(1756462279.146598) can0 039#0FC5A824D1499EB4
(1756462279.153462) can0 062#0E44A825956FD29B
(1756462279.156876) can0 024#0FC5A825477999C3
(1756462279.156968) can0 039#0FC4A82570135BC2
(1756462279.163612) can0 062#0E45A82618541903
(1756462279.167056) can0 024#0FC4A826CA42525B
(1756462279.167160) can0 039#0FC4A826CA42525B
(1756462279.173659) can0 062#0E45A8278E641E74
(1756462279.176988) can0 024#0FC4A8275C72552C
(1756462279.177092) can0 039#0FC5A8276B18972D
(1756462279.183614) can0 062#0E44A828281363E5
(1756462279.187008) can0 024#0FC4A828CD6FEABC
(1756462279.187120) can0 039#0FC4A828CD6FEABC
(1756462279.195623) can0 062#0E44A829BE236492
(1756462279.197728) can0 024#0FC4A8295B5FEDCB
(1756462279.197833) can0 039#0FC4A8295B5FEDCB
(1756462279.203592) can0 062#0E44A82A04726D0B
(1756462279.207023) can0 024#0FC4A82AE10EE452
(1756462279.207127) can0 039#0FC3A82A6418AB57
(1756462279.213852) can0 062#0E45A82BA528A87D
(1756462279.213954) can0 1D3#00005D9DFC13EFA0
(1756462279.213962) can0 150#02005D9D77DBE60A
(1756462279.218521) can0 024#0FC4A82B773EE325
(1756462279.218622) can0 039#0FC5A82B40542124
(1756462279.218631) can0 077#00015D9DCB792DA1
(1756462279.218636) can0 098#00005D9DFC13EFA0
(1756462279.218640) can0 1A7#00005D9DFC13EFA0
(1756462279.218643) can0 1B8#01005D9D99745318
(1756462279.218647) can0 1BB#0C005D9D44AC39EA
(1756462279.223516) can0 062#0E44A82C31D70EE2
(1756462279.226951) can0 024#0FC4A82CD4AB87BB
(1756462279.226983) can0 039#0FC5A82CE3C145BA
(1756462279.233455) can0 062#0E44A82DA7E70995
(1756462279.237050) can0 024#0FC5A82D75F142CD
(1756462279.237083) can0 039#0FC4A82D429B80CC
(1756462279.243641) can0 062#0E45A82E2ADCC20D
(1756462279.247036) can0 024#0FC4A82EF8CA8955
(1756462279.247067) can0 039#0FC4A82EF8CA8955
(1756462279.253578) can0 062#0E44A82F8B86077B
(1756462279.257069) can0 024#0FC4A82F6EFA8E22
(1756462279.257101) can0 039#0FC4A82F6EFA8E22
(1756462279.263706) can0 062#0E44A8307E8B0FF6
(1756462279.266988) can0 024#0FC4A8309BF786AF
(1756462279.267019) can0 039#0FC4A8309BF786AF
(1756462279.273643) can0 062#0E45A831DFD1CA80
(1756462279.277065) can0 024#0FC4A8310DC781D8
(1756462279.277169) can0 039#0FC5A8313AAD43D9
(1756462279.283717) can0 062#0E44A83252EA0118
(1756462279.287161) can0 024#0FC3A8323280C744
(1756462279.287267) can0 039#0FC4A832B7968841
(1756462279.293612) can0 062#0E44A833C4DA066F
(1756462279.297148) can0 024#0FC5A83316CC4D37
(1756462279.297254) can0 039#0FC4A83321A68F36
(1756462279.303522) can0 062#0E44A834674F62F1
(1756462279.307025) can0 024#0FC5A834B55929A9
(1756462279.307130) can0 039#0FC4A8348233EBA8
(1756462279.314180) can0 062#0E44A835F17F6586
(1756462279.314284) can0 1D3#00005D9E4642E639
(1756462279.314293) can0 150#02005D9ECD8AEF93
(1756462279.318533) can0 024#0FC3A8359115A3DA
(1756462279.318635) can0 039#0FC4A8351403ECDF
(1756462279.318643) can0 077#00015D9E71282438
(1756462279.318647) can0 098#00005D9E4642E639
(1756462279.318651) can0 1A7#00005D9E4642E639
(1756462279.318655) can0 1B8#01005D9E23255A81
(1756462279.318659) can0 1BB#0C005D9EFEFD3073
(1756462279.323447) can0 062#0E45A8367C44AE1E
(1756462279.327143) can0 024#0FC4A836AE52E546
(1756462279.327283) can0 039#0FC5A83699382747
(1756462279.333712) can0 062#0E44A837DD1E6B68
(1756462279.337136) can0 024#0FC5A8370F082030
(1756462279.337243) can0 039#0FC4A8373862E231
(1756462279.343666) can0 062#0E45A8387B6916F9
(1756462279.347062) can0 024#0FC5A8389E159FA0
(1756462279.347171) can0 039#0FC5A8389E159FA0
(1756462279.353589) can0 062#0E44A839DA33D38F
(1756462279.357111) can0 024#0FC5A839082598D7
(1756462279.357213) can0 039#0FC4A8393F4F5AD6
(1756462279.363651) can0 062#0E45A83A57081817
(1756462279.367020) can0 024#0FC5A83AB274914E
(1756462279.367051) can0 039#0FC3A83A00081C4A
(1756462279.373600) can0 062#0E45A83BC1381F60
(1756462279.377131) can0 024#0FC4A83B132E5438
(1756462279.377163) can0 039#0FC5A83B24449639
(1756462279.383570) can0 062#0E44A83C55C7B9FF
(1756462279.387385) can0 024#0FC3A83C35AD7FA3
(1756462279.387439) can0 039#0FC5A83C87D1F2A7
(1756462279.395381) can0 062#0E44A83DC3F7BE88
(1756462279.397275) can0 024#0FC4A83D268B37D1
(1756462279.397378) can0 039#0FC5A83D11E1F5D0
(1756462279.403322) can0 062#0E44A83E79A6B711
(1756462279.406624) can0 024#0FC4A83E9CDA3E48
(1756462279.406692) can0 039#0FC4A83E9CDA3E48
(1756462279.413469) can0 062#0E45A83FD8FC7267
(1756462279.413534) can0 1D3#00005D9FD072E14E
(1756462279.413538) can0 150#02005D9F5BBAE8E4
(1756462279.416570) can0 024#0FC5A83F3D80FB3E
(1756462279.416616) can0 039#0FC4A83F0AEA393F
(1756462279.416619) can0 077#00015D9FE718234F
(1756462279.417060) can0 098#00005D9FD072E14E
(1756462279.417099) can0 1A7#00005D9FD072E14E
(1756462279.417874) can0 1B8#01005D9FB5155DF6
(1756462279.417912) can0 1BB#0C005D9F68CD3704
(1756462279.423112) can0 062#0E44A84042FA0AA6
(1756462279.426439) can0 024#0FC4A840A78683FF
(1756462279.426477) can0 039#0FC4A840A78683FF
(1756462279.433101) can0 062#0E44A841D4CA0DD1
(1756462279.436395) can0 024#0FC5A84106DC4689
(1756462279.436435) can0 039#0FC4A84131B68488
(1756462279.444745) can0 062#0E45A84259F1C649
(1756462279.446446) can0 024#0FC5A842BC8D4F10
(1756462279.446490) can0 039#0FC5A842BC8D4F10
(1756462279.453210) can0 062#0E44A843F8AB033F
(1756462279.456626) can0 024#0FC4A8431DD78A66
(1756462279.456685) can0 039#0FC4A8431DD78A66
(1756462279.463414) can0 062#0E45A8446C54A5A0
(1756462279.467041) can0 024#0FC4A844BE42EEF8
(1756462279.467141) can0 039#0FC4A844BE42EEF8
(1756462279.473573) can0 062#0E44A845CD0E60D6
(1756462279.477039) can0 024#0FC4A8452872E98F
(1756462279.477143) can0 039#0FC4A8452872E98F
(1756462279.483471) can0 062#0E44A846775F694F
(1756462279.487023) can0 024#0FC5A846A5492217
(1756462279.487128) can0 039#0FC3A8461735AF13
(1756462279.493624) can0 062#0E44A847E16F6E38
(1756462279.497134) can0 024#0FC4A8470413E761
(1756462279.497237) can0 039#0FC4A8470413E761
(1756462279.503506) can0 062#0E44A8487072D1A8
(1756462279.507025) can0 024#0FC4A848950E58F1
(1756462279.507131) can0 039#0FC4A848950E58F1
(1756462279.514146) can0 062#0E44A849E642D6DF
(1756462279.514253) can0 1D3#00005DA0ED5F87F8
(1756462279.514261) can0 150#02005DA066978E52
(1756462279.518514) can0 024#0FC4A849033E5F86
(1756462279.518615) can0 039#0FC4A849033E5F86
(1756462279.518623) can0 077#00015DA0DA3545F9
(1756462279.518627) can0 098#00005DA0ED5F87F8
(1756462279.518631) can0 1A7#00005DA0ED5F87F8
(1756462279.518635) can0 1B8#01005DA088383B40
(1756462279.518638) can0 1BB#0C005DA055E051B2
(1756462279.523642) can0 062#0E45A84A6B791D47
(1756462279.527088) can0 024#0FC3A84A3C79191A
(1756462279.527275) can0 039#0FC4A84AB96F561F
(1756462279.533601) can0 062#0E45A84BFD491A30
(1756462279.536970) can0 024#0FC4A84B2F5F5168
(1756462279.537074) can0 039#0FC4A84B2F5F5168
(1756462279.545618) can0 062#0E45A84C5EDC7EAE
(1756462279.547718) can0 024#0FC3A84C09DC7AF3
(1756462279.547822) can0 039#0FC5A84CBBA0F7F7
(1756462279.553618) can0 062#0E44A84DFF86BBD8
(1756462279.556983) can0 024#0FC5A84D2D90F080
(1756462279.557087) can0 039#0FC4A84D1AFA3281
(1756462279.563655) can0 062#0E44A84E45D7B241
(1756462279.566974) can0 024#0FC4A84EA0AB3B18
(1756462279.567077) can0 039#0FC5A84E97C1F919
(1756462279.573686) can0 062#0E44A84FD3E7B536
(1756462279.576960) can0 024#0FC5A84F01F1FE6E
(1756462279.577065) can0 039#0FC4A84F369B3C6F
(1756462279.583644) can0 062#0E45A85011807FBA
(1756462279.586955) can0 024#0FC4A850C39634E2
(1756462279.587059) can0 039#0FC4A850C39634E2
(1756462279.593664) can0 062#0E45A85187B078CD
(1756462279.596962) can0 024#0FC4A85155A63395
(1756462279.597067) can0 039#0FC4A85155A63395
(1756462279.603627) can0 062#0E44A8520A8BB355
(1756462279.607075) can0 024#0FC4A852EFF73A0C
(1756462279.607181) can0 039#0FC4A852EFF73A0C
(1756462279.613818) can0 062#0E44A8539CBBB422
(1756462279.613919) can0 1D3#00005DA17B6F808F
(1756462279.613927) can0 150#02005DA1F0A78925
(1756462279.618561) can0 024#0FC4A85379C73D7B
(1756462279.618663) can0 039#0FC5A8534EADFF7A
(1756462279.618671) can0 077#00015DA14C05428E
(1756462279.618675) can0 098#00005DA17B6F808F
(1756462279.618679) can0 1A7#00005DA17B6F808F
(1756462279.618682) can0 1B8#01005DA11E083C37
(1756462279.618685) can0 1BB#0C005DA1C3D056C5
(1756462279.623627) can0 062#0E44A8543F2ED0BC
(1756462279.627095) can0 024#0FC4A854DA5259E5
(1756462279.627201) can0 039#0FC5A854ED389BE4
(1756462279.633651) can0 062#0E45A8559E7415CA
(1756462279.637141) can0 024#0FC5A8557B089C93
(1756462279.637244) can0 039#0FC4A8554C625E92
(1756462279.643648) can0 062#0E46A8567D9B5A51
(1756462279.647065) can0 024#0FC4A856F633570B
(1756462279.647170) can0 039#0FC4A856F633570B
(1756462279.653675) can0 062#0E44A857857FD925
(1756462279.657073) can0 024#0FC4A8576003507C
(1756462279.657175) can0 039#0FC5A8575769927D
(1756462279.663653) can0 062#0E45A8582308A4B4
(1756462279.667130) can0 024#0FC4A858F11EEFEC
(1756462279.667237) can0 039#0FC4A858F11EEFEC
(1756462279.673639) can0 062#0E44A859825261C2
(1756462279.677058) can0 024#0FC5A85950442A9A
(1756462279.677160) can0 039#0FC4A859672EE89B
(1756462279.683627) can0 062#0E45A85A0F69AA5A
(1756462279.687122) can0 024#0FC4A85ADD7FE102
(1756462279.687224) can0 039#0FC4A85ADD7FE102
(1756462279.693634) can0 062#0E44A85BAE336F2C
(1756462279.697058) can0 024#0FC4A85B4B4FE675
(1756462279.697163) can0 039#0FC5A85B7C252474
(1756462279.703610) can0 062#0E44A85C0DA60BB2
(1756462279.707073) can0 024#0FC4A85CE8DA82EB
(1756462279.707178) can0 039#0FC4A85CE8DA82EB
(1756462279.714499) can0 062#0E45A85DACFCCEC4
(1756462279.714636) can0 1D3#00005DA2C13E8916
(1756462279.714646) can0 150#02005DA24AF680BC
(1756462279.718508) can0 024#0FC3A85DFBFCCA99
(1756462279.718610) can0 039#0FC3A85DFBFCCA99
(1756462279.718620) can0 077#00015DA2F6544B17
(1756462279.718625) can0 098#00005DA2C13E8916
(1756462279.718628) can0 1A7#00005DA2C13E8916
(1756462279.718631) can0 1B8#01005DA2A45935AE
(1756462279.718635) can0 1BB#0C005DA279815F5C
(1756462279.723677) can0 062#0E45A85E16ADC75D
(1756462279.727086) can0 024#0FC4A85EC4BB8C05
(1756462279.727191) can0 039#0FC4A85EC4BB8C05
(1756462279.733645) can0 062#0E44A85FB7F7022B
(1756462279.737007) can0 024#0FC4A85F528B8B72
(1756462279.737111) can0 039#0FC4A85F528B8B72
(1756462279.743973) can0 062#0E44A8608ADA649D
(1756462279.747058) can0 024#0FC4A8606FA6EDC4
(1756462279.747163) can0 039#0FC5A86058CC2FC5
(1756462279.753645) can0 062#0E45A8612B80A1EB
(1756462279.757050) can0 024#0FC4A861F996EAB3
(1756462279.757154) can0 039#0FC4A861F996EAB3
(1756462279.763657) can0 062#0E44A862A6BB6A73
(1756462279.767044) can0 024#0FC4A86243C7E32A
(1756462279.767079) can0 039#0FC6A8622D136729
(1756462279.773656) can0 062#0E45A86307E1AF05
(1756462279.777043) can0 024#0FC4A863D5F7E45D
(1756462279.777074) can0 039#0FC4A863D5F7E45D
(1756462279.783649) can0 062#0E44A864931E099A
(1756462279.787048) can0 024#0FC4A864766280C3
(1756462279.787079) can0 039#0FC4A864766280C3
(1756462279.793620) can0 062#0E45A8653244CCEC
(1756462279.797030) can0 024#0FC4A865E05287B4
(1756462279.797061) can0 039#0FC5A865D73845B5
(1756462279.803620) can0 062#0E44A866BF7F0774
(1756462279.807437) can0 024#0FC5A8666D694C2C
(1756462279.807468) can0 039#0FC5A8666D694C2C
(1756462279.814033) can0 062#0E45A8671E25C202
(1756462279.814063) can0 1D3#00005DA3570E8E61
(1756462279.814067) can0 150#02005DA3DCC687CB
(1756462279.818564) can0 024#0FC5A867FB594B5B
(1756462279.818595) can0 039#0FC4A867CC33895A
(1756462279.818599) can0 077#00015DA360644C60
(1756462279.818603) can0 098#00005DA3570E8E61
(1756462279.818606) can0 1A7#00005DA3570E8E61
(1756462279.818610) can0 1B8#01005DA3326932D9
(1756462279.818614) can0 1BB#0C005DA3EFB1582B
(1756462279.823618) can0 062#0E44A868B852BF93
(1756462279.826977) can0 024#0FC5A8686A44F4CB
(1756462279.827009) can0 039#0FC4A8685D2E36CA
(1756462279.833597) can0 062#0E44A8692E62B8E4
(1756462279.836976) can0 024#0FC4A869CB1E31BD
(1756462279.837008) can0 039#0FC4A869CB1E31BD
(1756462279.843620) can0 062#0E44A86A9433B17D
(1756462279.847037) can0 024#0FC4A86A714F3824
(1756462279.847069) can0 039#0FC4A86A714F3824
(1756462279.853800) can0 062#0E45A86B3569740B
(1756462279.857085) can0 024#0FC4A86BE77F3F53
(1756462279.857116) can0 039#0FC5A86BD015FD52
(1756462279.863604) can0 062#0E44A86CA196D294
(1756462279.867064) can0 024#0FC4A86C44EA5BCD
(1756462279.867095) can0 039#0FC4A86C44EA5BCD
(1756462279.873585) can0 062#0E44A86D37A6D5E3
(1756462279.877015) can0 024#0FC4A86DD2DA5CBA
(1756462279.877045) can0 039#0FC5A86DE5B09EBB
(1756462279.883583) can0 062#0E44A86E8DF7DC7A
(1756462279.887180) can0 024#0FC4A86E688B5523
(1756462279.887214) can0 039#0FC5A86E5FE19722
(1756462279.893650) can0 062#0E44A86F1BC7DB0D
(1756462279.897166) can0 024#0FC4A86FFEBB5254
(1756462279.897196) can0 039#0FC4A86FFEBB5254
(1756462279.903661) can0 062#0E44A870EECAD380
(1756462279.907075) can0 024#0FC5A8703CDC98D8
(1756462279.907106) can0 039#0FC5A8703CDC98D8
(1756462279.914043) can0 062#0E44A87178FAD4F7
(1756462279.914073) can0 1D3#00005DA4F49BEAFF
(1756462279.914078) can0 150#02005DA47F53E355
(1756462279.918535) can0 024#0FC5A871AAEC9FAF
(1756462279.918568) can0 039#0FC4A8719D865DAE
(1756462279.918572) can0 077#00015DA4C3F128FE
(1756462279.918576) can0 098#00005DA4F49BEAFF
(1756462279.918579) can0 1A7#00005DA4F49BEAFF
(1756462279.918583) can0 1B8#01005DA491FC5647
(1756462279.918586) can0 1BB#0C005DA44C243CB5
(1756462279.923590) can0 062#0E44A872C2ABDD6E
(1756462279.927069) can0 024#0FC5A87210BD9636
(1756462279.927100) can0 039#0FC4A87227D75437
(1756462279.933609) can0 062#0E45A87363F11818
(1756462279.937002) can0 024#0FC4A873B1E75340
(1756462279.937088) can0 039#0FC5A873868D9141
(1756462279.944070) can0 062#0E44A874F70EBE87
(1756462279.946983) can0 024#0FC4A874127237DE
(1756462279.947014) can0 039#0FC4A874127237DE
(1756462279.953619) can0 062#0E44A875613EB9F0
(1756462279.957059) can0 024#0FC4A875844230A9
(1756462279.957090) can0 039#0FC4A875844230A9
(1756462279.963637) can0 062#0E44A876DB6FB069
(1756462279.966989) can0 024#0FC4A8763E133930
(1756462279.967020) can0 039#0FC5A8760979FB31
(1756462279.973595) can0 062#0E44A8774D5FB71E
(1756462279.977054) can0 024#0FC4A877A8233E47
(1756462279.977084) can0 039#0FC3A8772D357142
(1756462279.983606) can0 062#0E45A878EB28CA8F
(1756462279.987066) can0 024#0FC4A878393E81D7
(1756462279.987096) can0 039#0F60A87885CBF009
(1756462279.993815) can0 062#0E45A8797D18CDF8
(1756462279.997119) can0 024#0FC5A879986444A1
(1756462279.997151) can0 039#0EE3A879AF393825
(1756462280.003529) can0 062#0E45A87AC749C461
(1756462280.007080) can0 024#0FC4A87A155F8F39
(1756462280.007111) can0 039#0E53A87A05966F79
(1756462280.014780) can0 062#0E44A87B66130117
(1756462280.014810) can0 1D3#00005DA562ABED88
(1756462280.014815) can0 150#02005DA5E963E422
(1756462280.018523) can0 024#0FC4A87B836F884E
(1756462280.018554) can0 039#0DD9A87B2B977FF0
(1756462280.018558) can0 077#00015DA555C12F89
(1756462280.018561) can0 098#00005DA562ABED88
(1756462280.018565) can0 1A7#00005DA562ABED88
(1756462280.018568) can0 1B8#01005DA507CC5130
(1756462280.018733) can0 1BB#0C005DA5DA143BC2
(1756462280.023603) can0 062#0E44A87CC5866589
(1756462280.027077) can0 024#0FC4A87C20FAECD0
(1756462280.027108) can0 039#0D63A87C4E79D2A6
(1756462280.033552) can0 062#0E45A87D64DCA0FF
(1756462280.037038) can0 024#0FC4A87DB6CAEBA7
(1756462280.037073) can0 039#0CECA87D00720083
(1756462280.043605) can0 062#0E44A87EE9E76B67
(1756462280.046975) can0 024#0FC3A87E898DAD3B
(1756462280.047006) can0 039#0C94A87E521AEB40
(1756462280.053576) can0 062#0E44A87F7FD76C10
(1756462280.057076) can0 024#0FC5A87FADC12748
(1756462280.057107) can0 039#0C4BA87FC95839B1
(1756462280.063629) can0 062#0E44A880F2386E3D
(1756462280.067075) can0 024#0FC4A8801744E764
(1756462280.067108) can0 039#0C0CA880012CEEE9
(1756462280.073633) can0 062#0E44A8816408694A
(1756462280.077043) can0 024#0FC4A8818174E013
(1756462280.077073) can0 039#0BEBA8810BE293AF
(1756462280.083594) can0 062#0E44A882DE5960D3
(1756462280.087200) can0 024#0FC5A8820C4F2B8B
(1756462280.087231) can0 039#0BB2A8828EA6F755
(1756462280.095642) can0 062#0E44A883486967A4
(1756462280.097726) can0 024#0FC4A883AD15EEFD
(1756462280.097755) can0 039#0B5BA883377DC384
(1756462280.103570) can0 062#0E44A884EBFC033A
(1756462280.107015) can0 024#0FC5A88439EA4862
(1756462280.107047) can0 039#0B1CA884D173726F
(1756462280.114014) can0 062#0E44A8857DCC044D
(1756462280.114045) can0 1D3#00005DA6D8FAE411
(1756462280.114049) can0 150#02005DA65332EDBB
(1756462280.118606) can0 024#0FC4A88598B08D14
(1756462280.118637) can0 039#0AB0A8852680AB70
(1756462280.118641) can0 077#00015DA6EF902610
(1756462280.118644) can0 098#00005DA6D8FAE411
(1756462280.118648) can0 1A7#00005DA6D8FAE411
(1756462280.118651) can0 1B8#01005DA6BD9D58A9
(1756462280.118655) can0 1BB#0C005DA66045325B
(1756462280.123564) can0 062#0E45A886F0F7CFD5
(1756462280.127076) can0 024#0FC4A88622E1848D
(1756462280.127107) can0 039#0A52A88652D5C443
(1756462280.133492) can0 062#0E44A88751AD0AA3
(1756462280.137107) can0 024#0FC4A887B4D183FA
(1756462280.137139) can0 039#09F8A8879C9299F2
(1756462280.145261) can0 062#0E44A888C0B0B533
(1756462280.147090) can0 024#0FC4A88825CC3C6A
(1756462280.147177) can0 039#09A8A888BDA19A0E
(1756462280.153607) can0 062#0E45A88961EA7045
(1756462280.157105) can0 024#0FC4A889B3FC3B1D
(1756462280.157136) can0 039#095AA8899536DDCF
(1756462280.163602) can0 062#0E44A88AECD1BBDD
(1756462280.167093) can0 024#0FC4A88A09AD3284
(1756462280.167132) can0 039#0908A88AF19DEC39
(1756462280.173624) can0 062#0E44A88B7AE1BCAA
(1756462280.177000) can0 024#0FC4A88B9F9D35F3
(1756462280.177032) can0 039#08C3A88BA3B3AD6B
(1756462280.183678) can0 062#0E45A88CEE1E1A35
(1756462280.187013) can0 024#0FC4A88C3C08516D
(1756462280.187025) can0 039#086DA88C6A562F26
(1756462280.194998) can0 062#0E44A88D4F44DF43
(1756462280.196060) can0 024#0FC4A88DAA38561A
(1756462280.196217) can0 039#081FA88DC2DA5D06
(1756462280.202877) can0 062#0E44A88EF515D6DA
(1756462280.206294) can0 024#0FC5A88E27039D82
(1756462280.206303) can0 039#07C5A88EC82B2947
(1756462280.213132) can0 062#0E44A88F6325D1AD
(1756462280.213144) can0 1D3#00005DA74ECAE366
(1756462280.213410) can0 150#02005DA7C502EACC
(1756462280.216293) can0 024#0FC5A88FB1339AF5
(1756462280.216319) can0 039#0774A88F798FB2F4
(1756462280.216756) can0 077#00015DA779A02167
(1756462280.216765) can0 098#00005DA74ECAE366
(1756462280.217158) can0 1A7#00005DA74ECAE366
(1756462280.217769) can0 1B8#01005DA72BAD5FDE
(1756462280.217779) can0 1BB#0C005DA7F675352C
(1756462280.223030) can0 062#0E45A890A1421B21
(1756462280.226259) can0 024#0FC4A89073545079
(1756462280.226271) can0 039#0714A890AC496D31
(1756462280.232960) can0 062#0E44A8910018DE57
(1756462280.236337) can0 024#0FC4A891E564570E
(1756462280.236347) can0 039#06A9A8911C735033
(1756462280.245666) can0 062#0E44A892BA49D7CE
(1756462280.247032) can0 024#0FC4A8925F355E97
(1756462280.247063) can0 039#05FFA8924ADFDDD0
(1756462280.253563) can0 062#0E44A8932C79D0B9
(1756462280.257057) can0 024#0FC4A893C90559E0
(1756462280.257088) can0 039#0530A893A13E293D
(1756462280.263574) can0 062#0E44A8948FECB427
(1756462280.267055) can0 024#0FC3A894EF86727B
(1756462280.267087) can0 039#046FA894EAA5117C
(1756462280.273781) can0 062#0E45A8952EB67151
(1756462280.277059) can0 024#0FC4A895FCA03A09
(1756462280.277147) can0 039#03A7A8953D6A7D09
(1756462280.283607) can0 062#0E44A896A38DBAC9
(1756462280.286982) can0 024#0FC5A896719BF191
(1756462280.287013) can0 039#02F7A89652727444
(1756462280.295373) can0 062#0E43A897B0ABF2BB
(1756462280.297051) can0 024#0FC4A897D0C134E7
(1756462280.297083) can0 039#0256A8979375C9EB
(1756462280.303846) can0 062#0E44A898A4A0022E
(1756462280.307121) can0 024#0FC4A89841DC8B77
(1756462280.307153) can0 039#01CEA898A42EC39A
(1756462280.314028) can0 062#0E44A89932900559
(1756462280.314060) can0 1D3#00005DA8DFD75CF6
(1756462280.314064) can0 150#02005DA8541F555C
(1756462280.318612) can0 024#0FC5A899E0864E01
(1756462280.318644) can0 039#0151A899FFE18B1B
(1756462280.318648) can0 077#00015DA8E8BD9EF7
(1756462280.318651) can0 098#00005DA8DFD75CF6
(1756462280.318655) can0 1A7#00005DA8DFD75CF6
(1756462280.318659) can0 1B8#01005DA8BAB0E04E
(1756462280.318662) can0 1BB#0C005DA867688ABC
(1756462280.323622) can0 062#0E44A89A88C10CC0
(1756462280.327025) can0 024#0FC5A89A5AD74798
(1756462280.327056) can0 039#00F7A89AF2F6CBE7
(1756462280.333234) can0 062#0E44A89B1EF10BB7
(1756462280.336563) can0 024#0FC5A89BCCE740EF
(1756462280.336583) can0 039#009BA89B20F401D1
(1756462280.342977) can0 062#0E45A89C8A0EAD28
(1756462280.346285) can0 024#0FC5A89C6F722471
(1756462280.346295) can0 039#0052A89C4CCC1BD1
(1756462280.352886) can0 062#0E45A89D1C3EAA5F
(1756462280.356100) can0 024#0FC5A89DF9422306
(1756462280.356342) can0 039#002EA89DEE6DF7FB
(1756462280.362870) can0 062#0E45A89EA66FA3C6
(1756462280.366274) can0 024#0FC5A89E43132A9F
(1756462280.366287) can0 039#001AA89E18719C41
(1756462280.372993) can0 062#0E45A89F305FA4B1
(1756462280.376283) can0 024#0FC4A89FE249EFE9
(1756462280.376291) can0 039#0002A89F46B3AE24
(1756462280.383027) can0 062#0E44A8A03A180006
(1756462280.386063) can0 024#0FC5A8A0E80E4B5E
(1756462280.386389) can0 039#0000A8A0154A4C91
(1756462280.392885) can0 062#0E45A8A19B42C570
(1756462280.396298) can0 024#0FC5A8A17E3E4C29
(1756462280.396309) can0 039#0000A8A1837A4BE6
(1756462280.402906) can0 062#0E45A8A22113CCE9
(1756462280.406264) can0 024#0FC4A8A2F30587B1
(1756462280.406286) can0 039#0000A8A2392B427F
(1756462280.413041) can0 062#0E44A8A38049099F
(1756462280.413054) can0 1D3#00005DA949E75B81
(1756462280.413364) can0 150#02005DA9C22F522B
(1756462280.416266) can0 024#0FC4A8A3653580C6
(1756462280.416274) can0 039#0000A8A3AF1B4508
(1756462280.416656) can0 077#00015DA97E8D9980
(1756462280.416765) can0 098#00005DA949E75B81
(1756462280.417118) can0 1A7#00005DA949E75B81
(1756462280.417701) can0 1B8#01005DA92C80E739
(1756462280.417709) can0 1BB#0C005DA9F1588DCB
(1756462280.422882) can0 062#0E45A8A414B6AF00
(1756462280.426256) can0 024#0FC5A8A4F1CA2659
(1756462280.426265) can0 039#0000A8A40C8E2196
(1756462280.432985) can0 062#0E45A8A58286A877
(1756462280.436191) can0 024#0FC4A8A55090E32F
(1756462280.436299) can0 039#0000A8A59ABE26E1
(1756462280.445030) can0 062#0E44A8A60FBD63EF
(1756462280.446261) can0 024#0FC4A8A6EAC1EAB6
(1756462280.446270) can0 039#0000A8A620EF2F78
(1756462280.452960) can0 062#0E44A8A7998D6498
(1756462280.456208) can0 024#0FC4A8A77CF1EDC1
(1756462280.456316) can0 039#0000A8A7B6DF280F
(1756462280.463010) can0 062#0E45A8A83FFA1909
(1756462280.466262) can0 024#0FC5A8A8DA869050
(1756462280.466272) can0 039#0000A8A827C2979F
(1756462280.472889) can0 062#0E45A8A9A9CA1E7E
(1756462280.476217) can0 024#0FC5A8A94CB69727
(1756462280.476229) can0 039#0000A8A9B1F290E8
(1756462280.482964) can0 062#0E44A8AA24F1D5E6
(1756462280.486141) can0 024#0FC4A8AAC18D5CBF
(1756462280.486356) can0 039#0000A8AA0BA39971
(1756462280.493422) can0 062#0E44A8ABB2C1D291
(1756462280.496137) can0 024#0FC5A8AB60D799C9
(1756462280.496374) can0 039#0000A8AB9D939E06
(1756462280.502962) can0 062#0E45A8AC263E740E
(1756462280.506297) can0 024#0FC4A8ACF4283F56
(1756462280.506309) can0 039#0000A8AC3E06FA98
(1756462280.513049) can0 062#0E45A8ADB00E7379
(1756462280.513058) can0 1D3#00005DAAF3B65218
(1756462280.513332) can0 150#02005DAA787E5BB2
(1756462280.516216) can0 024#0FC5A8AD5572FA20
(1756462280.516323) can0 039#0000A8ADA836FDEF
(1756462280.516594) can0 077#00015DAAC4DC9019
(1756462280.517035) can0 098#00005DAAF3B65218
(1756462280.517043) can0 1A7#00005DAAF3B65218
(1756462280.517525) can0 1B8#01005DAA96D1EEA0
(1756462280.517754) can0 1BB#0C005DAA4B098452
(1756462280.522948) can0 062#0E45A8AE0A5F7AE0
(1756462280.526212) can0 024#0FC5A8AEEF23F3B9
(1756462280.526316) can0 039#0000A8AE1267F476
(1756462280.532921) can0 062#0E44A8AFAB05BF96
(1756462280.536112) can0 024#0FC5A8AF7913F4CE
(1756462280.536332) can0 039#0000A8AF8457F301
(1756462280.542986) can0 062#0E44A8B05E08B71B
(1756462280.546265) can0 024#0FC5A8B08C1EFC43
(1756462280.546273) can0 039#0000A8B0715AFB8C
(1756462280.552969) can0 062#0E44A8B1C838B06C
(1756462280.556256) can0 024#0FC4A8B12D443935
(1756462280.556266) can0 039#0000A8B1E76AFCFB
(1756462280.562958) can0 062#0E44A8B27269B9F5
(1756462280.566154) can0 024#0FC4A8B2971530AC
(1756462280.566390) can0 039#0000A8B25D3BF562
(1756462280.572987) can0 062#0E44A8B3E459BE82
(1756462280.576303) can0 024#0FC5A8B3364FF5DA
(1756462280.576312) can0 039#0000A8B3CB0BF215
(1756462280.583438) can0 062#0E45A8B470A6181D
(1756462280.586816) can0 024#0FC5A8B495DA9144
(1756462280.586864) can0 039#0000A8B4689E968B
(1756462280.593971) can0 062#0E44A8B5D1FCDD6B
(1756462280.596988) can0 024#0FC4A8B534805432
(1756462280.597019) can0 039#0000A8B5FEAE91FC
(1756462280.603702) can0 062#0E44A8B66BADD4F2
(1756462280.607067) can0 024#0FC5A8B6B9BB9FAA
(1756462280.607099) can0 039#0000A8B644FF9865
(1756462280.613964) can0 062#0E44A8B7FD9DD385
(1756462280.613995) can0 1D3#00005DAB6586556F
(1756462280.613999) can0 150#02005DABEE4E5CC5
(1756462280.618578) can0 024#0FC5A8B72F8B98DD
(1756462280.618616) can0 039#0000A8B7D2CF9F12
(1756462280.618620) can0 077#00015DAB52EC976E
(1756462280.618624) can0 098#00005DAB6586556F
(1756462280.618627) can0 1A7#00005DAB6586556F
(1756462280.618631) can0 1B8#01005DAB00E1E9D7
(1756462280.618634) can0 1BB#0C005DABDD398325
(1756462280.623471) can0 062#0E45A8B85BEAAE14
(1756462280.627090) can0 024#0FC4A8B889FCE54C
(1756462280.627121) can0 039#0000A8B843D22082
(1756462280.633686) can0 062#0E44A8B9FAB06B62
(1756462280.637047) can0 024#0FC4A8B91FCCE23B
(1756462280.637077) can0 039#0000A8B9D5E227F5
(1756462280.645588) can0 062#0E45A8BA778BA0FA
(1756462280.647288) can0 024#0FC5A8BA92F729A3
(1756462280.647318) can0 039#0000A8BA6FB32E6C
(1756462280.653621) can0 062#0E44A8BBD6D1658C
(1756462280.657111) can0 024#0FC5A8BB04C72ED4
(1756462280.657141) can0 039#0000A8BBF983291B
(1756462280.663615) can0 062#0E44A8BC75440112
(1756462280.667066) can0 024#0FC4A8BC9038884B
(1756462280.667097) can0 039#0000A8BC5A164D85
(1756462280.673562) can0 062#0E44A8BDE3740665
(1756462280.677073) can0 024#0FC4A8BD06088F3C
(1756462280.677115) can0 039#0000A8BDCC264AF2
(1756462280.683561) can0 062#0E44A8BE59250FFC
(1756462280.687022) can0 024#0FC4A8BEBC5986A5
(1756462280.687053) can0 039#0000A8BE7677436B
(1756462280.693627) can0 062#0E45A8BFF87FCA8A
(1756462280.697105) can0 024#0FC5A8BF1D0343D3
(1756462280.697136) can0 039#0000A8BFE047441C
(1756462280.703605) can0 062#0E44A8C06279B24B
(1756462280.707110) can0 024#0FC4A8C087053B12
(1756462280.707140) can0 039#0000A8C04D2BFEDC
(1756462280.714009) can0 062#0E44A8C1F449B53C
(1756462280.714042) can0 1D3#00005DACC61331F1
(1756462280.714047) can0 150#02005DAC4DDB385B
(1756462280.718556) can0 024#0FC4A8C111353C65
(1756462280.718588) can0 039#0000A8C1DB1BF9AB
(1756462280.718592) can0 077#00015DACF179F3F0
(1756462280.718595) can0 098#00005DACC61331F1
(1756462280.718599) can0 1A7#00005DACC61331F1
(1756462280.718602) can0 1B8#01005DACA3748D49
(1756462280.718605) can0 1BB#0C005DAC7EACE7BB
(1756462280.723582) can0 062#0E44A8C24E18BCA5
(1756462280.726958) can0 024#0FC5A8C29C0EF7FD
(1756462280.726990) can0 039#0000A8C2614AF032
(1756462280.733619) can0 062#0E44A8C3D828BBD2
(1756462280.737078) can0 024#0FC5A8C30A3EF08A
(1756462280.737109) can0 039#0000A8C3F77AF745
(1756462280.743588) can0 062#0E44A8C47BBDDF4C
(1756462280.747051) can0 024#0FC4A8C49EC15615
(1756462280.747082) can0 039#0000A8C454EF93DB
(1756462280.753610) can0 062#0E45A8C5DAE71A3A
(1756462280.757238) can0 024#0FC3A8C58DE71E67
(1756462280.757273) can0 039#0000A8C5C2DF94AC
(1756462280.763627) can0 062#0E44A8C657DCD1A2
(1756462280.767125) can0 024#0FC5A8C685CA9AFA
(1756462280.767155) can0 039#0000A8C6788E9D35
(1756462280.773649) can0 062#0E45A8C7F68614D4
(1756462280.777034) can0 024#0FC5A8C713FA9D8D
(1756462280.777065) can0 039#0000A8C7EEBE9A42
(1756462280.783570) can0 062#0E44A8C850F16945
(1756462280.787136) can0 024#0FC4A8C8B58DE01C
(1756462280.787169) can0 039#0000A8C87FA325D2
(1756462280.793608) can0 062#0E45A8C9F1ABAC33
(1756462280.797107) can0 024#0FC5A8C914D7256A
(1756462280.797138) can0 039#0000A8C9E99322A5
(1756462280.803618) can0 062#0E45A8CA4BFAA5AA
(1756462280.807116) can0 024#0FC4A8CA99ECEEF2
(1756462280.807147) can0 039#0000A8CA53C22B3C
(1756462280.814022) can0 062#0E44A8CBEAA060DC
(1756462280.814053) can0 1D3#00005DAD50233686
(1756462280.814058) can0 150#02005DADDBEB3F2C
(1756462280.818763) can0 024#0FC4A8CB0FDCE985
(1756462280.818795) can0 039#0007A8CB40E4634E
(1756462280.818799) can0 077#00015DAD6749F487
(1756462280.818803) can0 098#00005DAD50233686
(1756462280.818806) can0 1A7#00005DAD50233686
(1756462280.818810) can0 1B8#01005DAD35448A3E
(1756462280.818813) can0 1BB#0C005DADE89CE0CC
(1756462280.823609) can0 062#0E44A8CC49350442
(1756462280.827010) can0 024#0FC5A8CC9B234F1A
(1756462280.827161) can0 039#002BA8CC67CE50E1
(1756462280.833656) can0 062#0E45A8CDE86FC134
(1756462280.836978) can0 024#0FC4A8CD3A798A6C
(1756462280.837010) can0 039#0078A8CD186EADF8
(1756462280.845644) can0 062#0E45A8CE523EC8AD
(1756462280.847136) can0 024#0FC4A8CE802883F5
(1756462280.847183) can0 039#00CEA8CE00BD77A0
(1756462280.853590) can0 062#0E44A8CFF3640DDB
(1756462280.857040) can0 024#0FC4A8CF16188482
(1756462280.857071) can0 039#012DA8CF0A8468C4
(1756462280.863617) can0 062#0E45A8D03103C757
(1756462280.867014) can0 024#0FC4A8D0E3158C0F
(1756462280.867045) can0 039#019AA8D06A617189
(1756462280.873623) can0 062#0E44A8D190590221
(1756462280.877080) can0 024#0FC4A8D175258B78
(1756462280.877111) can0 039#021EA8D14E4DFF0A
(1756462280.883617) can0 062#0E44A8D22A080BB8
(1756462280.887069) can0 024#0FC4A8D2CF7482E1
(1756462280.887100) can0 039#02ABA8D20F206350
(1756462280.895645) can0 062#0E45A8D38B52CECE
(1756462280.897019) can0 024#0FC5A8D36E2E4797
(1756462280.897050) can0 039#0324A8D3412BB175
(1756462280.903594) can0 062#0E45A8D428C7AA50
(1756462280.907147) can0 024#0FC5A8D4CDBB2309
(1756462280.907178) can0 039#03B1A8D4F9C40D10
(1756462280.914029) can0 062#0E45A8D5BEF7AD27
(1756462280.914063) can0 1D3#00005DAEEA723F1F
(1756462280.914068) can0 150#02005DAE61BA36B5
(1756462280.918523) can0 024#0FC5A8D55B8B247E
(1756462280.918554) can0 039#045AA8D597F36A5F
(1756462280.918558) can0 077#00015DAEDD18FD1E
(1756462280.918561) can0 098#00005DAEEA723F1F
(1756462280.918565) can0 1A7#00005DAEEA723F1F
(1756462280.918568) can0 1B8#01005DAE8F1583A7
(1756462280.918572) can0 1BB#0C005DAE52CDE955
(1756462280.923602) can0 062#0E44A8D633CC66BF
(1756462280.927112) can0 024#0FC4A8D6D6B0EFE6
(1756462280.927144) can0 039#04E4A8D63771A309
(1756462280.933543) can0 062#0E45A8D79296A3C9
(1756462280.937033) can0 024#0FC4A8D74080E891
(1756462280.937064) can0 039#058FA8D705029A82
(1756462280.945659) can0 062#0E44A8D834E1DE58
(1756462280.947118) can0 024#0FC4A8D8D19D5701
(1756462280.947150) can0 039#0635A8D8BCCB59C8
(1756462280.953549) can0 062#0E45A8D995BB1B2E
(1756462280.957123) can0 024#0FC4A8D947AD5076
(1756462280.957211) can0 039#06B9A8D9CE197157
(1756462280.963606) can0 062#0E45A8DA2FEA12B7
(1756462280.967013) can0 024#0FC5A8DACA969BEE
(1756462280.967043) can0 039#0749A8DAC15C00C3
(1756462280.973627) can0 062#0E44A8DB8EB0D7C1
(1756462280.977177) can0 024#0FC4A8DB6BCC5E98
(1756462280.977207) can0 039#0817A8DBBB7F468A
(1756462280.983624) can0 062#0E45A8DC1A4F715E
(1756462280.987392) can0 024#0FC5A8DCFF33F807
(1756462280.987425) can0 039#08E3A8DC1431EFA6
(1756462280.995232) can0 062#0E44A8DDBB15B428
(1756462280.997184) can0 024#0FC5A8DD6903FF70
(1756462280.997215) can0 039#09D7A8DDAB2B364A
(1756462281.003516) can0 062#0E44A8DE0144BDB1
(1756462281.007012) can0 024#0FC5A8DED352F6E9
(1756462281.007043) can0 039#0ADCA8DE1E3ADFCD
(1756462281.015335) can0 062#0E44A8DF9774BAC6
(1756462281.015369) can0 1D3#00005DAF7C423868
(1756462281.015373) can0 150#02005DAFF78A31C2
(1756462281.019068) can0 024#0FC4A8DF7208339F
(1756462281.019102) can0 039#0BBDA8DFFACC714B
(1756462281.019107) can0 077#00015DAF4B28FA69
(1756462281.019110) can0 098#00005DAF7C423868
(1756462281.019198) can0 1A7#00005DAF7C423868
(1756462281.019210) can0 1B8#01005DAF192584D0
(1756462281.019213) can0 1BB#0C005DAFC4FDEE22
(1756462281.023654) can0 062#0E43A8E02F4F9375
(1756462281.027063) can0 024#0FC5A8E0784F9728
(1756462281.027086) can0 039#0CB3A8E074F45E6A
(1756462281.033204) can0 062#0E45A8E10B031906
(1756462281.036698) can0 024#0FC4A8E1D915525E
(1756462281.036732) can0 039#0DA4A8E172168CBC
(1756462281.044646) can0 062#0E45A8E2B152109F
(1756462281.046278) can0 024#0FC4A8E263445BC7
(1756462281.046294) can0 039#0E7AA8E21CF027B0
(1756462281.052998) can0 062#0E44A8E31008D5E9
(1756462281.056288) can0 024#0FC3A8E3706213B5
(1756462281.056303) can0 039#0F60A8E349812D6E
(1756462281.063008) can0 062#0E44A8E4B39DB177
(1756462281.066347) can0 024#0FC4A8E456E1382E
(1756462281.066363) can0 039#0FC5A8E4618BFA2F
(1756462281.073033) can0 062#0E44A8E525ADB600
(1756462281.076370) can0 024#0FC5A8E5F7BBFD58
(1756462281.076382) can0 039#0FC4A8E5C0D13F59
(1756462281.083098) can0 062#0E44A8E69FFCBF99
(1756462281.086325) can0 024#0FC4A8E67A8036C0
(1756462281.086370) can0 039#0FC4A8E67A8036C0
(1756462281.094947) can0 062#0E45A8E73EA67AEF
(1756462281.096131) can0 024#0FC4A8E7ECB031B7
(1756462281.096396) can0 039#0FC5A8E7DBDAF3B6
(1756462281.103031) can0 062#0E45A8E8AFBBC57F
(1756462281.106320) can0 024#0FC5A8E84AC74C26
(1756462281.106334) can0 039#0FC5A8E84AC74C26
(1756462281.113302) can0 062#0E44A8E90EE10009
(1756462281.113319) can0 1D3#00005DB0894F30E5
(1756462281.113321) can0 150#02005DB00287394F
(1756462281.116497) can0 024#0FC4A8E9EB9D8950
(1756462281.116507) can0 039#0FC5A8E9DCF74B51
(1756462281.116508) can0 077#00015DB0BE25F2E4
(1756462281.116944) can0 098#00005DB0894F30E5
(1756462281.116952) can0 1A7#00005DB0894F30E5
(1756462281.117736) can0 1B8#01005DB0EC288C5D
(1756462281.117743) can0 1BB#0C005DB031F0E6AF
(1756462281.123060) can0 062#0E44A8EAB4B00990
(1756462281.126316) can0 024#0FC4A8EA51CC80C9
(1756462281.126325) can0 039#0FC5A8EA66A642C8
(1756462281.133082) can0 062#0E45A8EB15EACCE6
(1756462281.136352) can0 024#0FC5A8EBF09645BF
(1756462281.136361) can0 039#0FC4A8EBC7FC87BE
(1756462281.145029) can0 062#0E44A8EC81156A79
(1756462281.146412) can0 024#0FC4A8EC6469E320
(1756462281.146423) can0 039#0FC3A8ECE17FAC25
(1756462281.153223) can0 062#0E44A8ED17256D0E
(1756462281.156490) can0 024#0FC4A8EDF259E457
(1756462281.156504) can0 039#0FC4A8EDF259E457
(1756462281.163415) can0 062#0E44A8EEAD746497
(1756462281.166738) can0 024#0FC4A8EE4808EDCE
(1756462281.166758) can0 039#0FC4A8EE4808EDCE
(1756462281.173864) can0 062#0E45A8EF0C2EA1E1
(1756462281.177028) can0 024#0FC5A8EFE95228B8
(1756462281.177060) can0 039#0FC5A8EFE95228B8
(1756462281.183569) can0 062#0E44A8F0CE496B6D
(1756462281.187080) can0 024#0FC4A8F02B35E234
(1756462281.187112) can0 039#0FC5A8F01C5F2035
(1756462281.195632) can0 062#0E44A8F158796C1A
(1756462281.197772) can0 024#0FC4A8F1BD05E543
(1756462281.197802) can0 039#0FC5A8F18A6F2742
(1756462281.203607) can0 062#0E44A8F2E2286583
(1756462281.207176) can0 024#0FC4A8F20754ECDA
(1756462281.207208) can0 039#0FC4A8F20754ECDA
(1756462281.214035) can0 062#0E44A8F3741862F4
(1756462281.214066) can0 1D3#00005DB11F7F3792
(1756462281.214135) can0 150#02005DB194B73E38
(1756462281.218616) can0 024#0FC5A8F3A60E29AC
(1756462281.218647) can0 039#0FC5A8F3A60E29AC
(1756462281.218652) can0 077#00015DB12815F593
(1756462281.218655) can0 098#00005DB11F7F3792
(1756462281.218658) can0 1A7#00005DB11F7F3792
(1756462281.218662) can0 1B8#01005DB17A188B2A
(1756462281.218665) can0 1BB#0C005DB1A7C0E1D8
(1756462281.223687) can0 062#0E45A8F4E0E7C46B
(1756462281.227111) can0 024#0FC4A8F432F18F33
(1756462281.227143) can0 039#0FC4A8F432F18F33
(1756462281.232831) can0 062#0E44A8F541BD011D
(1756462281.236106) can0 024#0FC4A8F5A4C18844
(1756462281.236273) can0 039#0FC5A8F593AB4A45
(1756462281.242929) can0 062#0E45A8F6CC86CA85
(1756462281.246274) can0 024#0FC5A8F629FA43DC
(1756462281.246282) can0 039#0FC4A8F61E9081DD
(1756462281.253040) can0 062#0E45A8F75AB6CDF2
(1756462281.256275) can0 024#0FC4A8F788A086AA
(1756462281.256445) can0 039#0FC4A8F788A086AA
(1756462281.263094) can0 062#0E45A8F8CBAB7262
(1756462281.266360) can0 024#0FC5A8F82ED7FB3B
(1756462281.266543) can0 039#0FC4A8F819BD393A
(1756462281.273164) can0 062#0E44A8F96AF1B714
(1756462281.276401) can0 024#0FC4A8F98F8D3E4D
(1756462281.276411) can0 039#0FC4A8F98F8D3E4D
(1756462281.283059) can0 062#0E45A8FAE7CA7C8C
(1756462281.286380) can0 024#0FC4A8FA35DC37D4
(1756462281.286395) can0 039#0FC6A8FA5B08B3D7
(1756462281.295122) can0 062#0E44A8FB4690B9FA
(1756462281.296468) can0 024#0FC4A8FBA3EC30A3
(1756462281.296481) can0 039#0FC4A8FBA3EC30A3
(1756462281.303172) can0 062#0E44A8FCE505DD64
(1756462281.306552) can0 024#0FC4A8FC0079543D
(1756462281.306568) can0 039#0FC5A8FC3713963C
(1756462281.313590) can0 062#0E45A8FD445F1812
(1756462281.313610) can0 1D3#00005DB2A52E3E0B
(1756462281.313613) can0 150#02005DB22EE637A1
(1756462281.318512) can0 024#0FC5A8FDA123914B
(1756462281.318567) can0 039#0FC4A8FD9649534A
(1756462281.318573) can0 077#00015DB29244FC0A
(1756462281.318577) can0 098#00005DB2A52E3E0B
(1756462281.318580) can0 1A7#00005DB2A52E3E0B
(1756462281.318584) can0 1B8#01005DB2C04982B3
(1756462281.318588) can0 1BB#0C005DB21D91E841
(1756462281.323515) can0 062#0E44A8FEC964D38A
(1756462281.327168) can0 024#0FC4A8FE2C185AD3
(1756462281.327200) can0 039#0FC5A8FE1B7298D2
(1756462281.333605) can0 062#0E45A8FF683E16FC
(1756462281.337157) can0 024#0FC4A8FFBA285DA4
(1756462281.337189) can0 039#0FC5A8FF8D429FA5
(1756462281.343618) can0 062#0E45A900A4E00FC8
(1756462281.347304) can0 024#0FC4A90076F64490
(1756462281.347341) can0 039#0FC4A90076F64490
(1756462281.353709) can0 062#0E45A90132D008BF
(1756462281.357112) can0 024#0FC4A901E0C643E7
(1756462281.357213) can0 039#0FC5A901D7AC81E6
(1756462281.363586) can0 062#0E45A90288810126
(1756462281.367051) can0 024#0FC4A9025A974A7E
(1756462281.367154) can0 039#0FC4A9025A974A7E
(1756462281.373634) can0 062#0E44A90329DBC450
(1756462281.377161) can0 024#0FC5A903FBCD8F08
(1756462281.377314) can0 039#0FC4A903CCA74D09
(1756462281.383670) can0 062#0E44A9048A4EA0CE
(1756462281.387159) can0 024#0FC4A9046F322997
(1756462281.387266) can0 039#0FC4A9046F322997
(1756462281.395618) can0 062#0E44A9051C7EA7B9
(1756462281.396975) can0 024#0FC5A905CE68ECE1
(1756462281.397087) can0 039#0FC5A905CE68ECE1
(1756462281.403121) can0 062#0E44A906A62FAE20
(1756462281.406127) can0 024#0FC4A90643532779
(1756462281.406271) can0 039#0FC5A9067439E578
(1756462281.413017) can0 062#0E45A90707756B56
(1756462281.413027) can0 1D3#00005DB3331E397C
(1756462281.413221) can0 150#02005DB3B8D630D6
(1756462281.416088) can0 024#0FC4A907D563200E
(1756462281.416336) can0 039#0FC4A907D563200E
(1756462281.416576) can0 077#00015DB30474FB7D
(1756462281.416866) can0 098#00005DB3331E397C
(1756462281.417100) can0 1A7#00005DB3331E397C
(1756462281.417544) can0 1B8#01005DB3567985C4
(1756462281.417783) can0 1BB#0C005DB38BA1EF36
(1756462281.423014) can0 062#0E45A9089668D4C6
(1756462281.426350) can0 024#0FC4A908447E9F9E
(1756462281.426358) can0 039#0FC5A90873145D9F
(1756462281.433533) can0 062#0E45A9090058D3B1
(1756462281.437030) can0 024#0FC3A9095758D7EC
(1756462281.437061) can0 039#0FC5A909E5245AE8
(1756462281.445570) can0 062#0E45A90ABA09DA28
(1756462281.447697) can0 024#0FC5A90A5F755371
(1756462281.447727) can0 039#0FC5A90A5F755371
(1756462281.453605) can0 062#0E45A90B2C39DD5F
(1756462281.457191) can0 024#0FC5A90BC9455406
(1756462281.457223) can0 039#0FC4A90BFE2F9607
(1756462281.463553) can0 062#0E45A90C8FACB9C1
(1756462281.467102) can0 024#0FC4A90C5DBAF299
(1756462281.467135) can0 039#0FC4A90C5DBAF299
(1756462281.473674) can0 062#0E45A90D199CBEB6
(1756462281.477131) can0 024#0FC3A90D4E9CBAEB
(1756462281.477164) can0 039#0FC4A90DCB8AF5EE
(1756462281.483611) can0 062#0E44A90E94A7752E
(1756462281.487199) can0 024#0FC4A90E71DBFC77
(1756462281.487233) can0 039#0FC4A90E71DBFC77
(1756462281.495604) can0 062#0E44A90F02977259
(1756462281.497698) can0 024#0FC4A90FE7EBFB00
(1756462281.497728) can0 039#0FC5A90FD0813901
(1756462281.503576) can0 062#0E44A910F79A7AD4
(1756462281.507075) can0 024#0FC5A910258C318C
(1756462281.507115) can0 039#0FC5A910258C318C
(1756462281.514097) can0 062#0E45A91156C0BFA2
(1756462281.514139) can0 1D3#00005DB4908B5DE2
(1756462281.514145) can0 150#02005DB41B435448
(1756462281.518824) can0 024#0FC5A911B3BC36FB
(1756462281.518870) can0 039#0FC4A91184D6F4FA
(1756462281.518877) can0 077#00015DB4A7E19FE3
(1756462281.518980) can0 098#00005DB4908B5DE2
(1756462281.518997) can0 1A7#00005DB4908B5DE2
(1756462281.519002) can0 1B8#01005DB4F5ECE15A
(1756462281.519008) can0 1BB#0C005DB428348BA8
(1756462281.523499) can0 062#0E44A912DBFB743A
(1756462281.527079) can0 024#0FC5A91209ED3F62
(1756462281.527109) can0 039#0FC4A9123E87FD63
(1756462281.533218) can0 062#0E44A9134DCB734D
(1756462281.536584) can0 024#0FC4A913A8B7FA14
(1756462281.536607) can0 039#0FC4A913A8B7FA14
(1756462281.543027) can0 062#0E44A914EE5E17D3
(1756462281.546364) can0 024#0FC4A9140B229E8A
(1756462281.546385) can0 039#0FC5A9143C485C8B
(1756462281.553100) can0 062#0E45A9154F04D2A5
(1756462281.556313) can0 024#0FC4A9159D1299FD
(1756462281.556330) can0 039#0FC5A915AA785BFC
(1756462281.563034) can0 062#0E44A916C23F193D
(1756462281.566337) can0 024#0FC4A91627439064
(1756462281.566356) can0 039#0FC5A91610295265
(1756462281.573019) can0 062#0E44A917540F1E4A
(1756462281.576364) can0 024#0FC4A917B1739713
(1756462281.576374) can0 039#0FC4A917B1739713
(1756462281.583080) can0 062#0E44A918C512A1DA
(1756462281.586368) can0 024#0FC4A918206E2883
(1756462281.586376) can0 039#0FC4A918206E2883
(1756462281.593070) can0 062#0E44A9195322A6AD
(1756462281.596277) can0 024#0FC4A919B65E2FF4
(1756462281.596289) can0 039#0FC4A919B65E2FF4
(1756462281.602997) can0 062#0E44A91AE973AF34
(1756462281.606365) can0 024#0FC4A91A0C0F266D
(1756462281.606379) can0 039#0FC4A91A0C0F266D
(1756462281.613273) can0 062#0E45A91B48296A42
(1756462281.613290) can0 1D3#00005DB506BB5A95
(1756462281.613291) can0 150#02005DB58D73533F
(1756462281.616397) can0 024#0FC4A91B9A3F211A
(1756462281.616407) can0 039#0FC4A91B9A3F211A
(1756462281.616773) can0 077#00015DB531D19894
(1756462281.616781) can0 098#00005DB506BB5A95
(1756462281.617108) can0 1A7#00005DB506BB5A95
(1756462281.617842) can0 1B8#01005DB563DCE62D
(1756462281.617850) can0 1BB#0C005DB5BE048CDF
(1756462281.623031) can0 062#0E44A91CDCD6CCDD
(1756462281.626371) can0 024#0FC4A91C39AA4584
(1756462281.626380) can0 039#0FC4A91C39AA4584
(1756462281.633105) can0 062#0E44A91D4AE6CBAA
(1756462281.636394) can0 024#0FC4A91DAF9A42F3
(1756462281.636422) can0 039#0FC4A91DAF9A42F3
(1756462281.643091) can0 062#0E44A91EF0B7C233
(1756462281.646532) can0 024#0FC5A91E22A1896B
(1756462281.646545) can0 039#0FC5A91E22A1896B
(1756462281.653175) can0 062#0E44A91F6687C544
(1756462281.656563) can0 024#0FC4A91F83FB4C1D
(1756462281.656577) can0 039#0FC4A91F83FB4C1D
(1756462281.663181) can0 062#0E44A9205BAAA3F2
(1756462281.666614) can0 024#0FC4A920BED62AAB
(1756462281.666631) can0 039#0FC4A920BED62AAB
(1756462281.673446) can0 062#0E45A921FAF06684
(1756462281.676895) can0 024#0FC5A9211F8CEFDD
(1756462281.676921) can0 039#0FC5A9211F8CEFDD
(1756462281.683588) can0 062#0E45A92240A16F1D
(1756462281.687018) can0 024#0FC4A92292B72445
(1756462281.687049) can0 039#0FC4A92292B72445
(1756462281.694071) can0 062#0E45A923D691686A
(1756462281.697105) can0 024#0FC4A92304872332
(1756462281.697145) can0 039#0FC4A92304872332
(1756462281.703603) can0 062#0E44A924426ECEF5
(1756462281.707204) can0 024#0FC4A924A71247AC
(1756462281.707255) can0 039#0FC5A924907885AD
(1756462281.714052) can0 062#0E44A925D45EC982
(1756462281.714160) can0 1D3#00005DB6BCEA530C
(1756462281.714171) can0 150#02005DB637225AA6
(1756462281.718601) can0 024#0FC4A925312240DB
(1756462281.718633) can0 039#0FC5A925064882DA
(1756462281.718637) can0 077#00015DB68B80910D
(1756462281.718640) can0 098#00005DB6BCEA530C
(1756462281.718644) can0 1A7#00005DB6BCEA530C
(1756462281.718647) can0 1B8#01005DB6D98DEFB4
(1756462281.718651) can0 1BB#0C005DB604558546
(1756462281.723744) can0 062#0E45A9265965021A
(1756462281.727257) can0 024#0FC4A9268B734942
(1756462281.727307) can0 039#0FC4A9268B734942
(1756462281.733660) can0 062#0E44A927F83FC76C
(1756462281.737324) can0 024#0FC4A9271D434E35
(1756462281.737516) can0 039#0FC4A9271D434E35
(1756462281.744021) can0 062#0E44A928692278FC
(1756462281.747038) can0 024#0FC4A9288C5EF1A5
(1756462281.747146) can0 039#0FC4A9288C5EF1A5
(1756462281.753688) can0 062#0E45A929C878BD8A
(1756462281.757084) can0 024#0FC5A9292D0434D3
(1756462281.757191) can0 039#0FC4A9291A6EF6D2
(1756462281.763381) can0 062#0E44A92A45437612
(1756462281.766895) can0 024#0FC4A92AA03FFF4B
(1756462281.766955) can0 039#0FC5A92A97553D4A
(1756462281.773142) can0 062#0E45A92BE419B364
(1756462281.776471) can0 024#0FC3A92BB319B739
(1756462281.776523) can0 039#0FC5A92B01653A3D
(1756462281.783086) can0 062#0E45A92C478CD7FA
(1756462281.786401) can0 024#0FC4A92C959A9CA2
(1756462281.786441) can0 039#0FC5A92CA2F05EA3
(1756462281.795063) can0 062#0E45A92DD1BCD08D
(1756462281.796362) can0 024#0FC5A92D34C059D4
(1756462281.796392) can0 039#0FC4A92D03AA9BD5
(1756462281.803027) can0 062#0E44A92E5C871B15
(1756462281.806403) can0 024#0FC4A92EB9FB924C
(1756462281.806440) can0 039#0FC4A92EB9FB924C
(1756462281.813064) can0 062#0E44A92FCAB71C62
(1756462281.813094) can0 1D3#00005DB72ADA547B
(1756462281.813367) can0 150#02005DB7A1125DD1
(1756462281.816397) can0 024#0FC4A92F2FCB953B
(1756462281.816441) can0 039#0FC4A92F2FCB953B
(1756462281.816647) can0 077#00015DB71DB0967A
(1756462281.816984) can0 098#00005DB72ADA547B
(1756462281.817092) can0 1A7#00005DB72ADA547B
(1756462281.817641) can0 1B8#01005DB74FBDE8C3
(1756462281.817908) can0 1BB#0C005DB792658231
(1756462281.822981) can0 062#0E44A9303FBA14EF
(1756462281.826338) can0 024#0FC4A930DAC69DB6
(1756462281.826369) can0 039#0FC4A930DAC69DB6
(1756462281.832945) can0 062#0E44A931A98A1398
(1756462281.836296) can0 024#0FC4A9314CF69AC1
(1756462281.836326) can0 039#0FC5A9317B9C58C0
(1756462281.843419) can0 062#0E44A93213DB1A01
(1756462281.846392) can0 024#0FC5A932C1CD5159
(1756462281.846422) can0 039#0FC5A932C1CD5159
(1756462281.853102) can0 062#0E44A93385EB1D76
(1756462281.856440) can0 024#0FC4A9336097942F
(1756462281.856477) can0 039#0FC5A93357FD562E
(1756462281.863195) can0 062#0E44A934267E79E8
(1756462281.866545) can0 024#0FC4A934C302F0B1
(1756462281.866593) can0 039#0FC4A934C302F0B1
(1756462281.873328) can0 062#0E44A935B04E7E9F
(1756462281.876849) can0 024#0FC3A935D024B8C3
(1756462281.876958) can0 039#0FC4A9355532F7C6
(1756462281.883610) can0 062#0E44A9360A1F7706
(1756462281.887068) can0 024#0FC4A936EF63FE5F
(1756462281.887172) can0 039#0FC5A936D8093C5E
(1756462281.893590) can0 062#0E45A937AB45B270
(1756462281.897220) can0 024#0FC4A9377953F928
(1756462281.897326) can0 039#0FC5A9374E393B29
(1756462281.903619) can0 062#0E45A9383A580DE0
(1756462281.907253) can0 024#0FC5A938DF2484B9
(1756462281.907365) can0 039#0FC5A938DF2484B9
(1756462281.914122) can0 062#0E44A9399B02C896
(1756462281.914229) can0 1D3#00005DB8BBC7EBEB
(1756462281.914237) can0 150#02005DB8300FE241
(1756462281.918593) can0 024#0FC4A9397E7E41CF
(1756462281.918694) can0 039#0FC5A939491483CE
(1756462281.918702) can0 077#00015DB88CAD29EA
(1756462281.918707) can0 098#00005DB8BBC7EBEB
(1756462281.918710) can0 1A7#00005DB8BBC7EBEB
(1756462281.918714) can0 1B8#01005DB8DEA05753
(1756462281.918718) can0 1BB#0C005DB803783DA1
(1756462281.923544) can0 062#0E44A93A2153C10F
(1756462281.927074) can0 024#0FC5A93AF3458A57
(1756462281.927178) can0 039#0FC4A93AC42F4856
(1756462281.933595) can0 062#0E45A93B80090479
(1756462281.937325) can0 024#0FC4A93B521F4F21
(1756462281.937595) can0 039#0FC4A93B521F4F21
(1756462281.945694) can0 062#0E46A93C7A2226E5
(1756462281.947032) can0 024#0FC4A93CF18A2BBF
(1756462281.947136) can0 039#0FC4A93CF18A2BBF
(1756462281.953606) can0 062#0E45A93DB5AC6790
(1756462281.957096) can0 024#0FC4A93D67BA2CC8
(1756462281.957200) can0 039#0FC4A93D67BA2CC8
(1756462281.963605) can0 062#0E44A93E3897AC08
(1756462281.967093) can0 024#0FC4A93EDDEB2551
(1756462281.967196) can0 039#0FC4A93EDDEB2551
(1756462281.973618) can0 062#0E44A93FAEA7AB7F
(1756462281.977108) can0 024#0FC4A93F4BDB2226
(1756462281.977145) can0 039#0FC4A93F4BDB2226
(1756462281.983687) can0 062#0E44A94003CB11BF
(1756462281.987156) can0 024#0FC5A940D1DD5AE7
(1756462281.987260) can0 039#0FC5A940D1DD5AE7
(1756462281.995568) can0 062#0E45A941A291D4C9
(1756462281.997695) can0 024#0FC4A94170879F91
(1756462281.997800) can0 039#0FC4A94170879F91
(1756462282.003649) can0 062#0E45A94218C0DD50
(1756462282.007208) can0 024#0FA5A942DD778341
(1756462282.007319) can0 039#0FC5A942FDBC5409
(1756462282.018703) can0 062#0E44A943B99A1826
(1756462282.018823) can0 1D3#00005DB92DF7EC9C
(1756462282.018832) can0 150#02005DB9A63FE536
(1756462282.018835) can0 024#0ED3A943CC3444DE
(1756462282.018839) can0 039#0FC4A9435CE6917F
(1756462282.018844) can0 077#00015DB91A9D2E9D
(1756462282.018848) can0 098#00005DB92DF7EC9C
(1756462282.018851) can0 1A7#00005DB92DF7EC9C
(1756462282.018907) can0 1B8#01005DB948905024
(1756462282.018918) can0 1BB#0C005DB995483AD6
(1756462282.023620) can0 062#0E45A9442D65BEB9
(1756462282.027188) can0 024#0E25A9440DAE69F1
(1756462282.027295) can0 039#0FC5A944C81937E0
(1756462282.033625) can0 062#0E44A9458C3F7BCF
(1756462282.037058) can0 024#0D6EA945545314E8
(1756462282.037158) can0 039#0FC4A9456943F296
(1756462282.045418) can0 062#0E44A946366E7256
(1756462282.047045) can0 024#0C8AA946F71D4A67
(1756462282.047151) can0 039#0FC5A946E478390E
(1756462282.053631) can0 062#0E44A947A05E7521
(1756462282.057105) can0 024#0BB4A94742DD6FA3
(1756462282.057210) can0 039#0FC4A9474522FC78
(1756462282.063621) can0 062#0E44A9483143CAB1
(1756462282.067136) can0 024#0ABBA9488BE03080
(1756462282.067241) can0 039#0FC5A948E35581E9
(1756462282.073519) can0 062#0E44A949A773CDC6
(1756462282.077191) can0 024#09C9A949CDC3F7B2
(1756462282.077296) can0 039#0FC4A949420F449F
(1756462282.083615) can0 062#0E44A94A1D22C45F
(1756462282.087182) can0 024#08E2A94A135C5AA7
(1756462282.087213) can0 039#0FC4A94AF85E4D06
(1756462282.093662) can0 062#0E44A94B8B12C328
(1756462282.097189) can0 024#0825A94B40ECBD44
(1756462282.097221) can0 039#0FC4A94B6E6E4A71
(1756462282.103572) can0 062#0E45A94C1FED65B7
(1756462282.107036) can0 024#0741A94C490A64CD
(1756462282.107068) can0 039#0FC4A94CCDFB2EEF
(1756462282.114011) can0 062#0E44A94DBEB7A0C1
(1756462282.114041) can0 1D3#00005DBA97A6E505
(1756462282.114046) can0 150#02005DBA1C6EECAF
(1756462282.118707) can0 024#063DA94D8ECC345F
(1756462282.118738) can0 039#0FC4A94D5BCB2998
(1756462282.118742) can0 077#00015DBAA0CC2704
(1756462282.118746) can0 098#00005DBA97A6E505
(1756462282.118749) can0 1A7#00005DBA97A6E505
(1756462282.118753) can0 1B8#01005DBAF2C159BD
(1756462282.118759) can0 1BB#0C005DBA2F19334F
(1756462282.123601) can0 062#0E44A94E04E6A958
(1756462282.127038) can0 024#054AA94E0F4C3685
(1756462282.127069) can0 039#0FC4A94EE19A2001
(1756462282.133609) can0 062#0E45A94FA5BC6C2E
(1756462282.137081) can0 024#0454A94F8695355C
(1756462282.137112) can0 039#0FC4A94F77AA2776
(1756462282.145631) can0 062#0E44A95067DBA6A2
(1756462282.147038) can0 024#033CA950523A2E0A
(1756462282.147069) can0 039#0FC4A95082A72FFB
(1756462282.153722) can0 062#0E45A951C68163D4
(1756462282.157167) can0 024#023DA951960757C4
(1756462282.157199) can0 039#0FC4A9511497288C
(1756462282.163598) can0 062#0E45A9527CD06A4D
(1756462282.166976) can0 024#013EA9529B47AD4D
(1756462282.167006) can0 039#0FC3A9522BD06E10
(1756462282.173527) can0 062#0E45A953EAE06D3A
(1756462282.177149) can0 024#0044A953EEFD70DB
(1756462282.177180) can0 039#0FC4A95338F62662
(1756462282.183612) can0 062#0E44A9547E1FCBA5
(1756462282.187049) can0 024#0000A954514D8732
(1756462282.187080) can0 039#0FC4A9549B6342FC
(1756462282.195629) can0 062#0E44A955E82FCCD2
(1756462282.196992) can0 024#0000A955C77D8045
(1756462282.197024) can0 039#0FC4A9550D53458B
(1756462282.203650) can0 062#0E45A9566514074A
(1756462282.207037) can0 024#0000A9567D2C89DC
(1756462282.207069) can0 039#0FC4A956B7024C12
(1756462282.213891) can0 062#0E45A957F324003D
(1756462282.213923) can0 1D3#00005DBB0196E272
(1756462282.213928) can0 150#02005DBB8A5EEBD8
(1756462282.218591) can0 024#0000A957EB1C8EAB
(1756462282.218623) can0 039#0FC4A95721324B65
(1756462282.218627) can0 077#00015DBB36FC2073
(1756462282.218631) can0 098#00005DBB0196E272
(1756462282.218634) can0 1A7#00005DBB0196E272
(1756462282.218638) can0 1B8#01005DBB64F15ECA
(1756462282.218641) can0 1BB#08005DBBEEBE56B7
(1756462282.223625) can0 062#0E45A9586239BFAD
(1756462282.227118) can0 024#0000A9587A01313B
(1756462282.227150) can0 039#0FC4A958B02FF4F5
(1756462282.233602) can0 062#0E44A959C3637ADB
(1756462282.237012) can0 024#0000A959EC31364C
(1756462282.237044) can0 039#0FC4A959261FF382
(1756462282.243612) can0 062#0E45A95A4E58B143
(1756462282.247281) can0 024#0000A95A56603FD5
(1756462282.247316) can0 039#0FC4A95A9C4EFA1B
(1756462282.253632) can0 062#0E44A95BEF027435
(1756462282.257159) can0 024#0000A95BC05038A2
(1756462282.257190) can0 039#0FC4A95B0A7EFD6C
(1756462282.263477) can0 062#0E44A95C4C9710AB
(1756462282.267108) can0 024#0000A95C63C55C3C
(1756462282.267141) can0 039#0FC4A95CA9EB99F2
(1756462282.273646) can0 062#0E45A95DEDCDD5DD
(1756462282.277121) can0 024#0000A95DF5F55B4B
(1756462282.277163) can0 039#0FC4A95D3FDB9E85
(1756462282.283594) can0 062#0E44A95E60F61E45
(1756462282.287033) can0 024#0000A95E4FA452D2
(1756462282.287065) can0 039#0FC4A95E858A971C
(1756462282.293586) can0 062#0E44A95FF6C61932
(1756462282.297135) can0 024#0000A95FD99455A5
(1756462282.297167) can0 039#0FC4A95F13BA906B
(1756462282.303555) can0 062#0E44A960CBEB7F84
(1756462282.307418) can0 024#0000A960E4B93313
(1756462282.307455) can0 039#0FC4A9602E97F6DD
(1756462282.314019) can0 062#0E44A9615DDB78F3
(1756462282.314050) can0 1D3#00005DBCA20386EC
(1756462282.314055) can0 150#02005DBC29CB8F46
(1756462282.318650) can0 024#0000A96172893464
(1756462282.318681) can0 039#0FC4A961B8A7F1AA
(1756462282.318685) can0 077#00015DBC956944ED
(1756462282.318689) can0 098#00005DBCA20386EC
(1756462282.318692) can0 1A7#00005DBCA20386EC
(1756462282.318696) can0 1B8#01005DBCC7643A54
(1756462282.318700) can0 1BB#08005DBC4D2B3229
(1756462282.324221) can0 062#0E44A962E78A716A
(1756462282.327087) can0 024#0000A962C8D83DFD
(1756462282.327138) can0 039#0FC4A96202F6F833
(1756462282.333712) can0 062#0E44A96371BA761D
(1756462282.337192) can0 024#0000A9635EE83A8A
(1756462282.337224) can0 039#0FC5A963A3AC3D45
(1756462282.343658) can0 062#0E44A964D22F1283
(1756462282.347098) can0 024#0000A964FD7D5E14
(1756462282.347130) can0 039#0FC4A96437539BDA
(1756462282.353753) can0 062#0E44A965441F15F4
(1756462282.357108) can0 024#0000A9656B4D5963
(1756462282.357140) can0 039#0FC4A965A1639CAD
(1756462282.363628) can0 062#0E44A966FE4E1C6D
(1756462282.367039) can0 024#0000A966D11C50FA
(1756462282.367067) can0 039#0FC3A9669E24DA31
(1756462282.373655) can0 062#0E44A967687E1B1A
(1756462282.377046) can0 024#0000A967472C578D
