(1599991447.261664) can0 123#00000000000007A7
(1599991447.261901) can0 124#2E933029A2F07070
(1599991447.262135) can0 125#0000010800000731
(1599991447.264928) can0 2F1#2188FFFFFFFF7800
(1599991447.265213) can0 2F2#110210090A000000
(1599991447.266000) can0 380#1720AB0000000000
(1599991447.266952) can0 084#0100007A408C9C8D
(1599991447.267177) can0 085#17000E5C6D6000C0
(1599991447.267415) can0 191#0000812000000856
(1599991447.270812) can0 0E0#004B00E0C1BD0000
(1599991447.273659) can0 113#0E5C0000AA090E99
(1599991447.274423) can0 150#7E0004036D036D3E
(1599991447.276918) can0 084#0100007A408C9DA2
(1599991447.277135) can0 085#17000E76516000D0
(1599991447.279722) can0 402#0210020102000000
(1599991447.280934) can0 0E0#004B00E0D15D0000
(1599991447.281426) can0 122#000000000000083D
(1599991447.281673) can0 123#000000000000083D
(1599991447.281903) can0 124#2E933029A2F080A8
(1599991447.282145) can0 125#00000108000008AB
(1599991447.282392) can0 2C2#0000000000000000
(1599991447.283731) can0 285#0140C92000000100
(1599991447.286974) can0 084#0100007A408C9ED3
(1599991447.287182) can0 085#17000E768C6000E0
(1599991447.287422) can0 191#0000812000000979
(1599991447.290808) can0 0E0#004B00E0E1520000
(1599991447.291035) can0 281#0000000100000BF9
(1599991447.293357) can0 1F2#9E9FA0A14E535052
(1599991447.293583) can0 113#0E760000AA090F69
(1599991447.293845) can0 286#0140014000000000
(1599991447.294566) can0 150#7E000403AD036E73
(1599991447.296909) can0 084#0100007A408C9FFC
(1599991447.297137) can0 085#17000E76226000F0
(1599991447.300953) can0 0E0#004C00E0F1310000
(1599991447.301428) can0 122#0000000000000912
(1599991447.301664) can0 123#0000000000000912
(1599991447.301893) can0 124#2E933029A2F09006
(1599991447.302135) can0 125#0000010800000984
(1599991447.303569) can0 1F0#04180000FFFF0037
(1599991447.304033) can0 284#004140530C680200
(1599991447.306983) can0 084#0100007A408C9066
(1599991447.307185) can0 085#17000E76FA600000
(1599991447.307428) can0 191#0000812000000A08
(1599991447.310814) can0 0E0#004C00E001020000
(1599991447.313586) can0 113#0E760000AA0900F3
(1599991447.313861) can0 287#0059000000000120
(1599991447.314503) can0 150#7E000403AD036F5C
(1599991447.316921) can0 084#0100007A408C9149
(1599991447.317137) can0 085#17000E68D6600010
(1599991447.317388) can0 390#0800000000000000
(1599991447.320947) can0 0E0#004B00E011610000
(1599991447.321418) can0 122#0000000000000A63
(1599991447.321659) can0 123#0000000000000A63
(1599991447.321885) can0 124#2E933029A2F0A0DB
(1599991447.322128) can0 125#0000010800000AF5
(1599991447.323510) can0 370#0F00000000000000
(1599991447.325581) can0 2B1#2100000000000000
(1599991447.326966) can0 084#0100007A408C9238
(1599991447.327200) can0 085#17000E680B600020
(1599991447.327429) can0 191#0000812000000B27
(1599991447.329713) can0 26D#40540A0412000000
(1599991447.330840) can0 0E0#004B00E0216E0000
(1599991447.332833) can0 2A0#0000000000000000
(1599991447.333089) can0 2A1#0000007F7F7F7F7F
(1599991447.333345) can0 2A3#E707E71800000300
(1599991447.333616) can0 2A4#0080000000000000
(1599991447.333847) can0 113#0E680000AA090126
(1599991447.334096) can0 2A5#000F071F00000000
(1599991447.334362) can0 2A7#0000000000001400
(1599991447.334606) can0 150#7E000403AD0360C6
(1599991447.334855) can0 2A8#004000000000B069
(1599991447.335120) can0 2AA#0000000000000000
(1599991447.335390) can0 2AE#0100000000000000
(1599991447.335632) can0 218#5F0000000000092E
(1599991447.336928) can0 084#0100007A408C9317
(1599991447.337149) can0 085#17000E68A5600030
(1599991447.339737) can0 3F6#3D25FF0000000CE8
(1599991447.339970) can0 260#0000000000001D00
(1599991447.340986) can0 0E0#004B00E0318E0000
(1599991447.341476) can0 122#0000000000000B4C
(1599991447.341712) can0 123#0000000000000B4C
(1599991447.341939) can0 124#2E933029A2F0B075
(1599991447.342186) can0 125#0000010800000BDA
(1599991447.342774) can0 2FB#000007DC465D07F3
(1599991447.343014) can0 2FC#0A00080000004019
(1599991447.343261) can0 2FD#0000000000001000
(1599991447.343494) can0 1F2#9E9FA0A14E535052
(1599991447.347156) can0 191#0000812000000CEA
(1599991447.347353) can0 084#0100007A408C94DA
(1599991447.347586) can0 085#17000E689E600040
(1599991447.347928) can0 288#A500004D00000059
(1599991447.348162) can0 28A#C100020098570AE4
(1599991447.350819) can0 0E0#004C00E041F30000
(1599991447.353415) can0 1F0#04180000FFFF0118
(1599991447.353631) can0 113#0E680000AA090257
(1599991447.354419) can0 150#7E000403AD0361E9
(1599991447.355576) can0 415#1500050110000000
(1599991447.357401) can0 084#0100007A408C95F5
(1599991447.357626) can0 085#17000E6830600050
(1599991447.360955) can0 0E0#004B00E051900000
(1599991447.361434) can0 122#0000000000000C81
(1599991447.361674) can0 123#0000000000000C81
(1599991447.361903) can0 124#2E933029A2F0C04E
(1599991447.362145) can0 125#0000010800000C17
(1599991447.364954) can0 2F1#2188FFFFFFFF7800
(1599991447.365179) can0 2F2#110210090A000000
(1599991447.366959) can0 084#0100007A408C9684
(1599991447.367180) can0 085#17000E6E22600060
(1599991447.367419) can0 191#0000812000000DC5
(1599991447.370816) can0 0E0#004B00E0619F0000
(1599991447.374438) can0 150#7E000403AD036298
(1599991447.375073) can0 113#0E680000AA090378
(1599991447.376920) can0 084#0100007A408C97AB
(1599991447.377170) can0 085#18000E6E73600070
(1599991447.380961) can0 0E0#004B00E0717F0000
(1599991447.381439) can0 122#0000000000000DAE
(1599991447.381681) can0 123#0000000000000DAE
(1599991447.381911) can0 124#2E933029A2F0D0E0
(1599991447.382151) can0 125#0000010800000D38
(1599991447.383062) can0 2C2#0000000000000000
(1599991447.383706) can0 285#0140C92000000100
(1599991447.386997) can0 084#0100007A408C9831
(1599991447.387198) can0 085#18000E6EAB600080
(1599991447.387441) can0 191#0000812000000EB4
(1599991447.390792) can0 0E0#004B00E0814C0000
(1599991447.391033) can0 281#0000000100000C34
(1599991447.393324) can0 1F2#9E9FA0A14E535052
(1599991447.393652) can0 113#0E6E0000AA090462
(1599991447.393893) can0 286#0140014000000000
(1599991447.394546) can0 150#7E0004036D03638B
(1599991447.396924) can0 084#0100007A408C991E
(1599991447.397145) can0 085#18000E6E05600090
(1599991447.399687) can0 3F0#0339340702170007
(1599991447.400958) can0 0E0#004B00E091AC0000
(1599991447.401449) can0 122#0000000000000EDF
(1599991447.401684) can0 123#0000000000000EDF
(1599991447.401911) can0 124#2E933029A2F0E03D
(1599991447.402155) can0 125#0000010800000E49
(1599991447.403549) can0 1F0#04180000FFFF0269
(1599991447.404025) can0 284#004140530C680200
(1599991447.406979) can0 084#0100007A408C9A6F
(1599991447.407186) can0 085#18000E7A246000A0
(1599991447.407432) can0 191#0000812000000F9B
(1599991447.408057) can0 41C#1C00020102000000
(1599991447.410811) can0 0E0#004C00E0A1200000
(1599991447.413845) can0 287#0059000000000120
(1599991447.414414) can0 150#7E000403AD03647A
(1599991447.415044) can0 113#0E6E0000AA09054D
(1599991447.416952) can0 084#0100007A408C9B40
(1599991447.417181) can0 085#18000E7A8A6000B0
(1599991447.420954) can0 0E0#004B00E0B1430000
(1599991447.421450) can0 122#0000000000000FF0
(1599991447.421743) can0 123#0000000000000FF0
(1599991447.421925) can0 124#2E933029A2F0F093
(1599991447.422156) can0 125#0000010800000F66
(1599991447.425578) can0 2AB#0190430000030100
(1599991447.425812) can0 2B1#2100000000000000
(1599991447.426963) can0 084#0100007A408C9C8D
(1599991447.427188) can0 085#18000E7AB16000C0
(1599991447.427426) can0 191#0000812000000001
(1599991447.429837) can0 26D#40540A0412000000
(1599991447.430801) can0 0E0#004B00E0C1BD0000
(1599991447.432843) can0 2A0#0000000000000000
(1599991447.433096) can0 2A1#0000007F7F7F7F7F
(1599991447.433355) can0 2A3#E707E71800000300
(1599991447.433592) can0 113#0E7A0000AA090690
(1599991447.433839) can0 2A4#0080000000000000
(1599991447.434110) can0 2A5#000F071F00000000
(1599991447.434377) can0 2A7#0000000000001400
(1599991447.434623) can0 150#7E000403AD036555
(1599991447.434868) can0 2A8#004000000000C052
(1599991447.435134) can0 2AA#0000000000000000
(1599991447.435402) can0 2AE#0100000000000000
(1599991447.435653) can0 218#5F00000000000A5F
(1599991447.435906) can0 3E1#0000000000000EDF
(1599991447.436175) can0 3E2#0000000000000EDF
(1599991447.436926) can0 084#0100007A408C9DA2
(1599991447.437170) can0 085#18000E7A1F6000D0
(1599991447.439733) can0 260#0000000000001D00
(1599991447.440955) can0 0E0#004B00E0D15D0000
(1599991447.441445) can0 122#000000000000006A
(1599991447.441685) can0 123#000000000000006A
(1599991447.441915) can0 124#2E933029A2F0004B
(1599991447.442162) can0 125#00000108000000FC
(1599991447.442780) can0 2FB#000007E0465F07F3
(1599991447.443022) can0 2FC#0A00080000004019
(1599991447.443269) can0 2FD#0000000000001000
(1599991447.443501) can0 1F2#9E9FA0A14E535052
(1599991447.446976) can0 084#0100007A408C9ED3
(1599991447.447204) can0 085#18000E76736000E0
(1599991447.447442) can0 191#000081200000012E
(1599991447.447682) can0 288#A500004D00000059
(1599991447.447909) can0 28A#C300020098570B0C
(1599991447.450806) can0 0E0#004B00E0E1520000
(1599991447.453407) can0 1F0#04180000FFFF0346
(1599991447.453617) can0 113#0E7A0000AA0907BF
(1599991447.454441) can0 150#7E0004036D036618
(1599991447.456937) can0 084#0100007A408C9FFC
(1599991447.457155) can0 085#18000E76DD6000F0
(1599991447.460963) can0 0E0#004B00E0F1B20000
(1599991447.461443) can0 122#0000000000000145
(1599991447.461683) can0 123#0000000000000145
(1599991447.461913) can0 124#2E933029A2F010E5
(1599991447.462155) can0 125#00000108000001D3
(1599991447.464967) can0 2F1#2188FFFFFFFF7800
(1599991447.465186) can0 2F2#110210090A000000
(1599991447.466081) can0 380#1730780000000000
(1599991447.466956) can0 084#0100007A408C9066
(1599991447.467192) can0 085#18000E7605600000
(1599991447.467435) can0 191#000081200000025F
(1599991447.470809) can0 0E0#004B00E001810000
(1599991447.473657) can0 113#0E760000AA0908A4
(1599991447.474449) can0 150#7E000403AD03670B
(1599991447.476933) can0 084#0100007A408C9149
(1599991447.477152) can0 085#18000E76AB600010
(1599991447.480962) can0 0E0#004B00E011610000
(1599991447.481435) can0 122#0000000000000234
(1599991447.481675) can0 123#0000000000000234
(1599991447.481909) can0 124#2E933029A2F02038
(1599991447.482155) can0 125#00000108000002A2
(1599991447.483738) can0 285#0140C92000000100
(1599991447.484069) can0 2C2#0000000000000000
(1599991447.487150) can0 191#0000812000000370
(1599991447.487615) can0 084#0100007A408C9238
(1599991447.487854) can0 085#18000E70B9600020
(1599991447.490794) can0 0E0#004B00E0216E0000
(1599991447.491032) can0 281#0000000100000D1B
(1599991447.493318) can0 1F2#9E9FA0A14E535052
(1599991447.493623) can0 113#0E760000AA09098B
(1599991447.493866) can0 286#0140014000000000
(1599991447.494517) can0 150#7E000403AD036891
(1599991447.496935) can0 084#0100007A408C9317
(1599991447.497156) can0 085#18000E7017600030
(1599991447.500957) can0 0E0#004B00E0318E0000
(1599991447.501448) can0 122#000000000000031B
(1599991447.501688) can0 123#000000000000031B
(1599991447.501918) can0 124#2E933029A2F03096
(1599991447.502161) can0 125#000001080000038D
(1599991447.503553) can0 1F0#04180000FFFF048B
(1599991447.504018) can0 284#004140530C680200
(1599991447.506972) can0 084#0100007A408C94DA
(1599991447.507216) can0 085#18000E702C600040
(1599991447.507431) can0 191#00008120000004BD
(1599991447.510815) can0 0E0#004B00E041700000
(1599991447.512834) can0 407#0710050110000000
(1599991447.513806) can0 287#0059000000000120
(1599991447.514024) can0 113#0E700000AA090A2D
(1599991447.514444) can0 150#7E0004036D036982
(1599991447.516933) can0 084#0100007A408C95F5
(1599991447.517156) can0 085#18000E7082600050
(1599991447.520972) can0 0E0#004B00E051900000
(1599991447.521448) can0 122#00000000000004D6
(1599991447.521686) can0 123#00000000000004D6
(1599991447.521918) can0 124#2E933029A2F040AD
(1599991447.522162) can0 125#0000010800000440
(1599991447.525586) can0 2B1#2100000000000000
(1599991447.526957) can0 084#0100007A408C9684
(1599991447.527189) can0 085#18000E705F600060
(1599991447.527426) can0 191#0000812000000592
(1599991447.529768) can0 26D#40540A0412000000
(1599991447.530800) can0 0E0#004B00E0619F0000
(1599991447.532857) can0 2A0#0000000000000000
(1599991447.533146) can0 2A1#0000007F7F7F7F7F
(1599991447.533362) can0 2A3#E707E71800000300
(1599991447.533607) can0 113#0E700000AA090B02
(1599991447.533852) can0 2A4#0080000000000000
(1599991447.534121) can0 2A5#000F071F00000000
(1599991447.534388) can0 2A7#0000000000001400
(1599991447.534632) can0 150#7E000403AD036ACF
(1599991447.534873) can0 2A8#004000000000D0FC
(1599991447.535142) can0 2AA#0000000000000000
(1599991447.535405) can0 2AE#0100000000000000
(1599991447.535656) can0 218#5F00000000000B70
(1599991447.536932) can0 084#0100007A408C97AB
(1599991447.537172) can0 085#18000E78CA600070
(1599991447.539738) can0 3F6#3D25FF0000000DC7
(1599991447.539955) can0 260#0000000000001D00
(1599991447.540991) can0 0E0#004B00E0717F0000
(1599991447.541484) can0 122#00000000000005F9
(1599991447.541725) can0 123#00000000000005F9
(1599991447.541955) can0 124#2E933029A2F05003
(1599991447.542200) can0 125#000001080000056F
(1599991447.542766) can0 2FB#000007E3465B07ED
(1599991447.543005) can0 2FC#0A00080000004019
(1599991447.543253) can0 2FD#0000000000001000
(1599991447.543486) can0 1F2#9E9FA0A14E535052
(1599991447.547047) can0 084#0100007A408C9831
(1599991447.547259) can0 085#18000E7812600080
(1599991447.547498) can0 191#00008120000006E3
(1599991447.547741) can0 288#A500004D00000059
(1599991447.547967) can0 28A#C300020098570CC1
(1599991447.550798) can0 0E0#004B00E0814C0000
(1599991447.553355) can0 1F0#04180000FFFF05A4
(1599991447.553660) can0 113#0E780000AA090C31
(1599991447.554453) can0 150#7E000403AD036BE0
(1599991447.556924) can0 084#0100007A408C991E
(1599991447.557152) can0 085#18000E78BC600090
(1599991447.560974) can0 0E0#004B00E091AC0000
(1599991447.561448) can0 122#0000000000000688
(1599991447.561684) can0 123#0000000000000688
(1599991447.561914) can0 124#2E933029A2F060DE
(1599991447.562155) can0 125#000001080000061E
(1599991447.564994) can0 2F1#2188FFFFFFFF7800
(1599991447.565209) can0 2F2#110210090A000000
(1599991447.566975) can0 084#0100007A408C9A6F
(1599991447.567196) can0 085#18000E78616000A0
(1599991447.567440) can0 191#00008120000007CC
(1599991447.570820) can0 0E0#004C00E0A1200000
(1599991447.574466) can0 150#7E0004036D036C11
(1599991447.575010) can0 113#0E780000AA090D1E
(1599991447.576925) can0 084#0100007A408C9B40
(1599991447.577167) can0 085#18000E64086000B0
(1599991447.580968) can0 0E0#004B00E0B1430000
(1599991447.581450) can0 122#00000000000007A7
(1599991447.581723) can0 123#00000000000007A7
(1599991447.581926) can0 124#2E933029A2F07070
(1599991447.582167) can0 125#0000010800000731
(1599991447.583689) can0 285#0140C92000000100
(1599991447.585088) can0 2C2#0000000000000000
(1599991447.586988) can0 084#0100007A408C9C8D
(1599991447.587196) can0 085#18000E64336000C0
(1599991447.587440) can0 191#0000812000000856
(1599991447.590829) can0 0E0#004C00E0C13E0000
(1599991447.591033) can0 281#0000000100000E6A
(1599991447.593286) can0 1F2#9E9FA0A14E535052
(1599991447.593596) can0 113#0E640000AA090E3D
(1599991447.593838) can0 286#0140014000000000
(1599991447.594500) can0 150#7E0004036D036D3E
(1599991447.596917) can0 084#0100007A408C9DA2
(1599991447.597148) can0 085#18000E649D6000D0
(1599991447.600952) can0 0E0#004B00E0D15D0000
(1599991447.601452) can0 122#000000000000083D
(1599991447.601699) can0 123#000000000000083D
(1599991447.601929) can0 124#2E933029A2F080A8
(1599991447.602171) can0 125#00000108000008AB
(1599991447.603507) can0 1F0#04180000FFFF06D5
(1599991447.603983) can0 284#004140530C680200
(1599991447.606999) can0 084#0100007A408C9ED3
(1599991447.607221) can0 085#19000E64B46000E0
(1599991447.607461) can0 191#0000812000000979
(1599991447.610797) can0 0E0#004B00E0E1520000
(1599991447.612629) can0 40E#0E100601E0030000
(1599991447.613834) can0 287#0059000000000120
(1599991447.614450) can0 150#7E000403AD036E73
(1599991447.615037) can0 113#0E640000AA090F12
(1599991447.617431) can0 084#0100007A408C9FFC
(1599991447.617637) can0 085#19000E641A6000F0
(1599991447.620986) can0 0E0#004B00E0F1B20000
(1599991447.621450) can0 122#0000000000000912
(1599991447.621690) can0 123#0000000000000912
(1599991447.621920) can0 124#2E933029A2F09006
(1599991447.622159) can0 125#0000010800000984
(1599991447.625600) can0 2AB#0190430000030100
(1599991447.625829) can0 2B1#2100000000000000
(1599991447.626979) can0 084#0100007A408C9066
(1599991447.627194) can0 085#19000E5AAC600000
(1599991447.627443) can0 191#0000812000000A08
(1599991447.629744) can0 26D#40540A0412000000
(1599991447.630797) can0 0E0#004B00E001810000
(1599991447.632851) can0 2A0#0000000000000000
(1599991447.633108) can0 2A1#0000007F7F7F7F7F
(1599991447.633367) can0 2A3#E707E71800000300
(1599991447.633602) can0 113#0E640000AA090088
(1599991447.633850) can0 2A4#0080000000000000
(1599991447.634124) can0 2A5#000F071F00000000
(1599991447.634425) can0 2A7#0000000000001400
(1599991447.634631) can0 150#7E000403AD036F5C
(1599991447.634875) can0 2A8#004000000000E021
(1599991447.635142) can0 2AA#0000000000000000
(1599991447.635409) can0 2AE#0100000000000000
(1599991447.635652) can0 218#5F00000000000CBD
(1599991447.635907) can0 3E1#0000000000000FF0
(1599991447.636176) can0 3E2#0000000000000FF0
(1599991447.636938) can0 084#0100007A408C9149
(1599991447.637167) can0 085#19000E5A02600010
(1599991447.639745) can0 260#0000000000001D00
(1599991447.640972) can0 0E0#004B00E011610000
(1599991447.641446) can0 122#0000000000000A63
(1599991447.641686) can0 123#0000000000000A63
(1599991447.641915) can0 124#2E933029A2F0A0DB
(1599991447.642156) can0 125#0000010800000AF5
(1599991447.642769) can0 2FB#000007DE465B07F3
(1599991447.643000) can0 2FC#0A00080000004019
(1599991447.643249) can0 2FD#0000000000001000
(1599991447.643490) can0 1F2#9E9FA0A14E535052
(1599991447.647008) can0 084#0100007A408C9238
(1599991447.647215) can0 085#19000E5ADF600020
(1599991447.647460) can0 191#0000812000000B27
(1599991447.647702) can0 288#A500004D00000059
(1599991447.647929) can0 28A#C300020098570DEE
(1599991447.650814) can0 0E0#004B00E0216E0000
(1599991447.653346) can0 1F0#04180000FFFF07FA
(1599991447.653641) can0 113#0E5A0000AA0901D4
(1599991447.654469) can0 150#7E0004036D0360FA
(1599991447.656941) can0 084#0100007A408C9317
(1599991447.657158) can0 085#19000E5A71600030
(1599991447.660974) can0 0E0#004C00E0310D0000
(1599991447.661454) can0 122#0000000000000B4C
(1599991447.661692) can0 123#0000000000000B4C
(1599991447.661920) can0 124#2E933029A2F0B075
(1599991447.662167) can0 125#0000010800000BDA
(1599991447.664996) can0 2F1#2188FFFFFFFF7800
(1599991447.665217) can0 2F2#110210090A000000
(1599991447.666139) can0 380#17401F0000000000
(1599991447.666974) can0 084#0100007A408C94DA
(1599991447.667194) can0 085#19000E5EC0600040
(1599991447.667432) can0 191#0000812000000CEA
(1599991447.670812) can0 0E0#004B00E041700000
(1599991447.673832) can0 113#0E5A0000AA0902A5
(1599991447.674463) can0 150#7E000403AD0361E9
(1599991447.676969) can0 084#0100007A408C95F5
(1599991447.677187) can0 085#19000E5E6E600050
(1599991447.680980) can0 0E0#004B00E051900000
(1599991447.681497) can0 122#0000000000000C81
(1599991447.681701) can0 123#0000000000000C81
(1599991447.681932) can0 124#2E933029A2F0C04E
(1599991447.682173) can0 125#0000010800000C17
(1599991447.683674) can0 285#0140C92000000100
(1599991447.686108) can0 2C2#0000000000000000
(1599991447.686977) can0 084#0100007A408C9684
(1599991447.687199) can0 085#19000E5EB3600060
(1599991447.687439) can0 191#0000812000000DC5
(1599991447.690789) can0 0E0#004B00E0619F0000
(1599991447.691032) can0 281#0000000100000F45
(1599991447.693252) can0 1F2#9E9FA0A14E535052
(1599991447.693590) can0 113#0E5E0000AA0903F5
(1599991447.693833) can0 286#0140014000000000
(1599991447.694480) can0 150#7E000403AD036298
(1599991447.696939) can0 084#0100007A408C97AB
(1599991447.697150) can0 085#19000E5E1D600070
(1599991447.700992) can0 0E0#004B00E0717F0000
(1599991447.701470) can0 122#0000000000000DAE
(1599991447.701707) can0 123#0000000000000DAE
(1599991447.701936) can0 124#2E933029A2F0D0E0
(1599991447.702175) can0 125#0000010800000D38
(1599991447.703486) can0 1F0#04180000FFFF0860
(1599991447.703958) can0 284#004140530C680200
(1599991447.706990) can0 084#0100007A408C9831
(1599991447.707216) can0 085#19000E4CF6600080
(1599991447.707442) can0 191#0000812000000EB4
(1599991447.710811) can0 0E0#004B00E0814C0000
(1599991447.713761) can0 287#0059000000000120
(1599991447.714461) can0 150#7E0004036D03638B
(1599991447.714958) can0 113#0E5E0000AA090438
(1599991447.716936) can0 084#0100007A408C991E
(1599991447.717153) can0 085#19000E4C58600090
(1599991447.720990) can0 0E0#004B00E091AC0000
(1599991447.721467) can0 122#0000000000000EDF
(1599991447.721711) can0 123#0000000000000EDF
(1599991447.721937) can0 124#2E933029A2F0E03D
(1599991447.722180) can0 125#0000010800000E49
(1599991447.725616) can0 2B1#2100000000000000
(1599991447.726984) can0 084#0100007A408C9A6F
(1599991447.727196) can0 085#19000E4C856000A0
(1599991447.727442) can0 191#0000812000000F9B
(1599991447.729787) can0 26D#40540A0412000000
(1599991447.730788) can0 0E0#004B00E0A1A30000
(1599991447.732871) can0 2A0#0000000000000000
(1599991447.733114) can0 2A1#0000007F7F7F7F7F
(1599991447.733376) can0 2A3#E707E71800000300
(1599991447.733641) can0 2A4#0080000000000000
(1599991447.733876) can0 113#0E4C0000AA09056C
(1599991447.734126) can0 2A5#000F071F00000000
(1599991447.734390) can0 2A7#0000000000001400
(1599991447.734657) can0 150#7E000403AD03647A
(1599991447.734867) can0 2A8#004000000000F08F
(1599991447.735136) can0 2AA#0000000000000000
(1599991447.735407) can0 2AE#0100000000000000
(1599991447.735650) can0 218#5F00000000000D92
(1599991447.737001) can0 084#0100007A408C9B40
(1599991447.737221) can0 085#19000E4C2B6000B0
(1599991447.739706) can0 3F6#3D25FF0000000EB6
(1599991447.739935) can0 260#0000000000001D00
(1599991447.740978) can0 0E0#004B00E0B1430000
(1599991447.741475) can0 122#0000000000000FF0
(1599991447.741715) can0 123#0000000000000FF0
(1599991447.741944) can0 124#2E933029A2F0F093
(1599991447.742186) can0 125#0000010800000F66
(1599991447.742758) can0 2FB#000007DD465D07F2
(1599991447.742999) can0 2FC#0A00080000004019
(1599991447.743245) can0 2FD#0000000000001000
(1599991447.743478) can0 1F2#9E9FA0A14E535052
(1599991447.747032) can0 084#0100007A408C9C8D
(1599991447.747245) can0 085#19000E4C106000C0
(1599991447.747486) can0 191#0000812000000001
(1599991447.747726) can0 288#A500004D00000059
(1599991447.747951) can0 28A#C300020098570E9F
(1599991447.750812) can0 0E0#004B00E0C1BD0000
(1599991447.753317) can0 1F0#04180000FFFF094F
(1599991447.753660) can0 113#0E4C0000AA09061D
(1599991447.754492) can0 150#7E000403AD036555
(1599991447.756939) can0 084#0100007A408C9DA2
(1599991447.757152) can0 085#19000E424A6000D0
(1599991447.760991) can0 0E0#004C00E0D1DE0000
(1599991447.761471) can0 122#000000000000006A
(1599991447.761714) can0 123#000000000000006A
(1599991447.761948) can0 124#2E933029A2F0004B
(1599991447.762196) can0 125#00000108000000FC
(1599991447.765013) can0 2F1#2188FFFFFFFF7800
(1599991447.765254) can0 2F2#110210090A000000
(1599991447.767001) can0 084#0100007A408C9ED3
(1599991447.767203) can0 085#19000E42976000E0
(1599991447.767444) can0 191#000081200000012E
(1599991447.770805) can0 0E0#004B00E0E1520000
(1599991447.774482) can0 150#7E000403AD036624
(1599991447.774965) can0 113#0E420000AA09071B
(1599991447.776949) can0 084#0100007A408C8F52
(1599991447.777167) can0 085#19000E42396000F0
(1599991447.779728) can0 402#0210020102000000
(1599991447.780975) can0 0E0#004B00E0F1B20000
(1599991447.781466) can0 122#0000000000000145
(1599991447.781709) can0 123#0000000000000145
(1599991447.781941) can0 124#2E933029A2F010E5
(1599991447.782182) can0 125#00000108000001D3
(1599991447.783659) can0 285#0140C92000000100
(1599991447.787012) can0 084#0100007A408C80C8
(1599991447.787223) can0 2C2#0000000000000000
(1599991447.787457) can0 085#19000E42E1600000
(1599991447.787701) can0 191#000081200000025F
(1599991447.790820) can0 0E0#004C00E001020000
(1599991447.791036) can0 281#00000001000000DF
(1599991447.793227) can0 1F2#9E9FA0A14E535052
(1599991447.793659) can0 113#0E420000AA090881
(1599991447.793899) can0 286#0140014000000000
(1599991447.794466) can0 150#7E0004036D036737
(1599991447.796953) can0 084#0100007A408C81E7
(1599991447.797167) can0 085#19000E4EFE600010
(1599991447.800995) can0 0E0#004B00E011610000
(1599991447.801468) can0 122#0000000000000234
(1599991447.801707) can0 123#0000000000000234
(1599991447.801939) can0 124#2E933029A2F02038
(1599991447.802186) can0 125#00000108000002A2
(1599991447.803474) can0 1F0#04180000FFFF0A3E
(1599991447.803962) can0 284#004140530C680200
(1599991447.807038) can0 084#0100007A408C8296
(1599991447.807237) can0 085#19000E4E23600020
(1599991447.807479) can0 191#0000812000000370
(1599991447.810810) can0 0E0#004B00E0216E0000
(1599991447.813741) can0 287#0059000000000120
(1599991447.814513) can0 150#7E000403AD036891
(1599991447.814932) can0 113#0E4E0000AA09092F
(1599991447.816954) can0 084#0100007A408C83B9
(1599991447.817169) can0 085#19000E4E8D600030
(1599991447.817423) can0 390#0800000000000000
(1599991447.820989) can0 0E0#004B00E0318E0000
(1599991447.821469) can0 122#000000000000031B
(1599991447.821714) can0 123#000000000000031B
(1599991447.821941) can0 124#2E933029A2F03096
(1599991447.822184) can0 125#000001080000038D
(1599991447.823398) can0 370#0F00000000000000
(1599991447.825600) can0 2AB#0190430000030100
(1599991447.825843) can0 2B1#2100000000000000
(1599991447.826997) can0 084#0100007A408C8474
(1599991447.827209) can0 085#19000E4EB6600040
(1599991447.827449) can0 191#00008120000004BD
(1599991447.829728) can0 26D#40540A0412000000
(1599991447.830791) can0 0E0#004C00E041F30000
(1599991447.832876) can0 2A0#0000000000000000
(1599991447.833131) can0 2A1#0000007F7F7F7F7F
(1599991447.833380) can0 2A3#E707E71800000300
(1599991447.833612) can0 113#0E4E0000AA090A5E
(1599991447.833862) can0 2A4#0080000000000000
(1599991447.834129) can0 2A5#000F071F00000000
(1599991447.834396) can0 2A7#0000000000001400
(1599991447.834646) can0 150#7E000403AD0369BE
(1599991447.834931) can0 2A8#0040000000000057
(1599991447.835161) can0 2AA#0000000000000000
(1599991447.835426) can0 2AE#0100000000000000
(1599991447.835672) can0 218#5F00000000000EE3
(1599991447.835923) can0 3E1#000000000000006A
(1599991447.836195) can0 3E2#000000000000006A
(1599991447.836962) can0 084#0100007A408C855B
(1599991447.837182) can0 085#19000E4C5D600050
(1599991447.839773) can0 260#0000000000001D00
(1599991447.840999) can0 0E0#004B00E051900000
(1599991447.841471) can0 122#00000000000004D6
(1599991447.841712) can0 123#00000000000004D6
(1599991447.841947) can0 124#2E933029A2F040AD
(1599991447.842192) can0 125#0000010800000440
(1599991447.842772) can0 2FB#000007DF465D07F0
(1599991447.843002) can0 2FC#0A00080000004019
(1599991447.843247) can0 2FD#0000000000001000
(1599991447.843478) can0 1F2#9E9FA0A14E535052
(1599991447.847023) can0 084#0100007A408C862A
(1599991447.847221) can0 085#1A000E4CB3600060
(1599991447.847459) can0 191#0000812000000592
(1599991447.847703) can0 288#A500004D00000059
(1599991447.847931) can0 28A#C300020098570FB0
(1599991447.850806) can0 0E0#004B00E0619F0000
(1599991447.853290) can0 1F0#04180000FFFF0B11
(1599991447.853651) can0 113#0E4C0000AA090BD9
(1599991447.854499) can0 150#7E0004036D036AF3
(1599991447.855612) can0 415#1500050110000000
(1599991447.856937) can0 084#0100007A408C97AB
(1599991447.857163) can0 085#1A000E4C1D600070
(1599991447.861002) can0 0E0#004B00E0717F0000
(1599991447.861486) can0 122#00000000000005F9
(1599991447.861722) can0 123#00000000000005F9
(1599991447.861955) can0 124#2E933029A2F05003
(1599991447.862200) can0 125#000001080000056F
(1599991447.865016) can0 2F1#2188FFFFFFFF7800
(1599991447.865244) can0 2F2#110210090A000000
(1599991447.866178) can0 380#1750CC0000000000
(1599991447.866985) can0 084#0100007A408C9831
(1599991447.867206) can0 085#1A000E4CC5600080
(1599991447.867442) can0 191#00008120000006E3
(1599991447.870801) can0 0E0#004B00E0814C0000
(1599991447.874565) can0 150#7E000403AD036BE0
(1599991447.874961) can0 113#0E4C0000AA090C14
(1599991447.876941) can0 084#0100007A408C991E
(1599991447.877162) can0 085#1A000E4C6B600090
(1599991447.879727) can0 3F1#015F6F0001219E00
(1599991447.881003) can0 0E0#004B00E091AC0000
(1599991447.881510) can0 122#0000000000000688
(1599991447.881714) can0 123#0000000000000688
(1599991447.881946) can0 124#2E933029A2F060DE
(1599991447.882184) can0 125#000001080000061E
(1599991447.883614) can0 285#0140C92000000100
(1599991447.887014) can0 084#0100007A408C9A6F
(1599991447.887213) can0 085#1A000E54FB6000A0
(1599991447.887454) can0 191#00008120000007CC
(1599991447.888109) can0 2C2#0000000000000000
(1599991447.890794) can0 0E0#004B00E0A1A30000
(1599991447.891023) can0 281#00000001000001F0
(1599991447.893206) can0 1F2#9E9FA0A14E535052
(1599991447.893663) can0 113#0E4C0000AA090D3B
(1599991447.893900) can0 286#0140014000000000
(1599991447.894502) can0 150#7E000403AD036C2D
(1599991447.896980) can0 084#0100007A408C9B40
(1599991447.897215) can0 085#1A000E54556000B0
(1599991447.899706) can0 3F0#0439340702170007
(1599991447.900995) can0 0E0#004B00E0B1430000
(1599991447.901478) can0 122#00000000000007A7
(1599991447.901720) can0 123#00000000000007A7
(1599991447.901954) can0 124#2E933029A2F07070
(1599991447.902197) can0 125#0000010800000731
(1599991447.903437) can0 1F0#04180000FFFF0CDC
(1599991447.903909) can0 284#004140530C680200
(1599991447.906992) can0 084#0100007A408C9C8D
(1599991447.907196) can0 085#1A000E546E6000C0
(1599991447.907435) can0 191#0000812000000856
(1599991447.909122) can0 41C#1C00020102000000
(1599991447.910808) can0 0E0#004B00E0C1BD0000
(1599991447.913715) can0 287#0059000000000120
(1599991447.914499) can0 150#7E0004036D036D3E
(1599991447.914911) can0 113#0E540000AA090E67
(1599991447.916946) can0 084#0100007A408C9DA2
(1599991447.917163) can0 085#1A000E54C06000D0
(1599991447.919706) can0 3F7#FFF0FFF8FFF807C6
(1599991447.921005) can0 0E0#004C00E0D1DE0000
(1599991447.921490) can0 122#000000000000083D
(1599991447.921734) can0 123#000000000000083D
(1599991447.921966) can0 124#2E933029A2F080A8
(1599991447.922206) can0 125#00000108000008AB
(1599991447.925619) can0 2B1#2100000000000000
(1599991447.926989) can0 084#0100007A408C9ED3
(1599991447.927203) can0 085#1A000E64876000E0
(1599991447.927446) can0 191#0000812000000979
(1599991447.929782) can0 26D#40540A0412000000
(1599991447.930781) can0 0E0#004B00E0E1520000
(1599991447.932880) can0 2A0#0000000000000000
(1599991447.933126) can0 2A1#0000007F7F7F7F7F
(1599991447.933388) can0 2A3#E707E71800000300
(1599991447.933617) can0 113#0E540000AA090F48
(1599991447.933902) can0 2A4#0080000000000000
(1599991447.934135) can0 2A5#000F071F00000000
(1599991447.934400) can0 2A7#0000000000001400
(1599991447.934643) can0 150#7E000403AD036E73
(1599991447.934893) can0 2A8#00400000000010F9
(1599991447.935160) can0 2AA#0000000000000000
(1599991447.935430) can0 2AE#0100000000000000
(1599991447.935673) can0 218#5F00000000000FCC
(1599991447.936971) can0 084#0100007A408C9FFC
(1599991447.937200) can0 085#1A000E64296000F0
(1599991447.939762) can0 3F6#3D25FF0000000F99
(1599991447.939979) can0 260#0000000000001D00
(1599991447.941024) can0 0E0#004C00E0F1310000
(1599991447.941497) can0 122#0000000000000912
(1599991447.941738) can0 123#0000000000000912
(1599991447.941965) can0 124#2E933029A2F09006
(1599991447.942206) can0 125#0000010800000984
(1599991447.942760) can0 2FB#000007DF466207F2
(1599991447.943000) can0 2FC#0A00080000004019
(1599991447.943247) can0 2FD#0000000000001000
(1599991447.943478) can0 1F2#9E9FA0A14E535052
(1599991447.947032) can0 084#0100007A408C9066
(1599991447.947242) can0 085#1A000E64F1600000
(1599991447.947483) can0 191#0000812000000A08
(1599991447.947723) can0 288#A500004D00000059
(1599991447.947952) can0 28A#C2000200985700DE
(1599991447.950810) can0 0E0#004B00E001810000
(1599991447.953265) can0 1F0#04180000FFFF0DF3
(1599991447.953703) can0 113#0E640000AA090088
(1599991447.954503) can0 150#7E000403ED036FAD
(1599991447.956943) can0 084#0100007A408C9149
(1599991447.957172) can0 085#1A000E645F600010
(1599991447.961006) can0 0E0#004B00E011610000
(1599991447.961481) can0 122#0000000000000A63
(1599991447.961718) can0 123#0000000000000A63
(1599991447.961946) can0 124#2E933029A2F0A0DB
(1599991447.962183) can0 125#0000010800000AF5
(1599991447.965041) can0 2F1#2188FFFFFFFF7800
(1599991447.965282) can0 2F2#110210090A000000
(1599991447.966995) can0 084#0100007A408C9238
(1599991447.967210) can0 085#1A000E5E66600020
(1599991447.967452) can0 191#0000812000000B27
(1599991447.970802) can0 0E0#004B00E0216E0000
(1599991447.974512) can0 150#7E000403AD0360C6
(1599991447.974902) can0 113#0E640000AA0901A7
(1599991447.976955) can0 084#0100007A408C9317
(1599991447.977193) can0 085#1A000E5EC8600030
(1599991447.981014) can0 0E0#004B00E0318E0000
(1599991447.981485) can0 122#0000000000000B4C
(1599991447.981745) can0 123#0000000000000B4C
(1599991447.981951) can0 124#2E933029A2F0B075
(1599991447.982202) can0 125#0000010800000BDA
(1599991447.983585) can0 285#0140C92000000100
(1599991447.987045) can0 084#0100007A408C94DA
(1599991447.987212) can0 085#1A000E5EF3600040
(1599991447.987460) can0 191#0000812000000CEA
(1599991447.989134) can0 2C2#0000000000000000
(1599991447.990788) can0 0E0#004B00E041700000
(1599991447.991020) can0 281#0000000100000281
(1599991447.993164) can0 1F2#9E9FA0A14E535052
(1599991447.993653) can0 286#0140014000000000
(1599991447.994490) can0 150#7E000403AD0361E9
(1599991447.995096) can0 113#0E5E0000AA0902DA
(1599991447.996956) can0 084#0100007A408C95F5
(1599991447.997169) can0 085#1A000E5E5D600050
(1599991448.001011) can0 0E0#004B00E051900000
(1599991448.001488) can0 122#0000000000000C81
(1599991448.001731) can0 123#0000000000000C81
(1599991448.001968) can0 124#2E933029A2F0C04E
(1599991448.002208) can0 125#0000010800000C17
(1599991448.003401) can0 1F0#04180000FFFF0E82
(1599991448.003878) can0 284#004140530C680200
(1599991448.006990) can0 084#0100007A408C9684
(1599991448.007216) can0 085#1A000E5E80600060
(1599991448.007456) can0 191#0000812000000DC5
(1599991448.010799) can0 0E0#004C00E0611C0000
(1599991448.012872) can0 407#0710050110000000
(1599991448.013659) can0 287#0059000000000120
(1599991448.014492) can0 150#7E000403AD036298
(1599991448.015112) can0 113#0E5E0000AA0903F5
(1599991448.016937) can0 084#0100007A408C97AB
(1599991448.017164) can0 085#1A000E64CA600070
(1599991448.021010) can0 0E0#004B00E0717F0000
(1599991448.021495) can0 122#0000000000000DAE
(1599991448.021738) can0 123#0000000000000DAE
(1599991448.021966) can0 124#2E933029A2F0D0E0
(1599991448.022207) can0 125#0000010800000D38
(1599991448.025614) can0 2AB#0190430000030100
(1599991448.025855) can0 2B1#2100000000000000
(1599991448.026986) can0 084#0100007A408C9831
(1599991448.027215) can0 085#1A000E6412600080
(1599991448.027455) can0 191#0000812000000EB4
(1599991448.029815) can0 26D#40540A0412000000
(1599991448.030774) can0 0E0#004B00E0814C0000
(1599991448.032877) can0 2A0#0000000000000000
(1599991448.033136) can0 2A1#0000007F7F7F7F7F
(1599991448.033393) can0 2A3#E707E71800000300
(1599991448.033665) can0 2A4#0080000000000000
(1599991448.033935) can0 2A5#000F071F00000000
(1599991448.034202) can0 2A7#0000000000001400
(1599991448.034469) can0 2A8#0040000000002024
(1599991448.034706) can0 150#7E000403AD0363B7
(1599991448.034953) can0 2AA#0000000000000000
(1599991448.035187) can0 113#0E640000AA090434
(1599991448.035436) can0 2AE#0100000000000000
(1599991448.035685) can0 218#5F00000000000056
(1599991448.035934) can0 3E1#0000000000000145
(1599991448.036199) can0 3E2#0000000000000145
(1599991448.036953) can0 084#0100007A408C991E
(1599991448.037184) can0 085#1A000E64BC600090
(1599991448.039736) can0 260#0000000000001D00
(1599991448.041010) can0 0E0#004B00E091AC0000
(1599991448.041498) can0 122#0000000000000EDF
(1599991448.041739) can0 123#0000000000000EDF
(1599991448.041968) can0 124#2E933029A2F0E03D
(1599991448.042208) can0 125#0000010800000E49
(1599991448.042744) can0 2FB#000007DD465F07F4
(1599991448.042985) can0 2FC#0A00080000004019
(1599991448.043233) can0 2FD#0000000000001000
(1599991448.043465) can0 1F2#9E9FA0A14E535052
(1599991448.047022) can0 084#0100007A408C9A6F
(1599991448.047252) can0 085#1A000E64616000A0
(1599991448.047481) can0 191#0000812000000F9B
(1599991448.047722) can0 288#A500004D00000059
(1599991448.047954) can0 28A#C400020098570197
(1599991448.050785) can0 0E0#004B00E0A1A30000
(1599991448.053227) can0 1F0#04180000FFFF0FAD
(1599991448.053684) can0 113#0E640000AA09051B
(1599991448.054506) can0 150#7E000403AD03647A
(1599991448.056943) can0 084#0100007A408C9B40
(1599991448.057173) can0 085#1A000E668A6000B0
(1599991448.061014) can0 0E0#004C00E0B1C00000
(1599991448.061509) can0 122#0000000000000FF0
(1599991448.061752) can0 123#0000000000000FF0
(1599991448.061981) can0 124#2E933029A2F0F093
(1599991448.062221) can0 125#0000010800000F66
(1599991448.065047) can0 2F1#2188FFFFFFFF7800
(1599991448.065276) can0 2F2#110210090A000000
(1599991448.066246) can0 380#1760960000000000
(1599991448.067010) can0 084#0100007A408C9C8D
(1599991448.067239) can0 085#1A000E66B16000C0
(1599991448.067480) can0 191#0000812000000001
(1599991448.070789) can0 0E0#004B00E0C1BD0000
(1599991448.073712) can0 113#0E660000AA0906C2
(1599991448.074522) can0 150#7E000403AD036555
(1599991448.076948) can0 084#0100007A408C9DA2
(1599991448.077178) can0 085#1A000E661F6000D0
(1599991448.081007) can0 0E0#004B00E0D15D0000
(1599991448.081496) can0 122#000000000000006A
(1599991448.081741) can0 123#000000000000006A
(1599991448.081973) can0 124#2E933029A2F0004B
(1599991448.082222) can0 125#00000108000000FC
(1599991448.083572) can0 285#0140C92000000100
(1599991448.086998) can0 084#0100007A408C9ED3
(1599991448.087230) can0 085#1B000E66366000E0
(1599991448.087460) can0 191#000081200000012E
(1599991448.090133) can0 2C2#0000000000000000
(1599991448.090771) can0 0E0#004C00E0E1D10000
(1599991448.091011) can0 281#00000001000003AE
(1599991448.093135) can0 1F2#9E9FA0A14E535052
(1599991448.093631) can0 286#0140014000000000
(1599991448.094501) can0 150#7E000403AD036624
(1599991448.095087) can0 113#0E660000AA0907ED
(1599991448.097259) can0 084#0100007A408C9FFC
(1599991448.097481) can0 085#1B000E62126000F0
(1599991448.101032) can0 0E0#004C00E0F1310000
(1599991448.101506) can0 122#0000000000000145
(1599991448.101744) can0 123#0000000000000145
(1599991448.101975) can0 124#2E933029A2F010E5
(1599991448.102220) can0 125#00000108000001D3
(1599991448.103423) can0 1F0#04180000FFFF0037
(1599991448.103886) can0 284#004140530C680200
(1599991448.107016) can0 084#0100007A408C9066
(1599991448.107219) can0 085#1B000E62CA600000
(1599991448.107462) can0 191#000081200000025F
(1599991448.110810) can0 0E0#004B00E001810000
(1599991448.112610) can0 40E#0E100601E0030000
(1599991448.113700) can0 287#0059000000000120
(1599991448.114523) can0 150#7E0004036D036737
(1599991448.115154) can0 113#0E620000AA090808
(1599991448.116970) can0 084#0100007A408C9149
(1599991448.117195) can0 085#1B000E6264600010
(1599991448.121018) can0 0E0#004B00E011610000
(1599991448.121497) can0 122#0000000000000234
(1599991448.121735) can0 123#0000000000000234
(1599991448.121966) can0 124#2E933029A2F02038
(1599991448.122214) can0 125#00000108000002A2
(1599991448.125633) can0 2B1#2100000000000000
(1599991448.126993) can0 084#0100007A408C9238
(1599991448.127212) can0 085#1B000E62B9600020
(1599991448.127453) can0 191#0000812000000370
(1599991448.129823) can0 26D#40540A0412000000
(1599991448.130778) can0 0E0#004B00E0216E0000
(1599991448.132891) can0 2A0#0000000000000000
(1599991448.133143) can0 2A1#0000007F7F7F7F7F
(1599991448.133402) can0 2A3#E707E71800000300
(1599991448.133670) can0 2A4#0080000000000000
(1599991448.133940) can0 2A5#000F071F00000000
(1599991448.134206) can0 2A7#0000000000001400
(1599991448.134475) can0 2A8#004000000000308A
(1599991448.134708) can0 150#7E000403AD036891
(1599991448.134954) can0 2AA#0000000000000000
(1599991448.135189) can0 113#0E620000AA090927
(1599991448.135441) can0 2AE#0100000000000000
(1599991448.135684) can0 218#5F00000000000179
(1599991448.136955) can0 084#0100007A408C9317
(1599991448.137183) can0 085#1B000E6217600030
(1599991448.139785) can0 3F6#3D25FF0000000003
(1599991448.140001) can0 260#0000000000001D00
(1599991448.141043) can0 0E0#004B00E0318E0000
(1599991448.141525) can0 122#000000000000031B
(1599991448.141765) can0 123#000000000000031B
(1599991448.141998) can0 124#2E933029A2F03096
(1599991448.142238) can0 125#000001080000038D
(1599991448.142750) can0 2FB#000007DD466207EF
(1599991448.142984) can0 2FC#0A00080000004019
(1599991448.143232) can0 2FD#0000000000001000
(1599991448.143462) can0 1F2#9E9FA0A14E535052
(1599991448.147039) can0 084#0100007A408C94DA
(1599991448.147242) can0 085#1B000E52B6600040
(1599991448.147482) can0 191#00008120000004BD
(1599991448.147722) can0 288#A500004D00000059
(1599991448.147957) can0 28A#C300020098570274
(1599991448.150801) can0 0E0#004B00E041700000
(1599991448.153206) can0 1F0#04180000FFFF0118
(1599991448.154534) can0 150#7E000403AD0369BE
(1599991448.155110) can0 113#0E620000AA090A56
(1599991448.156987) can0 084#0100007A408C855B
(1599991448.157220) can0 085#1B000E5218600050
(1599991448.161022) can0 0E0#004B00E051900000
(1599991448.161500) can0 122#00000000000004D6
(1599991448.161741) can0 123#00000000000004D6
(1599991448.161973) can0 124#2E933029A2F040AD
(1599991448.162219) can0 125#0000010800000440
(1599991448.165064) can0 2F1#2188FFFFFFFF7800
(1599991448.165310) can0 2F2#110210090A000000
(1599991448.167002) can0 084#0100007A408C9684
(1599991448.167214) can0 085#1B000E52C5600060
(1599991448.167453) can0 191#0000812000000592
(1599991448.170789) can0 0E0#004B00E0619F0000
(1599991448.173703) can0 113#0E520000AA090B23
(1599991448.174532) can0 150#7E000403AD036ACF
(1599991448.176982) can0 084#0100007A408C97AB
(1599991448.177235) can0 085#1B000E526B600070
(1599991448.180780) can0 0E0#004B00E0717F0000
(1599991448.181514) can0 122#00000000000005F9
(1599991448.181750) can0 123#00000000000005F9
(1599991448.181985) can0 124#2E933029A2F05003
(1599991448.182226) can0 125#000001080000056F
(1599991448.183561) can0 285#0140C92000000100
(1599991448.187024) can0 084#0100007A408C9831
(1599991448.187235) can0 085#1B000E5639600080
(1599991448.187475) can0 191#00008120000006E3
(1599991448.190786) can0 0E0#004B00E0814C0000
(1599991448.191009) can0 281#0000000100000463
(1599991448.191261) can0 2C2#0000000000000000
(1599991448.193124) can0 1F2#9E9FA0A14E535052
(1599991448.193614) can0 286#0140014000000000
(1599991448.194546) can0 150#7E000403AD036BE0
(1599991448.195052) can0 113#0E520000AA090CEE
(1599991448.196998) can0 084#0100007A408C991E
(1599991448.197216) can0 085#1B000E5697600090
(1599991448.200788) can0 0E0#004B00E091AC0000
(1599991448.201512) can0 122#0000000000000688
(1599991448.201739) can0 123#0000000000000688
(1599991448.201974) can0 124#2E933029A2F060DE
(1599991448.202212) can0 125#000001080000061E
(1599991448.203397) can0 1F0#04180000FFFF0269
(1599991448.203866) can0 284#004140530C680200
(1599991448.207033) can0 084#0100007A408C9A6F
(1599991448.207225) can0 085#1B000E564A6000A0
(1599991448.207474) can0 191#00008120000007CC
(1599991448.210788) can0 0E0#004B00E0A1A30000
(1599991448.213616) can0 287#0059000000000120
(1599991448.214529) can0 150#7E000403AD036C2D
(1599991448.215058) can0 113#0E560000AA090DBE
(1599991448.217203) can0 084#0100007A408C9B40
(1599991448.217427) can0 085#1B000E56E46000B0
(1599991448.220771) can0 0E0#004B00E0B1430000
(1599991448.221504) can0 122#00000000000007A7
(1599991448.221742) can0 123#00000000000007A7
(1599991448.221978) can0 124#2E933029A2F07070
(1599991448.222218) can0 125#0000010800000731
(1599991448.225617) can0 2AB#0190430000030100
(1599991448.225869) can0 2B1#2100000000000000
(1599991448.226985) can0 084#0100007A408C9C8D
(1599991448.227214) can0 085#1B000E56DF6000C0
(1599991448.227454) can0 191#0000812000000856
(1599991448.229794) can0 26D#40540A0412000000
(1599991448.230778) can0 0E0#004B00E0C1BD0000
(1599991448.232883) can0 2A0#0000000000000000
(1599991448.233142) can0 2A1#0000007F7F7F7F7F
(1599991448.233401) can0 2A3#E707E71800000300
(1599991448.233700) can0 2A4#0080000000000000
(1599991448.233939) can0 2A5#000F071F00000000
(1599991448.234205) can0 2A7#0000000000001400
(1599991448.234471) can0 2A8#00400000000040B1
(1599991448.234708) can0 150#7E0004036D036D3E
(1599991448.234957) can0 2AA#0000000000000000
(1599991448.235191) can0 113#0E560000AA090ECF
(1599991448.235440) can0 2AE#0100000000000000
(1599991448.235687) can0 218#5F00000000000208
(1599991448.235933) can0 3E1#0000000000000234
(1599991448.236204) can0 3E2#0000000000000234
(1599991448.236962) can0 084#0100007A408C9DA2
(1599991448.237188) can0 085#1B000E4AB66000D0
(1599991448.239738) can0 260#0000000000001D00
(1599991448.240774) can0 0E0#004B00E0D15D0000
(1599991448.241511) can0 122#000000000000083D
(1599991448.241751) can0 123#000000000000083D
(1599991448.241981) can0 124#2E933029A2F080A8
(1599991448.242222) can0 125#00000108000008AB
(1599991448.242722) can0 2FB#000007E0466607EF
(1599991448.242965) can0 2FC#0A00080000004019
(1599991448.243213) can0 2FD#0000000000001000
(1599991448.243445) can0 1F2#9E9FA0A14E535052
(1599991448.247031) can0 084#0100007A408C8E7D
(1599991448.247250) can0 085#1B000E4A6B6000E0
(1599991448.247489) can0 191#0000812000000979
(1599991448.247728) can0 288#A500004D00000059
(1599991448.247961) can0 28A#C2000200985703AF
(1599991448.250795) can0 0E0#004B00E0E1520000
(1599991448.253175) can0 1F0#04180000FFFF0346
(1599991448.254552) can0 150#7E000403AD036E73
(1599991448.255096) can0 113#0E4A0000AA090FB2
(1599991448.257023) can0 084#0100007A408C8F52
(1599991448.257236) can0 085#1B000E4AC56000F0
(1599991448.260785) can0 0E0#004B00E0F1B20000
(1599991448.261508) can0 122#0000000000000912
(1599991448.261737) can0 123#0000000000000912
(1599991448.261966) can0 124#2E933029A2F09006
(1599991448.262211) can0 125#0000010800000984
(1599991448.265092) can0 2F1#2188FFFFFFFF7800
(1599991448.265304) can0 2F2#110210090A000000
(1599991448.266295) can0 380#1770450000000000
(1599991448.267058) can0 084#0100007A408C80C8
(1599991448.267289) can0 085#1B000E4A1D600000
(1599991448.267531) can0 191#0000812000000A08
(1599991448.270798) can0 0E0#004B00E001810000
(1599991448.273772) can0 113#0E4A0000AA090028
(1599991448.274549) can0 150#7E000403AD036F5C
(1599991448.277027) can0 084#0100007A408C81E7
(1599991448.277244) can0 085#1B000E4602600010
(1599991448.279773) can0 402#0210020102000000
(1599991448.280773) can0 0E0#004B00E011610000
(1599991448.281549) can0 122#0000000000000A63
(1599991448.281732) can0 123#0000000000000A63
(1599991448.281965) can0 124#2E933029A2F0A0DB
(1599991448.282206) can0 125#0000010800000AF5
(1599991448.283557) can0 285#0140C92000000100
(1599991448.287027) can0 084#0100007A408C8296
(1599991448.287231) can0 085#1B000E46DF600020
(1599991448.287470) can0 191#0000812000000B27
(1599991448.290793) can0 0E0#004B00E0216E0000
(1599991448.291018) can0 281#000000010000054C
(1599991448.292165) can0 2C2#0000000000000000
(1599991448.293091) can0 1F2#9E9FA0A14E535052
(1599991448.293583) can0 286#0140014000000000
(1599991448.294561) can0 150#7E000403AD0360C6
(1599991448.295031) can0 113#0E460000AA090186
(1599991448.297034) can0 084#0100007A408C83B9
(1599991448.297245) can0 085#1B000E4671600030
(1599991448.300778) can0 0E0#004B00E0318E0000
(1599991448.301502) can0 122#0000000000000B4C
(1599991448.301737) can0 123#0000000000000B4C
(1599991448.301966) can0 124#2E933029A2F0B075
(1599991448.302211) can0 125#0000010800000BDA
(1599991448.303359) can0 1F0#04180000FFFF048B
(1599991448.303835) can0 284#004140530C680200
(1599991448.307006) can0 084#0100007A408C8474
(1599991448.307218) can0 085#1B000E464A600040
(1599991448.307458) can0 191#0000812000000CEA
(1599991448.310796) can0 0E0#004B00E041700000
(1599991448.313586) can0 287#0059000000000120
(1599991448.314546) can0 150#7E000403AD0361E9
(1599991448.315024) can0 113#0E460000AA0902F7
(1599991448.317032) can0 084#0100007A408C855B
(1599991448.317258) can0 085#1C000E5445600050
(1599991448.317504) can0 390#0800000000000000
(1599991448.320783) can0 0E0#004B00E051900000
(1599991448.321514) can0 122#0000000000000C81
(1599991448.321746) can0 123#0000000000000C81
(1599991448.321977) can0 124#2E933029A2F0C04E
(1599991448.322220) can0 125#0000010800000C17
(1599991448.323331) can0 370#0F00000000000000
(1599991448.325657) can0 2B1#2100000000000000
(1599991448.326991) can0 084#0100007A408C862A
(1599991448.327212) can0 085#1C000E5498600060
(1599991448.327453) can0 191#0000812000000DC5
(1599991448.329733) can0 26D#40540A0412000000
(1599991448.330769) can0 0E0#004B00E0619F0000
(1599991448.332898) can0 2A0#0000000000000000
(1599991448.333186) can0 2A1#0000007F7F7F7F7F
(1599991448.333411) can0 2A3#E707E71800000300
(1599991448.333678) can0 2A4#0080000000000000
(1599991448.333946) can0 2A5#000F071F00000000
(1599991448.334212) can0 2A7#0000000000001400
(1599991448.334482) can0 2A8#004000000000501F
(1599991448.334720) can0 150#7E000403ED036269
(1599991448.334968) can0 2AA#0000000000000000
(1599991448.335201) can0 113#0E540000AA0903A3
(1599991448.335450) can0 2AE#0100000000000000
(1599991448.335694) can0 218#5F00000000000327
(1599991448.336974) can0 084#0100007A408C8705
(1599991448.337203) can0 085#1C000E5436600070
(1599991448.339800) can0 3F6#3D25FF000000012C
(1599991448.340006) can0 260#0000000000001D00
(1599991448.340798) can0 0E0#004B00E0717F0000
(1599991448.341531) can0 122#0000000000000DAE
(1599991448.341772) can0 123#0000000000000DAE
(1599991448.342001) can0 124#2E933029A2F0D0E0
(1599991448.342243) can0 125#0000010800000D38
(1599991448.342754) can0 2FB#000007E0466207F5
(1599991448.342991) can0 2FC#0A00080000004019
(1599991448.343240) can0 2FD#0000000000001000
(1599991448.343472) can0 1F2#9E9FA0A14E535052
(1599991448.347048) can0 084#0100007A408C889F
(1599991448.347252) can0 085#1C000E54EE600080
(1599991448.347497) can0 191#0000812000000EB4
(1599991448.347739) can0 288#A500004D00000059
(1599991448.347969) can0 28A#C100020098570451
(1599991448.350770) can0 0E0#004B00E0814C0000
(1599991448.353150) can0 1F0#04180000FFFF05A4
(1599991448.354566) can0 150#7E000403AD0363B7
(1599991448.355068) can0 113#0E540000AA09046E
(1599991448.355635) can0 415#1500050110000000
(1599991448.357034) can0 084#0100007A408C991E
(1599991448.357259) can0 085#1C000E5440600090
(1599991448.360774) can0 0E0#004B00E091AC0000
(1599991448.361511) can0 122#0000000000000EDF
(1599991448.361748) can0 123#0000000000000EDF
(1599991448.361976) can0 124#2E933029A2F0E03D
(1599991448.362215) can0 125#0000010800000E49
(1599991448.365092) can0 2F1#2188FFFFFFFF7800
(1599991448.365323) can0 2F2#110210090A000000
(1599991448.366993) can0 084#0100007A408C9A6F
(1599991448.367218) can0 085#1C000E52526000A0
(1599991448.367461) can0 191#0000812000000F9B
(1599991448.370770) can0 0E0#004B00E0A1A30000
(1599991448.373747) can0 113#0E540000AA090541
(1599991448.374562) can0 150#7E000403AD03647A
(1599991448.377058) can0 084#0100007A408C9B40
(1599991448.377268) can0 085#1C000E52FC6000B0
(1599991448.380775) can0 0E0#004B00E0B1430000
(1599991448.381559) can0 122#0000000000000FF0
(1599991448.381754) can0 123#0000000000000FF0
(1599991448.381983) can0 124#2E933029A2F0F093
(1599991448.382224) can0 125#0000010800000F66
(1599991448.383532) can0 285#0140C92000000100
(1599991448.387015) can0 084#0100007A408C8C23
(1599991448.387224) can0 085#1C000E52C76000C0
(1599991448.387465) can0 191#0000812000000001
(1599991448.390797) can0 0E0#004C00E0C13E0000
(1599991448.391019) can0 281#000000010000063D
(1599991448.393047) can0 1F2#9E9FA0A14E535052
(1599991448.393293) can0 2C2#0000000000000000
(1599991448.393540) can0 286#0140014000000000
(1599991448.394564) can0 150#7E0004036D036569
(1599991448.395001) can0 113#0E520000AA0906E7
(1599991448.397054) can0 084#0100007A408C8D0C
(1599991448.397265) can0 085#1C000E52696000D0
(1599991448.399737) can0 3F0#0439340702170007
(1599991448.400769) can0 0E0#004B00E0D15D0000
(1599991448.401517) can0 122#000000000000006A
(1599991448.401749) can0 123#000000000000006A
(1599991448.401981) can0 124#2E933029A2F0004B
(1599991448.402229) can0 125#00000108000000FC
(1599991448.403343) can0 1F0#04180000FFFF06D5
(1599991448.403814) can0 284#004140530C680200
(1599991448.407010) can0 084#0100007A408C8E7D
(1599991448.407223) can0 085#1C000E547B6000E0
(1599991448.407460) can0 191#000081200000012E
(1599991448.410169) can0 41C#1C00020102000000
(1599991448.410761) can0 0E0#004B00E0E1520000
(1599991448.413554) can0 287#0059000000000120
(1599991448.414577) can0 150#7E000403AD036624
(1599991448.415008) can0 113#0E520000AA0907C8
(1599991448.417051) can0 084#0100007A408C8F52
(1599991448.417275) can0 085#1C000E54D56000F0
(1599991448.420783) can0 0E0#004B00E0F1B20000
(1599991448.421510) can0 122#0000000000000145
(1599991448.421746) can0 123#0000000000000145
(1599991448.421977) can0 124#2E933029A2F010E5
(1599991448.422219) can0 125#00000108000001D3
(1599991448.425648) can0 2AB#0190430000030100
(1599991448.425886) can0 2B1#2100000000000000
(1599991448.427001) can0 084#0100007A408C80C8
(1599991448.427232) can0 085#1C000E540D600000
(1599991448.427472) can0 191#000081200000025F
(1599991448.429793) can0 26D#40540A0412000000
(1599991448.430778) can0 0E0#004B00E001810000
(1599991448.432919) can0 2A0#0000000000000000
(1599991448.433169) can0 2A1#0000007F7F7F7F7F
(1599991448.433426) can0 2A3#E707E71800000300
(1599991448.433701) can0 2A4#0080000000000000
(1599991448.434002) can0 2A5#000F071F00000000
(1599991448.434228) can0 2A7#0000000000001400
(1599991448.434495) can0 2A8#00400000000060C2
(1599991448.434733) can0 150#7E000403AD03670B
(1599991448.434971) can0 113#0E540000AA090885
(1599991448.435216) can0 2AA#0000000000000000
(1599991448.435459) can0 218#5F000000000004EA
(1599991448.435709) can0 2AE#0100000000000000
(1599991448.435979) can0 3E1#000000000000031B
(1599991448.436331) can0 3E2#000000000000031B
(1599991448.436966) can0 084#0100007A408C81E7
(1599991448.437194) can0 085#1C000E54A3600010
(1599991448.439774) can0 260#0000000000001D00
(1599991448.440765) can0 0E0#004B00E011610000
(1599991448.441501) can0 122#0000000000000234
(1599991448.441733) can0 123#0000000000000234
(1599991448.441969) can0 124#2E933029A2F02038
(1599991448.442215) can0 125#00000108000002A2
(1599991448.442750) can0 2FB#000007DD465F07F3
(1599991448.442982) can0 2FC#0A00080000004019
(1599991448.443236) can0 2FD#0000000000001000
(1599991448.443464) can0 1F2#9E9FA0A14E535052
(1599991448.447058) can0 084#0100007A408C8296
(1599991448.447266) can0 085#1C000E5E00600020
(1599991448.447509) can0 191#0000812000000370
(1599991448.447751) can0 288#A500004D00000059
(1599991448.447977) can0 28A#C20002009857054D
(1599991448.450791) can0 0E0#004B00E0216E0000
(1599991448.453123) can0 1F0#04180000FFFF07FA
(1599991448.454620) can0 150#7E000403AD036891
(1599991448.455028) can0 113#0E540000AA0909AA
(1599991448.457086) can0 084#0100007A408C83B9
(1599991448.457320) can0 085#1C000E5EAE600030
(1599991448.460766) can0 0E0#004B00E0318E0000
(1599991448.461497) can0 122#000000000000031B
(1599991448.461739) can0 123#000000000000031B
(1599991448.461967) can0 124#2E933029A2F03096
(1599991448.462211) can0 125#000001080000038D
(1599991448.465196) can0 2F1#2188FFFFFFFF7800
(1599991448.465438) can0 2F2#110210090A000000
(1599991448.466363) can0 380#1780580000000000
(1599991448.467114) can0 084#0100007A408C94DA
(1599991448.467336) can0 085#1C000E5E95600040
(1599991448.467581) can0 191#00008120000004BD
(1599991448.470802) can0 0E0#004B00E041700000
(1599991448.473766) can0 113#0E5E0000AA090A8D
(1599991448.474589) can0 150#7E000403AD0369BE
(1599991448.477084) can0 084#0100007A408C95F5
(1599991448.477297) can0 085#1C000E5E3B600050
(1599991448.480772) can0 0E0#004B00E051900000
(1599991448.481504) can0 122#00000000000004D6
(1599991448.481736) can0 123#00000000000004D6
(1599991448.482005) can0 124#2E933029A2F040AD
(1599991448.482212) can0 125#0000010800000440
(1599991448.483490) can0 285#0140C92000000100
(1599991448.487040) can0 084#0100007A408C9684
(1599991448.487242) can0 085#1C000E5EE6600060
(1599991448.487480) can0 191#0000812000000592
(1599991448.490787) can0 0E0#004B00E0619F0000
(1599991448.491010) can0 281#0000000100000712
(1599991448.493037) can0 1F2#9E9FA0A14E535052
(1599991448.493515) can0 286#0140014000000000
(1599991448.494167) can0 2C2#0000000000000000
(1599991448.494558) can0 150#7E0004036D036AF3
(1599991448.494967) can0 113#0E5E0000AA090BA2
(1599991448.497089) can0 084#0100007A408C97AB
(1599991448.497297) can0 085#1C000E5C0D600070
(1599991448.500777) can0 0E0#004B00E0717F0000
(1599991448.501509) can0 122#00000000000005F9
(1599991448.501743) can0 123#00000000000005F9
(1599991448.501980) can0 124#2E933029A2F05003
(1599991448.502219) can0 125#000001080000056F
(1599991448.503294) can0 1F0#04180000FFFF0860
(1599991448.503784) can0 284#004140530C680200
(1599991448.507132) can0 084#0100007A408C9831
(1599991448.507326) can0 085#1C000E5CD5600080
(1599991448.507566) can0 191#00008120000006E3
(1599991448.510792) can0 0E0#004B00E0814C0000
(1599991448.512894) can0 407#0710050110000000
(1599991448.513522) can0 287#0059000000000120
(1599991448.514577) can0 150#7E000403AD036BE0
(1599991448.514975) can0 113#0E5C0000AA090CC7
(1599991448.517078) can0 084#0100007A408C991E
(1599991448.517293) can0 085#1C000E5C7B600090
(1599991448.520779) can0 0E0#004B00E091AC0000
(1599991448.521501) can0 122#0000000000000688
(1599991448.521731) can0 123#0000000000000688
(1599991448.521964) can0 124#2E933029A2F060DE
(1599991448.522208) can0 125#000001080000061E
(1599991448.525664) can0 2B1#2100000000000000
(1599991448.527025) can0 084#0100007A408C9A6F
(1599991448.527235) can0 085#1C000E5CA66000A0
(1599991448.527480) can0 191#00008120000007CC
(1599991448.529813) can0 26D#40540A0412000000
(1599991448.530777) can0 0E0#004B00E0A1A30000
(1599991448.532922) can0 2A0#0000000000000000
(1599991448.533180) can0 2A1#0000007F7F7F7F7F
(1599991448.533423) can0 2A3#E707E71800000300
(1599991448.533693) can0 2A4#0080000000000000
(1599991448.533995) can0 2A5#000F071F00000000
(1599991448.534228) can0 2A7#0000000000001400
(1599991448.534496) can0 2A8#004000000000706C
(1599991448.534730) can0 150#7E000403AD036C2D
(1599991448.534966) can0 113#0E5C0000AA090DE8
(1599991448.535215) can0 2AA#0000000000000000
(1599991448.535461) can0 218#5F000000000005C5
(1599991448.535710) can0 2AE#0100000000000000
(1599991448.536978) can0 084#0100007A408C9B40
(1599991448.537202) can0 085#1C000E68186000B0
(1599991448.539788) can0 3F6#3D25FF000000025D
(1599991448.540011) can0 260#0000000000001D00
(1599991448.540791) can0 0E0#004B00E0B1430000
(1599991448.541534) can0 122#00000000000007A7
(1599991448.541773) can0 123#00000000000007A7
(1599991448.542006) can0 124#2E933029A2F07070
(1599991448.542249) can0 125#0000010800000731
(1599991448.542756) can0 2FB#000007DF465D07ED
(1599991448.542991) can0 2FC#0A00080000004019
(1599991448.543238) can0 2FD#0000000000001000
(1599991448.543473) can0 1F2#9E9FA0A14E535052
(1599991448.547094) can0 084#0100007A408C9C8D
(1599991448.547291) can0 085#1D000E68D76000C0
(1599991448.547528) can0 191#0000812000000856
(1599991448.547771) can0 288#A500004D00000059
(1599991448.547999) can0 28A#C3000200985706C8
(1599991448.550783) can0 0E0#004B00E0C1BD0000
(1599991448.553085) can0 1F0#04180000FFFF094F
(1599991448.554606) can0 150#7E0004036D036D3E
(1599991448.555016) can0 113#0E680000AA090EBC
(1599991448.557099) can0 084#0100007A408C9DA2
(1599991448.557311) can0 085#1D000E68796000D0
(1599991448.560776) can0 0E0#004B00E0D15D0000
(1599991448.561509) can0 122#000000000000083D
(1599991448.561746) can0 123#000000000000083D
(1599991448.561978) can0 124#2E933029A2F080A8
(1599991448.562219) can0 125#00000108000008AB
(1599991448.565145) can0 2F1#2188FFFFFFFF7800
(1599991448.565355) can0 2F2#110210090A000000
(1599991448.567028) can0 084#0100007A408C9ED3
(1599991448.567234) can0 085#1D000E68A46000E0
(1599991448.567472) can0 191#0000812000000979
(1599991448.570786) can0 0E0#004B00E0E1520000
(1599991448.573740) can0 113#0E680000AA090F93
(1599991448.574602) can0 150#7E0004036D036E4F
(1599991448.577113) can0 084#0100007A408C9FFC
(1599991448.577323) can0 085#1D000E70476000F0
(1599991448.580776) can0 0E0#004B00E0F1B20000
(1599991448.581503) can0 122#0000000000000912
(1599991448.581730) can0 123#0000000000000912
(1599991448.581962) can0 124#2E933029A2F09006
(1599991448.582203) can0 125#0000010800000984
(1599991448.583524) can0 285#0140C92000000100
(1599991448.587042) can0 084#0100007A408C9066
(1599991448.587246) can0 085#1D000E709F600000
(1599991448.587486) can0 191#0000812000000A08
(1599991448.590785) can0 0E0#004B00E001810000
(1599991448.591009) can0 281#0000000100000888
(1599991448.592996) can0 1F2#9E9FA0A14E535052
(1599991448.593488) can0 286#0140014000000000
(1599991448.594585) can0 150#7E000403AD036F5C
(1599991448.594946) can0 113#0E700000AA090024
(1599991448.595191) can0 2C2#0000000000000000
(1599991448.597116) can0 084#0100007A408C9149
(1599991448.597335) can0 085#1D000E7031600010
(1599991448.600767) can0 0E0#004B00E011610000
(1599991448.601491) can0 122#0000000000000A63
(1599991448.601725) can0 123#0000000000000A63
(1599991448.601957) can0 124#2E933029A2F0A0DB
(1599991448.602196) can0 125#0000010800000AF5
(1599991448.603276) can0 1F0#04180000FFFF0A3E
(1599991448.603760) can0 284#004140530C680200
(1599991448.607023) can0 084#0100007A408C9238
(1599991448.607240) can0 085#1D000E70EC600020
(1599991448.607478) can0 191#0000812000000B27
(1599991448.610762) can0 0E0#004C00E021ED0000
(1599991448.612585) can0 40E#0E100601E0030000
(1599991448.613674) can0 287#0059000000000120
(1599991448.614593) can0 150#7E000403AD0360C6
(1599991448.615133) can0 113#0E700000AA09010B
(1599991448.617131) can0 084#0100007A408C9317
(1599991448.617344) can0 085#1D000E7042600030
(1599991448.620776) can0 0E0#004C00E0310D0000
(1599991448.621499) can0 122#0000000000000B4C
(1599991448.621733) can0 123#0000000000000B4C
(1599991448.621961) can0 124#2E933029A2F0B075
(1599991448.622210) can0 125#0000010800000BDA
(1599991448.625654) can0 2AB#0190430000030100
(1599991448.625895) can0 2B1#2100000000000000
(1599991448.627011) can0 084#0100007A408C94DA
(1599991448.627250) can0 085#1D000E7842600040
(1599991448.627469) can0 191#0000812000000CEA
(1599991448.629793) can0 26D#40540A0412000000
(1599991448.630776) can0 0E0#004B00E041700000
(1599991448.632924) can0 2A0#0000000000000000
(1599991448.633170) can0 2A1#0000007F7F7F7F7F
(1599991448.633430) can0 2A3#E707E71800000300
(1599991448.633698) can0 2A4#0080000000000000
(1599991448.633969) can0 2A5#000F071F00000000
(1599991448.634239) can0 2A7#0000000000001400
(1599991448.634504) can0 2A8#00400000000080B4
(1599991448.634737) can0 150#7E0004036D0361D5
(1599991448.634974) can0 113#0E700000AA09027A
(1599991448.635253) can0 2AA#0000000000000000
(1599991448.635465) can0 218#5F000000000006B4
(1599991448.635711) can0 2AE#0100000000000000
(1599991448.635981) can0 3E1#00000000000004D6
(1599991448.636326) can0 3E2#00000000000004D6
(1599991448.637038) can0 084#0100007A408C95F5
(1599991448.637265) can0 085#1D000E78EC600050
(1599991448.639764) can0 260#0000000000001D00
(1599991448.640750) can0 0E0#004C00E051130000
(1599991448.641486) can0 122#0000000000000C81
(1599991448.641734) can0 123#0000000000000C81
(1599991448.641964) can0 124#2E933029A2F0C04E
(1599991448.642213) can0 125#0000010800000C17
(1599991448.642721) can0 2FB#000007E0465F07F3
(1599991448.642961) can0 2FC#0A00080000004019
(1599991448.643209) can0 2FD#0000000000001000
(1599991448.643437) can0 1F2#9E9FA0A14E535052
(1599991448.647057) can0 084#0100007A408C9684
(1599991448.647262) can0 085#1D000E7831600060
(1599991448.647502) can0 191#0000812000000DC5
(1599991448.647741) can0 288#A500004D00000059
(1599991448.647972) can0 28A#C3000200985707E7
(1599991448.650794) can0 0E0#004B00E0619F0000
(1599991448.653063) can0 1F0#04180000FFFF0B11
(1599991448.654608) can0 150#7E000403AD036298
(1599991448.654974) can0 113#0E780000AA0903AB
(1599991448.657126) can0 084#0100007A408C97AB
(1599991448.657341) can0 085#1D000E789F600070
(1599991448.660778) can0 0E0#004B00E0717F0000
(1599991448.661513) can0 122#0000000000000DAE
(1599991448.661744) can0 123#0000000000000DAE
(1599991448.661974) can0 124#2E933029A2F0D0E0
(1599991448.662214) can0 125#0000010800000D38
(1599991448.665154) can0 2F1#2188FFFFFFFF7800
(1599991448.665369) can0 2F2#110210090A000000
(1599991448.666421) can0 380#17908B0000000000
(1599991448.667176) can0 084#0100007A408C9831
(1599991448.667404) can0 085#1D000E6831600080
(1599991448.667645) can0 191#0000812000000EB4
(1599991448.670773) can0 0E0#004B00E0814C0000
(1599991448.673746) can0 113#0E780000AA090466
(1599991448.674613) can0 150#7E000403AD0363B7
(1599991448.677124) can0 084#0100007A408C991E
(1599991448.677345) can0 085#1D000E689F600090
(1599991448.680767) can0 0E0#004B00E091AC0000
(1599991448.681506) can0 122#0000000000000EDF
(1599991448.681740) can0 123#0000000000000EDF
(1599991448.681968) can0 124#2E933029A2F0E03D
(1599991448.682208) can0 125#0000010800000E49
(1599991448.683410) can0 285#0140C92000000100
(1599991448.687015) can0 084#0100007A408C9A6F
(1599991448.687266) can0 085#1D000E68426000A0
(1599991448.687478) can0 191#0000812000000F9B
(1599991448.690793) can0 0E0#004C00E0A1200000
(1599991448.691006) can0 281#00000001000009A7
(1599991448.692972) can0 1F2#9E9FA0A14E535052
(1599991448.693465) can0 286#0140014000000000
(1599991448.694610) can0 150#7E0004036D036446
(1599991448.694904) can0 113#0E680000AA09059A
(1599991448.696200) can0 2C2#0000000000000000
(1599991448.697136) can0 084#0100007A408C9B40
(1599991448.697355) can0 085#1D000E68EC6000B0
(1599991448.700762) can0 0E0#004B00E0B1430000
(1599991448.701504) can0 122#0000000000000FF0
(1599991448.701747) can0 123#0000000000000FF0
(1599991448.701975) can0 124#2E933029A2F0F093
(1599991448.702217) can0 125#0000010800000F66
(1599991448.703269) can0 1F0#04180000FFFF0CDC
(1599991448.703722) can0 284#004140530C680200
(1599991448.707038) can0 084#0100007A408C9C8D
(1599991448.707239) can0 085#1D000E7AE46000C0
(1599991448.707486) can0 191#0000812000000001
(1599991448.710791) can0 0E0#004B00E0C1BD0000
(1599991448.713486) can0 287#0059000000000120
(1599991448.714601) can0 150#7E000403AD036555
(1599991448.714926) can0 113#0E680000AA0906EB
(1599991448.717116) can0 084#0100007A408C9DA2
(1599991448.717354) can0 085#1D000E7A4A6000D0
(1599991448.720764) can0 0E0#004B00E0D15D0000
(1599991448.721504) can0 122#000000000000006A
(1599991448.721744) can0 123#000000000000006A
(1599991448.721975) can0 124#2E933029A2F0004B
(1599991448.722223) can0 125#00000108000000FC
(1599991448.725678) can0 2B1#2100000000000000
(1599991448.727025) can0 084#0100007A408C9ED3
(1599991448.727233) can0 085#1D000E7A976000E0
(1599991448.727474) can0 191#000081200000012E
(1599991448.729833) can0 26D#40540A0412000000
(1599991448.730771) can0 0E0#004B00E0E1520000
(1599991448.732940) can0 2A0#0000000000000000
(1599991448.733189) can0 2A1#0000007F7F7F7F7F
(1599991448.733465) can0 2A3#E707E71800000300
(1599991448.733691) can0 113#0E7A0000AA0907BF
(1599991448.733942) can0 2A4#0080000000000000
(1599991448.734213) can0 2A5#000F071F00000000
(1599991448.734486) can0 2A7#0000000000001400
(1599991448.734711) can0 150#7E000403AD036624
(1599991448.734955) can0 2A8#004000000000901A
(1599991448.735218) can0 2AA#0000000000000000
(1599991448.735466) can0 218#5F0000000000079B
(1599991448.735716) can0 2AE#0100000000000000
(1599991448.737029) can0 084#0100007A408C9FFC
(1599991448.737227) can0 085#1D000E7A396000F0
(1599991448.739751) can0 3F6#3D25FF0000000372
(1599991448.739975) can0 260#0000000000001D00
(1599991448.740762) can0 0E0#004B00E0F1B20000
(1599991448.741500) can0 122#0000000000000145
(1599991448.741742) can0 123#0000000000000145
(1599991448.741971) can0 124#2E933029A2F010E5
(1599991448.742213) can0 125#00000108000001D3
(1599991448.742716) can0 2FB#000007DC465B07F5
(1599991448.742957) can0 2FC#0A00080000004019
(1599991448.743188) can0 1F2#9E9FA0A14E535052
(1599991448.743436) can0 2FD#0000000000001000
(1599991448.747068) can0 084#0100007A408C9066
(1599991448.747270) can0 085#1D000E7AE1600000
(1599991448.747516) can0 191#000081200000025F
(1599991448.747754) can0 288#A500004D00000059
(1599991448.747986) can0 28A#C4000200985708EF
(1599991448.750776) can0 0E0#004B00E001810000
(1599991448.753036) can0 1F0#04180000FFFF0DF3
(1599991448.754623) can0 150#7E000403AD03670B
(1599991448.754966) can0 113#0E7A0000AA090825
(1599991448.757137) can0 084#0100007A408C9149
(1599991448.757372) can0 085#1D000E6EB3600010
(1599991448.760763) can0 0E0#004B00E011610000
(1599991448.761496) can0 122#0000000000000234
(1599991448.761727) can0 123#0000000000000234
(1599991448.761962) can0 124#2E933029A2F02038
(1599991448.762207) can0 125#00000108000002A2
(1599991448.765172) can0 2F1#2188FFFFFFFF7800
(1599991448.765390) can0 2F2#110210090A000000
(1599991448.767067) can0 084#0100007A408C9238
(1599991448.767294) can0 085#1D000E6E6E600020
(1599991448.767535) can0 191#0000812000000370
(1599991448.770789) can0 0E0#004C00E021ED0000
(1599991448.773726) can0 113#0E6E0000AA0909A6
(1599991448.774623) can0 150#7E0004036D0368AD
(1599991448.777178) can0 084#0100007A408C9317
(1599991448.777399) can0 085#1D000E6EC0600030
(1599991448.779781) can0 402#0210020102000000
(1599991448.780764) can0 0E0#004B00E0318E0000
(1599991448.781501) can0 122#000000000000031B
(1599991448.781736) can0 123#000000000000031B
(1599991448.781965) can0 124#2E933029A2F03096
(1599991448.782207) can0 125#000001080000038D
(1599991448.783412) can0 285#0140C92000000100
(1599991448.787116) can0 084#0100007A408C94DA
(1599991448.787265) can0 085#1E000E6EC8600040
(1599991448.787502) can0 191#00008120000004BD
(1599991448.790790) can0 0E0#004B00E041700000
(1599991448.791004) can0 281#0000000100000AD6
(1599991448.792943) can0 1F2#9E9FA0A14E535052
(1599991448.793449) can0 286#0140014000000000
(1599991448.794625) can0 150#7E000403AD0369BE
(1599991448.795140) can0 113#0E6E0000AA090AD7
(1599991448.797180) can0 084#0100007A408C95F5
(1599991448.797410) can0 2C2#0000000000000000
(1599991448.797640) can0 085#1E000E6C23600050
(1599991448.800767) can0 0E0#004B00E051900000
(1599991448.801489) can0 122#00000000000004D6
(1599991448.801728) can0 123#00000000000004D6
(1599991448.801961) can0 124#2E933029A2F040AD
(1599991448.802203) can0 125#0000010800000440
(1599991448.803265) can0 1F0#04180000FFFF0E82
(1599991448.803702) can0 284#004140530C680200
(1599991448.807038) can0 084#0100007A408C9684
(1599991448.807244) can0 085#1E000E6CFE600060
(1599991448.807485) can0 191#0000812000000592
(1599991448.810781) can0 0E0#004C00E0611C0000
(1599991448.813446) can0 287#0059000000000120
(1599991448.813704) can0 113#0E6C0000AA090B50
(1599991448.814622) can0 150#7E000403AD036ACF
(1599991448.817162) can0 084#0100007A408C97AB
(1599991448.817387) can0 085#1E000E6C50600070
(1599991448.817640) can0 390#0800000000000000
(1599991448.820767) can0 0E0#004B00E0717F0000
(1599991448.821503) can0 122#00000000000005F9
(1599991448.821739) can0 123#00000000000005F9
(1599991448.821971) can0 124#2E933029A2F05003
(1599991448.822214) can0 125#000001080000056F
(1599991448.823178) can0 370#0F00000000000000
(1599991448.825675) can0 2AB#0190430000030100
(1599991448.825924) can0 2B1#2100000000000000
(1599991448.827036) can0 084#0100007A408C9831
(1599991448.827250) can0 085#1E000E6C88600080
(1599991448.827487) can0 191#00008120000006E3
(1599991448.829765) can0 26D#40540A0412000000
(1599991448.830755) can0 0E0#004B00E0814C0000
(1599991448.832937) can0 2A0#0000000000000000
(1599991448.833189) can0 2A1#0000007F7F7F7F7F
(1599991448.833447) can0 2A3#E707E71800000300
(1599991448.833721) can0 2A4#0080000000000000
(1599991448.833954) can0 113#0E6C0000AA090C9D
(1599991448.834207) can0 2A5#000F071F00000000
(1599991448.834468) can0 2A7#0000000000001400
(1599991448.834707) can0 150#7E000403AD036BE0
(1599991448.834954) can0 2A8#004000000000A0C7
(1599991448.835221) can0 2AA#0000000000000000
(1599991448.835504) can0 218#5F00000000000801
(1599991448.835719) can0 2AE#0100000000000000
(1599991448.835988) can0 3E1#00000000000005F9
(1599991448.836344) can0 3E2#00000000000005F9
(1599991448.836984) can0 084#0100007A408C991E
(1599991448.837207) can0 085#1E000E70E1600090
(1599991448.839806) can0 260#0000000000001D00
(1599991448.840760) can0 0E0#004C00E0912F0000
(1599991448.841492) can0 122#0000000000000688
(1599991448.841723) can0 123#0000000000000688
(1599991448.841956) can0 124#2E933029A2F060DE
(1599991448.842194) can0 125#000001080000061E
(1599991448.842705) can0 2FB#000007E0466207F2
(1599991448.842944) can0 2FC#0A00080000004019
(1599991448.843178) can0 1F2#9E9FA0A14E535052
(1599991448.843426) can0 2FD#0000000000001000
(1599991448.847061) can0 084#0100007A408C9A6F
(1599991448.847268) can0 085#1E000E703C6000A0
(1599991448.847517) can0 191#00008120000007CC
(1599991448.847758) can0 288#A500004D00000059
(1599991448.847982) can0 28A#C300020098570952
(1599991448.850780) can0 0E0#004B00E0A1A30000
(1599991448.853011) can0 1F0#04180000FFFF0FAD
(1599991448.854617) can0 150#7E000403AD036C2D
(1599991448.854934) can0 113#0E700000AA090DE0
(1599991448.855673) can0 415#1500050110000000
(1599991448.857180) can0 084#0100007A408C9B40
(1599991448.857406) can0 085#1E000E70926000B0
(1599991448.860763) can0 0E0#004B00E0B1430000
(1599991448.861496) can0 122#00000000000007A7
(1599991448.861730) can0 123#00000000000007A7
(1599991448.861964) can0 124#2E933029A2F07070
(1599991448.862208) can0 125#0000010800000731
(1599991448.865183) can0 2F1#2188FFFFFFFF7800
(1599991448.865409) can0 2F2#110210090A000000
(1599991448.866472) can0 380#17A0D10000000000
(1599991448.867218) can0 084#0100007A408C9C8D
(1599991448.867444) can0 085#1E000E70A96000C0
(1599991448.867685) can0 191#0000812000000856
(1599991448.870790) can0 0E0#004C00E0C13E0000
(1599991448.873739) can0 113#0E700000AA090E91
(1599991448.874637) can0 150#7E000403AD036D02
(1599991448.877182) can0 084#0100007A408C9DA2
(1599991448.877395) can0 085#1E000E70076000D0
(1599991448.879779) can0 3F1#015F6F0001219E00
(1599991448.880760) can0 0E0#004B00E0D15D0000
(1599991448.881498) can0 122#000000000000083D
(1599991448.881740) can0 123#000000000000083D
(1599991448.881970) can0 124#2E933029A2F080A8
(1599991448.882212) can0 125#00000108000008AB
(1599991448.883386) can0 285#0140C92000000100
(1599991448.887098) can0 084#0100007A408C9ED3
(1599991448.887267) can0 085#1E000E66636000E0
(1599991448.887485) can0 191#0000812000000979
(1599991448.890786) can0 0E0#004C00E0E1D10000
(1599991448.891006) can0 281#0000000100000BF9
(1599991448.892914) can0 1F2#9E9FA0A14E535052
(1599991448.893403) can0 286#0140014000000000
(1599991448.894619) can0 150#7E0004036D036E4F
(1599991448.895131) can0 113#0E700000AA090FBE
(1599991448.897201) can0 084#0100007A408C9FFC
(1599991448.897413) can0 085#1E000E66CD6000F0
(1599991448.898207) can0 2C2#0000000000000000
(1599991448.899761) can0 3F0#0539340702170007
(1599991448.900762) can0 0E0#004B00E0F1B20000
(1599991448.901492) can0 122#0000000000000912
(1599991448.901721) can0 123#0000000000000912
(1599991448.901950) can0 124#2E933029A2F09006
(1599991448.902189) can0 125#0000010800000984
(1599991448.903254) can0 1F0#04180000FFFF0037
(1599991448.903674) can0 284#004140530C680200
(1599991448.907044) can0 084#0100007A408C9066
(1599991448.907246) can0 085#1E000E6615600000
(1599991448.907492) can0 191#0000812000000A08
(1599991448.910785) can0 0E0#004B00E001810000
(1599991448.911201) can0 41C#1C00020102000000
(1599991448.913419) can0 287#0059000000000120
(1599991448.913722) can0 113#0E660000AA090020
(1599991448.914638) can0 150#7E000403AD036F5C
(1599991448.917197) can0 084#0100007A408C9149
(1599991448.917421) can0 085#1E000E66BB600010
(1599991448.919742) can0 3F7#FFF0FFF8FFF807C6
(1599991448.920751) can0 0E0#004B00E011610000
(1599991448.921489) can0 122#0000000000000A63
(1599991448.921721) can0 123#0000000000000A63
(1599991448.921950) can0 124#2E933029A2F0A0DB
(1599991448.922190) can0 125#0000010800000AF5
(1599991448.925695) can0 2B1#2100000000000000
(1599991448.927018) can0 084#0100007A408C9238
(1599991448.927245) can0 085#1E000E6423600020
(1599991448.927489) can0 191#0000812000000B27
(1599991448.929830) can0 26D#40540A0412000000
(1599991448.930762) can0 0E0#004B00E0216E0000
(1599991448.932945) can0 2A0#0000000000000000
(1599991448.933197) can0 2A1#0000007F7F7F7F7F
(1599991448.933453) can0 2A3#E707E71800000300
(1599991448.933700) can0 113#0E660000AA09010F
(1599991448.933950) can0 2A4#0080000000000000
(1599991448.934215) can0 2A5#000F071F00000000
(1599991448.934484) can0 2A7#0000000000001400
(1599991448.934725) can0 150#7E000403AD0360C6
(1599991448.934971) can0 2A8#004000000000B069
(1599991448.935236) can0 2AA#0000000000000000
(1599991448.935509) can0 218#5F0000000000092E
(1599991448.935732) can0 2AE#0100000000000000
(1599991448.936993) can0 084#0100007A408C9317
(1599991448.937223) can0 085#1E000E648D600030
(1599991448.939818) can0 3F6#3D25FF00000004BF
(1599991448.940029) can0 260#0000000000001D00
(1599991448.940813) can0 0E0#004B00E0318E0000
(1599991448.941557) can0 122#0000000000000B4C
(1599991448.941784) can0 123#0000000000000B4C
(1599991448.942013) can0 124#2E933029A2F0B075
(1599991448.942258) can0 125#0000010800000BDA
(1599991448.942789) can0 2FB#000007DD465F07F3
(1599991448.943026) can0 2FC#0A00080000004019
(1599991448.943257) can0 1F2#9E9FA0A14E535052
(1599991448.943506) can0 2FD#0000000000001000
(1599991448.947074) can0 084#0100007A408C94DA
(1599991448.947274) can0 085#1E000E64B6600040
(1599991448.947517) can0 191#0000812000000CEA
(1599991448.947758) can0 288#A500004D00000059
(1599991448.947989) can0 28A#C200020098570AD7
(1599991448.950789) can0 0E0#004B00E041700000
(1599991448.952979) can0 1F0#04180000FFFF0118
(1599991448.953731) can0 113#0E640000AA0902D6
(1599991448.954645) can0 150#7E0004036D0361D5
(1599991448.957222) can0 084#0100007A408C95F5
(1599991448.957433) can0 085#1E000E6418600050
(1599991448.960765) can0 0E0#004B00E051900000
(1599991448.961495) can0 122#0000000000000C81
(1599991448.961731) can0 123#0000000000000C81
(1599991448.961965) can0 124#2E933029A2F0C04E
(1599991448.962206) can0 125#0000010800000C17
(1599991448.965193) can0 2F1#2188FFFFFFFF7800
(1599991448.965418) can0 2F2#110210090A000000
(1599991448.967044) can0 084#0100007A408C9684
(1599991448.967253) can0 085#1E000E6874600060
(1599991448.967497) can0 191#0000812000000DC5
(1599991448.970784) can0 0E0#004B00E0619F0000
(1599991448.973740) can0 113#0E640000AA0903F9
(1599991448.974641) can0 150#7E0004036D0362A4
(1599991448.977217) can0 084#0100007A408C97AB
(1599991448.977431) can0 085#1E000E68DA600070
(1599991448.980771) can0 0E0#004B00E0717F0000
(1599991448.981502) can0 122#0000000000000DAE
(1599991448.981739) can0 123#0000000000000DAE
(1599991448.981970) can0 124#2E933029A2F0D0E0
(1599991448.982212) can0 125#0000010800000D38
(1599991448.983384) can0 285#0140C92000000100
(1599991448.987122) can0 084#0100007A408C9831
(1599991448.987266) can0 085#1E000E6802600080
(1599991448.987501) can0 191#0000812000000EB4
(1599991448.990778) can0 0E0#004B00E0814C0000
(1599991448.990996) can0 281#0000000100000C34
(1599991448.992897) can0 1F2#9E9FA0A14E535052
(1599991448.993382) can0 286#0140014000000000
(1599991448.994666) can0 150#7E000403AD0363B7
(1599991448.995087) can0 113#0E680000AA0904B5
(1599991448.997222) can0 084#0100007A408C991E
(1599991448.997432) can0 085#1E000E68AC600090
(1599991448.999233) can0 2C2#0000000000000000
(1599991449.000757) can0 0E0#004B00E091AC0000
(1599991449.001494) can0 122#0000000000000EDF
(1599991449.001736) can0 123#0000000000000EDF
(1599991449.001965) can0 124#2E933029A2F0E03D
(1599991449.002207) can0 125#0000010800000E49
(1599991449.003264) can0 1F0#04180000FFFF0269
(1599991449.003681) can0 284#004140530C680200
(1599991449.007054) can0 084#0100007A408C9A6F
(1599991449.007254) can0 085#1E000E68716000A0
(1599991449.007495) can0 191#0000812000000F9B
(1599991449.010782) can0 0E0#004B00E0A1A30000
(1599991449.012934) can0 407#0710050110000000
(1599991449.013375) can0 287#0059000000000120
(1599991449.013708) can0 113#0E680000AA09059A
(1599991449.014656) can0 150#7E000403AD03647A
(1599991449.016991) can0 084#0100007A408C9B40
(1599991449.017204) can0 085#1E000E6A9A6000B0
(1599991449.020773) can0 0E0#004C00E0B1C00000
(1599991449.021510) can0 122#0000000000000FF0
(1599991449.021745) can0 123#0000000000000FF0
(1599991449.021971) can0 124#2E933029A2F0F093
(1599991449.022211) can0 125#0000010800000F66
(1599991449.025698) can0 2AB#0190430000030100
(1599991449.025923) can0 2B1#2100000000000000
(1599991449.027124) can0 084#0100007A408C9C8D
(1599991449.027337) can0 085#1F000E6A556000C0
(1599991449.027582) can0 191#0000812000000001
(1599991449.029834) can0 26D#40540A0412000000
(1599991449.030769) can0 0E0#004B00E0C1BD0000
(1599991449.032952) can0 2A0#0000000000000000
(1599991449.033204) can0 2A1#0000007F7F7F7F7F
(1599991449.033454) can0 2A3#E707E71800000300
(1599991449.033725) can0 2A4#0080000000000000
(1599991449.033961) can0 113#0E6A0000AA090643
(1599991449.034210) can0 2A5#000F071F00000000
(1599991449.034477) can0 2A7#0000000000001400
(1599991449.034714) can0 150#7E000403AD036555
(1599991449.034959) can0 2A8#004000000000C052
(1599991449.035223) can0 2AA#0000000000000000
(1599991449.035473) can0 218#5F00000000000A5F
(1599991449.035755) can0 2AE#0100000000000000
(1599991449.035992) can0 3E1#0000000000000688
(1599991449.036342) can0 3E2#0000000000000688
(1599991449.036989) can0 084#0100007A408C9DA2
(1599991449.037213) can0 085#1F000E6AFB6000D0
(1599991449.039809) can0 260#0000000000001D00
(1599991449.040752) can0 0E0#004B00E0D15D0000
(1599991449.041496) can0 122#000000000000006A
(1599991449.041732) can0 123#000000000000006A
(1599991449.041966) can0 124#2E933029A2F0004B
(1599991449.042215) can0 125#00000108000000FC
(1599991449.042720) can0 2FB#000007DE466207F6
(1599991449.042958) can0 2FC#0A00080000004019
(1599991449.043191) can0 1F2#9E9FA0A14E535052
(1599991449.043440) can0 2FD#0000000000001000
(1599991449.047078) can0 084#0100007A408C9ED3
(1599991449.047278) can0 085#1F000E6A266000E0
(1599991449.047518) can0 191#000081200000012E
(1599991449.047759) can0 288#A500004D00000059
(1599991449.047989) can0 28A#C300020098570B0C
(1599991449.050782) can0 0E0#004B00E0E1520000
(1599991449.052951) can0 1F0#04180000FFFF0346
(1599991449.053714) can0 113#0E6A0000AA09076C
(1599991449.054652) can0 150#7E000403AD036624
(1599991449.057001) can0 084#0100007A408C9FFC
(1599991449.057220) can0 085#1F000E58576000F0
(1599991449.060767) can0 0E0#004B00E0F1B20000
(1599991449.061499) can0 122#0000000000000145
(1599991449.061730) can0 123#0000000000000145
(1599991449.061961) can0 124#2E933029A2F010E5
(1599991449.062203) can0 125#00000108000001D3
(1599991449.065218) can0 2F1#2188FFFFFFFF7800
(1599991449.065431) can0 2F2#110210090A000000
(1599991449.066545) can0 380#17B0020000000000
(1599991449.067251) can0 191#000081200000025F
(1599991449.067475) can0 084#0100007A408C9066
(1599991449.067712) can0 085#1F000E588F600000
(1599991449.070792) can0 0E0#004B00E001810000
(1599991449.073744) can0 113#0E580000AA090804
(1599991449.074662) can0 150#7E000403AD03670B
(1599991449.077000) can0 084#0100007A408C9149
(1599991449.077217) can0 085#1F000E5821600010
(1599991449.080760) can0 0E0#004C00E011E20000
(1599991449.081488) can0 122#0000000000000234
(1599991449.081724) can0 123#0000000000000234
(1599991449.081961) can0 124#2E933029A2F02038
(1599991449.082207) can0 125#00000108000002A2
(1599991449.083369) can0 285#0140C92000000100
(1599991449.087062) can0 084#0100007A408C9238
(1599991449.087292) can0 085#1F000E58FC600020
(1599991449.087513) can0 191#0000812000000370
(1599991449.090773) can0 0E0#004B00E0216E0000
(1599991449.090990) can0 281#0000000100000D1B
(1599991449.092863) can0 1F2#9E9FA0A14E535052
(1599991449.093355) can0 286#0140014000000000
(1599991449.094657) can0 150#7E000403AD036891
(1599991449.095067) can0 113#0E580000AA09092B
(1599991449.096988) can0 084#0100007A408C9317
(1599991449.097225) can0 085#1F000E6479600030
(1599991449.100362) can0 2C2#0000000000000000
(1599991449.100750) can0 0E0#004B00E0318E0000
(1599991449.101485) can0 122#000000000000031B
(1599991449.101725) can0 123#000000000000031B
(1599991449.101954) can0 124#2E933029A2F03096
(1599991449.102195) can0 125#000001080000038D
(1599991449.103176) can0 1F0#04180000FFFF048B
(1599991449.103659) can0 284#004140530C680200
(1599991449.107045) can0 084#0100007A408C94DA
(1599991449.107253) can0 085#1F000E6442600040
(1599991449.107494) can0 191#00008120000004BD
(1599991449.110780) can0 0E0#004B00E041700000
(1599991449.112569) can0 40E#0E100601E0030000
(1599991449.113354) can0 287#0059000000000120
(1599991449.113727) can0 113#0E640000AA090A81
(1599991449.114666) can0 150#7E000403AD0369BE
(1599991449.117000) can0 084#0100007A408C95F5
(1599991449.117220) can0 085#1F000E64EC600050
(1599991449.120762) can0 0E0#004B00E051900000
(1599991449.121484) can0 122#00000000000004D6
(1599991449.121724) can0 123#00000000000004D6
(1599991449.121956) can0 124#2E933029A2F040AD
(1599991449.122198) can0 125#0000010800000440
(1599991449.125714) can0 2B1#2100000000000000
(1599991449.127032) can0 084#0100007A408C9684
(1599991449.127259) can0 085#1F000E6431600060
(1599991449.127495) can0 191#0000812000000592
(1599991449.129817) can0 26D#40540A0412000000
(1599991449.130757) can0 0E0#004B00E0619F0000
(1599991449.132961) can0 2A0#0000000000000000
(1599991449.133214) can0 2A1#0000007F7F7F7F7F
(1599991449.133461) can0 2A3#E707E71800000300
(1599991449.133706) can0 113#0E640000AA090BAE
(1599991449.133956) can0 2A4#0080000000000000
(1599991449.134223) can0 2A5#000F071F00000000
(1599991449.134487) can0 2A7#0000000000001400
(1599991449.134722) can0 150#7E000403AD036ACF
(1599991449.134969) can0 2A8#004000000000D0FC
(1599991449.135235) can0 2AA#0000000000000000
(1599991449.135487) can0 218#5F00000000000B70
(1599991449.135735) can0 2AE#0100000000000000
(1599991449.136995) can0 084#0100007A408C97AB
(1599991449.137223) can0 085#1F000E649F600070
(1599991449.139887) can0 3F6#3D25FF0000000590
(1599991449.140047) can0 260#0000000000001D00
(1599991449.140826) can0 0E0#004B00E0717F0000
(1599991449.141562) can0 122#00000000000005F9
(1599991449.141805) can0 123#00000000000005F9
(1599991449.142038) can0 124#2E933029A2F05003
(1599991449.142289) can0 125#000001080000056F
(1599991449.142795) can0 2FB#000007E0466407F0
(1599991449.143029) can0 2FC#0A00080000004019
(1599991449.143259) can0 1F2#9E9FA0A14E535052
(1599991449.143506) can0 2FD#0000000000001000
(1599991449.147085) can0 084#0100007A408C9831
(1599991449.147291) can0 085#1F000E5698600080
(1599991449.147532) can0 191#00008120000006E3
(1599991449.147776) can0 288#A500004D00000059
(1599991449.148006) can0 28A#C300020098570CC1
(1599991449.150769) can0 0E0#004B00E0814C0000
(1599991449.152919) can0 1F0#04180000FFFF05A4
(1599991449.153736) can0 113#0E640000AA090C63
(1599991449.154674) can0 150#7E000403AD036BE0
(1599991449.156988) can0 084#0100007A408C991E
(1599991449.157216) can0 085#1F000E5636600090
(1599991449.160760) can0 0E0#004B00E091AC0000
(1599991449.161483) can0 122#0000000000000688
(1599991449.161719) can0 123#0000000000000688
(1599991449.161948) can0 124#2E933029A2F060DE
(1599991449.162188) can0 125#000001080000061E
(1599991449.165236) can0 2F1#2188FFFFFFFF7800
(1599991449.165449) can0 2F2#110210090A000000
(1599991449.167031) can0 084#0100007A408C9A6F
(1599991449.167255) can0 085#1F000E56EB6000A0
(1599991449.167577) can0 191#00008120000007CC
(1599991449.170775) can0 0E0#004C00E0A1200000
(1599991449.173739) can0 113#0E560000AA090DBE
(1599991449.174716) can0 150#7E000403AD036C2D
(1599991449.176999) can0 084#0100007A408C9B40
(1599991449.177220) can0 085#1F000E56456000B0
(1599991449.180755) can0 0E0#004B00E0B1430000
(1599991449.181490) can0 122#00000000000007A7
(1599991449.181724) can0 123#00000000000007A7
(1599991449.181960) can0 124#2E933029A2F07070
(1599991449.182197) can0 125#0000010800000731
(1599991449.183334) can0 285#0140C92000000100
(1599991449.187052) can0 084#0100007A408C9C8D
(1599991449.187270) can0 085#1F000E48FC6000C0
(1599991449.187511) can0 191#0000812000000856
(1599991449.190775) can0 0E0#004B00E0C1BD0000
(1599991449.190990) can0 281#0000000100000E6A
(1599991449.192836) can0 1F2#9E9FA0A14E535052
(1599991449.193377) can0 286#0140014000000000
(1599991449.194668) can0 150#7E000403AD036D02
(1599991449.195047) can0 113#0E560000AA090ECF
(1599991449.197003) can0 084#0100007A408C9DA2
(1599991449.197223) can0 085#1F000E48526000D0
(1599991449.200747) can0 0E0#004B00E0D15D0000
(1599991449.201227) can0 2C2#0000000000000000
(1599991449.201477) can0 122#000000000000083D
(1599991449.201727) can0 123#000000000000083D
(1599991449.201959) can0 124#2E933029A2F080A8
(1599991449.202200) can0 125#00000108000008AB
(1599991449.203138) can0 1F0#04180000FFFF06D5
(1599991449.203622) can0 284#004140530C680200
(1599991449.207056) can0 084#0100007A408C9ED3
(1599991449.207261) can0 085#1F000E488F6000E0
(1599991449.207504) can0 191#0000812000000979
(1599991449.210775) can0 0E0#004B00E0E1520000
(1599991449.213342) can0 287#0059000000000120
(1599991449.213711) can0 113#0E480000AA090F1A
(1599991449.214720) can0 150#7E000403AD036E73
(1599991449.217297) can0 084#0100007A408C8F52
(1599991449.217509) can0 085#1F000E48216000F0
(1599991449.220763) can0 0E0#004B00E0F1B20000
(1599991449.221488) can0 122#0000000000000912
(1599991449.221720) can0 123#0000000000000912
(1599991449.221950) can0 124#2E933029A2F09006
(1599991449.222189) can0 125#0000010800000984
(1599991449.225715) can0 2AB#0190430000030100
(1599991449.225939) can0 2B1#2100000000000000
(1599991449.227266) can0 191#0000812000000A08
(1599991449.227701) can0 084#0100007A408C80C8
(1599991449.227941) can0 085#1F000E48F9600000
(1599991449.229862) can0 26D#40540A0412000000
(1599991449.230763) can0 0E0#004B00E001810000
(1599991449.232961) can0 2A0#0000000000000000
(1599991449.233211) can0 2A1#0000007F7F7F7F7F
(1599991449.233465) can0 2A3#E707E71800000300
(1599991449.233735) can0 2A4#0080000000000000
(1599991449.233970) can0 113#0E480000AA090080
(1599991449.234218) can0 2A5#000F071F00000000
(1599991449.234482) can0 2A7#0000000000001400
(1599991449.234717) can0 150#7E000403AD036F5C
(1599991449.234962) can0 2A8#004000000000E021
(1599991449.235229) can0 2AA#0000000000000000
(1599991449.235472) can0 218#5F00000000000CBD
(1599991449.235724) can0 2AE#0100000000000000
(1599991449.235996) can0 3E1#00000000000007A7
(1599991449.236342) can0 3E2#00000000000007A7
(1599991449.237011) can0 084#0100007A408C81E7
(1599991449.237244) can0 085#1F000E501A600010
(1599991449.239844) can0 260#0000000000001D00
(1599991449.240745) can0 0E0#004B00E011610000
(1599991449.241480) can0 122#0000000000000A63
(1599991449.241714) can0 123#0000000000000A63
(1599991449.241941) can0 124#2E933029A2F0A0DB
(1599991449.242180) can0 125#0000010800000AF5
(1599991449.242684) can0 2FB#000007DE465B07F0
(1599991449.242928) can0 2FC#0A00080000004019
(1599991449.243158) can0 1F2#9E9FA0A14E535052
(1599991449.243407) can0 2FD#0000000000001000
(1599991449.247084) can0 084#0100007A408C9238
(1599991449.247290) can0 085#1F000E50C7600020
(1599991449.247533) can0 191#0000812000000B27
(1599991449.247773) can0 288#A500004D00000059
(1599991449.248005) can0 28A#C300020098570DEE
(1599991449.250774) can0 0E0#004C00E021ED0000
(1599991449.252898) can0 1F0#04180000FFFF07FA
(1599991449.253729) can0 113#0E500000AA090182
(1599991449.254717) can0 150#7E000403AD0360C6
(1599991449.257003) can0 084#0100007A408C83B9
(1599991449.257232) can0 085#20000E50D7600030
(1599991449.260757) can0 0E0#004B00E0318E0000
(1599991449.261484) can0 122#0000000000000B4C
(1599991449.261717) can0 123#0000000000000B4C
(1599991449.261951) can0 124#2E933029A2F0B075
(1599991449.262197) can0 125#0000010800000BDA
(1599991449.265237) can0 2F1#2188FFFFFFFF7800
(1599991449.265468) can0 2F2#110210090A000000
(1599991449.266601) can0 380#17C0650000000000
(1599991449.267041) can0 084#0100007A408C8474
(1599991449.267269) can0 085#20000E50EC600040
(1599991449.267506) can0 191#0000812000000CEA
(1599991449.270782) can0 0E0#004B00E041700000
(1599991449.273766) can0 113#0E500000AA0902F3
(1599991449.274691) can0 150#7E0004036D0361D5
(1599991449.277011) can0 084#0100007A408C855B
(1599991449.277223) can0 085#20000E3CE8600050
(1599991449.279803) can0 402#0210020102000000
(1599991449.280755) can0 0E0#004B00E051900000
(1599991449.281495) can0 122#0000000000000C81
(1599991449.281723) can0 123#0000000000000C81
(1599991449.281957) can0 124#2E933029A2F0C04E
(1599991449.282198) can0 125#0000010800000C17
(1599991449.283307) can0 285#0140C92000000100
(1599991449.287099) can0 084#0100007A408C862A
(1599991449.287307) can0 085#20000E3C35600060
(1599991449.287549) can0 191#0000812000000DC5
(1599991449.290779) can0 0E0#004B00E0619F0000
(1599991449.290991) can0 281#0000000100000F45
(1599991449.292811) can0 1F2#9E9FA0A14E535052
(1599991449.293335) can0 286#0140014000000000
(1599991449.294690) can0 150#7E000403AD036298
(1599991449.295011) can0 113#0E3C0000AA0903E9
(1599991449.297002) can0 084#0100007A408C8705
(1599991449.297241) can0 085#20000E3C9B600070
(1599991449.300759) can0 0E0#004B00E0717F0000
(1599991449.301492) can0 122#0000000000000DAE
(1599991449.301733) can0 123#0000000000000DAE
(1599991449.301958) can0 124#2E933029A2F0D0E0
(1599991449.302203) can0 125#0000010800000D38
(1599991449.302452) can0 2C2#0000000000000000
(1599991449.303120) can0 1F0#04180000FFFF0860
(1599991449.303598) can0 284#004140530C680200
(1599991449.307059) can0 084#0100007A408C889F
(1599991449.307267) can0 085#20000E3C43600080
(1599991449.307506) can0 191#0000812000000EB4
(1599991449.310775) can0 0E0#004B00E0814C0000
(1599991449.313311) can0 287#0059000000000120
(1599991449.313744) can0 113#0E3C0000AA090424
(1599991449.314700) can0 150#7E000403AD0363B7
(1599991449.317005) can0 084#0100007A408C89B0
(1599991449.317218) can0 085#20000E3EA8600090
(1599991449.317472) can0 390#0800000000000000
(1599991449.320761) can0 0E0#004B00E091AC0000
(1599991449.321496) can0 122#0000000000000EDF
(1599991449.321729) can0 123#0000000000000EDF
(1599991449.321959) can0 124#2E933029A2F0E03D
(1599991449.322203) can0 125#0000010800000E49
(1599991449.323085) can0 370#0F00000000000000
(1599991449.325726) can0 2B1#2100000000000000
(1599991449.327048) can0 084#0100007A408C8AC1
(1599991449.327267) can0 085#20000E3E756000A0
(1599991449.327514) can0 191#0000812000000F9B
(1599991449.329801) can0 26D#40540A0412000000
(1599991449.330751) can0 0E0#004B00E0A1A30000
(1599991449.332973) can0 2A0#0000000000000000
(1599991449.333215) can0 2A1#0000007F7F7F7F7F
(1599991449.333475) can0 2A3#E707E71800000300
(1599991449.333720) can0 113#0E3E0000AA0905A3
(1599991449.333970) can0 2A4#0080000000000000
(1599991449.334240) can0 2A5#000F071F00000000
(1599991449.334507) can0 2A7#0000000000001400
(1599991449.334745) can0 150#7E0004036D036446
(1599991449.334989) can0 2A8#004000000000F08F
(1599991449.335264) can0 2AA#0000000000000000
(1599991449.335509) can0 218#5F00000000000D92
(1599991449.335760) can0 2AE#0100000000000000
(1599991449.337007) can0 084#0100007A408C8BEE
(1599991449.337230) can0 085#20000E3EDB6000B0
(1599991449.339845) can0 3F6#3D25FF00000006E1
(1599991449.340059) can0 260#0000000000001D00
(1599991449.340842) can0 0E0#004B00E0B1430000
(1599991449.341634) can0 122#0000000000000FF0
(1599991449.341841) can0 123#0000000000000FF0
(1599991449.342056) can0 124#2E933029A2F0F093
(1599991449.342298) can0 125#0000010800000F66
(1599991449.342807) can0 2FB#000007DF466407F3
(1599991449.343043) can0 2FC#0A00080000004019
(1599991449.343270) can0 1F2#9E9FA0A14E535052
(1599991449.343520) can0 2FD#0000000000001000
(1599991449.347091) can0 084#0100007A408C9C8D
(1599991449.347295) can0 085#20000E3EE06000C0
(1599991449.347540) can0 191#0000812000000001
(1599991449.347779) can0 288#A500004D00000059
(1599991449.348013) can0 28A#BF00020098570E0B
(1599991449.350780) can0 0E0#004B00E0C1BD0000
(1599991449.352868) can0 1F0#04180000FFFF094F
(1599991449.353747) can0 113#0E3E0000AA0906D2
(1599991449.354752) can0 150#7E000403AD036555
(1599991449.355715) can0 415#1500050110000000
(1599991449.357000) can0 084#0100007A408C9DA2
(1599991449.357235) can0 085#20000E3E4E6000D0
(1599991449.360753) can0 0E0#004B00E0D15D0000
(1599991449.361490) can0 122#000000000000006A
(1599991449.361725) can0 123#000000000000006A
(1599991449.361957) can0 124#2E933029A2F0004B
(1599991449.362206) can0 125#00000108000000FC
(1599991449.365263) can0 2F1#2188FFFFFFFF7800
(1599991449.365475) can0 2F2#110210090A000000
(1599991449.367055) can0 084#0100007A408C9ED3
(1599991449.367261) can0 085#20000E52396000E0
(1599991449.367503) can0 191#000081200000012E
(1599991449.370773) can0 0E0#004B00E0E1520000
(1599991449.373757) can0 113#0E3E0000AA0907FD
(1599991449.374735) can0 150#7E000403AD036624
(1599991449.377081) can0 084#0100007A408C9FFC
(1599991449.377292) can0 085#20000E52976000F0
(1599991449.380763) can0 0E0#004B00E0F1B20000
(1599991449.381490) can0 122#0000000000000145
(1599991449.381724) can0 123#0000000000000145
(1599991449.381954) can0 124#2E933029A2F010E5
(1599991449.382196) can0 125#00000108000001D3
(1599991449.383285) can0 285#0140C92000000100
(1599991449.387082) can0 084#0100007A408C80C8
(1599991449.387284) can0 085#20000E524F600000
(1599991449.387527) can0 191#000081200000025F
(1599991449.390785) can0 0E0#004B00E001810000
(1599991449.391002) can0 281#00000001000000DF
(1599991449.392788) can0 1F2#9E9FA0A14E535052
(1599991449.393276) can0 286#0140014000000000
(1599991449.394710) can0 150#7E000403AD03670B
(1599991449.394976) can0 113#0E520000AA090852
(1599991449.397066) can0 084#0100007A408C81E7
(1599991449.397233) can0 085#20000E52E1600010
(1599991449.399784) can0 3F0#0539340702170007
(1599991449.400749) can0 0E0#004B00E011610000
(1599991449.401475) can0 122#0000000000000234
(1599991449.401711) can0 123#0000000000000234
(1599991449.401947) can0 124#2E933029A2F02038
(1599991449.402195) can0 125#00000108000002A2
(1599991449.403112) can0 1F0#04180000FFFF0A3E
(1599991449.403339) can0 2C2#0000000000000000
(1599991449.403578) can0 284#004140530C680200
(1599991449.407065) can0 084#0100007A408C8296
(1599991449.407269) can0 085#20000E523C600020
(1599991449.407513) can0 191#0000812000000370
(1599991449.410775) can0 0E0#004C00E021ED0000
(1599991449.412373) can0 41C#1C00020102000000
(1599991449.413286) can0 287#0059000000000120
(1599991449.413736) can0 113#0E520000AA09097D
(1599991449.414811) can0 150#7E000403AD036891
(1599991449.417009) can0 084#0100007A408C83B9
(1599991449.417238) can0 085#20000E5292600030
(1599991449.420750) can0 0E0#004B00E0318E0000
(1599991449.421490) can0 122#000000000000031B
(1599991449.421720) can0 123#000000000000031B
(1599991449.421950) can0 124#2E933029A2F03096
(1599991449.422198) can0 125#000001080000038D
(1599991449.425726) can0 2AB#0190430000030100
(1599991449.425956) can0 2B1#2100000000000000
(1599991449.427046) can0 084#0100007A408C94DA
(1599991449.427268) can0 085#20000E52A9600040
(1599991449.427508) can0 191#00008120000004BD
(1599991449.429854) can0 26D#40540A0412000000
(1599991449.430749) can0 0E0#004B00E041700000
(1599991449.432961) can0 2A0#0000000000000000
(1599991449.433219) can0 2A1#0000007F7F7F7F7F
(1599991449.433476) can0 2A3#E707E71800000300
(1599991449.433750) can0 2A4#0080000000000000
(1599991449.433980) can0 113#0E520000AA090A0C
(1599991449.434226) can0 2A5#000F071F00000000
(1599991449.434493) can0 2A7#0000000000001400
(1599991449.434733) can0 150#7E000403AD0369BE
(1599991449.434979) can0 2A8#0040000000000057
(1599991449.435245) can0 2AA#0000000000000000
(1599991449.435489) can0 218#5F00000000000EE3
(1599991449.435769) can0 2AE#0100000000000000
(1599991449.436014) can0 3E1#000000000000083D
(1599991449.436312) can0 3E2#000000000000083D
(1599991449.437002) can0 084#0100007A408C95F5
(1599991449.437243) can0 085#20000E5207600050
(1599991449.439830) can0 260#0000000000001D00
(1599991449.440744) can0 0E0#004B00E051900000
(1599991449.441477) can0 122#00000000000004D6
(1599991449.441715) can0 123#00000000000004D6
(1599991449.441949) can0 124#2E933029A2F040AD
(1599991449.442192) can0 125#0000010800000440
(1599991449.442719) can0 2FB#000007DD465907F0
(1599991449.442961) can0 2FC#0A00080000004019
(1599991449.443193) can0 1F2#9E9FA0A14E535052
