(1599991180.435843) can0 084#0100007A508C92D8
(1599991180.436054) can0 085#A4000E7CB7600020
(1599991180.436530) can0 288#A500004E00000059
(1599991180.436830) can0 0E0#005000E001500000
(1599991180.437061) can0 28A#C300020098570DEE
(1599991180.437309) can0 122#0000000000000B4C
(1599991180.437553) can0 123#0000000000000B4C
(1599991180.437779) can0 124#2E932F29A2F0B065
(1599991180.438020) can0 125#0000010800000BDA
(1599991180.439003) can0 150#7E000405AD036126
(1599991180.442176) can0 113#0E7C0000AA09018A
(1599991180.445867) can0 084#0100007A508C93F7
(1599991180.446071) can0 085#A4000E7C19600030
(1599991180.446611) can0 0E0#005000E011B00000
(1599991180.449552) can0 191#0000812000000CEA
(1599991180.452863) can0 2FB#000007E0465D07F0
(1599991180.453090) can0 2FC#0A00000000004019
(1599991180.453338) can0 2FD#0000000000001000
(1599991180.455104) can0 2C2#0000000000000000
(1599991180.455830) can0 084#0100007A508C943A
(1599991180.456047) can0 085#A5000E7CD6600040
(1599991180.456835) can0 0E0#005100E021EB0000
(1599991180.457305) can0 122#0000000000000C81
(1599991180.457550) can0 123#0000000000000C81
(1599991180.457775) can0 124#2E932F29A2F0C05E
(1599991180.458022) can0 125#0000010800000C17
(1599991180.458833) can0 285#0140014000000100
(1599991180.459051) can0 150#7E0004046D0362DE
(1599991180.462192) can0 113#0E7C0000AA0902FB
(1599991180.465911) can0 084#0100007A508C9515
(1599991180.466082) can0 085#A5000E7C78600050
(1599991180.466608) can0 0E0#005000E0315F0000
(1599991180.467767) can0 1F2#9E9FA0A14E535052
(1599991180.468347) can0 286#0140014000000000
(1599991180.469547) can0 191#0000812000000DC5
(1599991180.475853) can0 084#0100007A508C9664
(1599991180.476056) can0 085#A5000E7CA5600060
(1599991180.476817) can0 0E0#005000E041A10000
(1599991180.477307) can0 122#0000000000000DAE
(1599991180.477557) can0 123#0000000000000DAE
(1599991180.477780) can0 124#2E932F29A2F0D0F0
(1599991180.478019) can0 125#0000010800000D38
(1599991180.478261) can0 1F0#04180000FFFF06D5
(1599991180.478997) can0 150#7E0004042D036300
(1599991180.479223) can0 284#004140530C680200
(1599991180.482190) can0 113#0E7C0000AA0903D4
(1599991180.485851) can0 084#0100007A508C974B
(1599991180.486063) can0 085#A5000E7C0B600070
(1599991180.486610) can0 0E0#005000E051410000
(1599991180.488394) can0 287#0059000000000120
(1599991180.489549) can0 191#0000812000000EB4
(1599991180.495936) can0 084#0100007A508C98D1
(1599991180.496136) can0 085#A5000E7CD3600080
(1599991180.496372) can0 407#0710050110000000
(1599991180.496897) can0 0E0#005100E0611A0000
(1599991180.497393) can0 122#0000000000000EDF
(1599991180.497711) can0 123#0000000000000EDF
(1599991180.497937) can0 124#2E932F29A2F0E02D
(1599991180.498179) can0 125#0000010800000E49
(1599991180.499070) can0 150#7E0004046D03643C
(1599991180.499312) can0 281#0000000100000F45
(1599991180.502190) can0 113#0E7C0000AA090419
(1599991180.505871) can0 084#0100007A508C99FE
(1599991180.506079) can0 085#A5000E78F7600090
(1599991180.506620) can0 0E0#005000E071AE0000
(1599991180.506976) can0 2B1#2100000000000000
(1599991180.509561) can0 191#0000812000000F9B
(1599991180.515855) can0 084#0100007A508C9A8F
(1599991180.516048) can0 085#A5000E782A6000A0
(1599991180.516345) can0 2A0#0000000000000000
(1599991180.516566) can0 2A1#0000007F7F7F7F7F
(1599991180.516824) can0 0E0#005000E0819D0000
(1599991180.517060) can0 2A3#E707E71800000300
(1599991180.517318) can0 122#0000000000000FF0
(1599991180.517564) can0 2A4#0081000000000000
(1599991180.517809) can0 123#0000000000000FF0
(1599991180.518037) can0 124#2E932F29A2F0F083
(1599991180.518277) can0 125#0000010800000F66
(1599991180.518544) can0 1F2#9E9FA0A14E535052
(1599991180.518751) can0 26D#40540A0412000000
(1599991180.518999) can0 2A5#000F071F00000000
(1599991180.519235) can0 150#7E0004046D036513
(1599991180.519486) can0 2A7#0000000000001400
(1599991180.519750) can0 2A8#004000000000F08F
(1599991180.520017) can0 2AA#0000000000000000
(1599991180.520344) can0 2AE#0100000000000000
(1599991180.522182) can0 113#0E780000AA090549
(1599991180.523608) can0 218#5E00000000000D66
(1599991180.523836) can0 2F1#2188FFFFFFFF7800
(1599991180.524191) can0 2F2#110210090A000000
(1599991180.525879) can0 084#0100007A508C9BA0
(1599991180.526083) can0 085#A5000E78846000B0
(1599991180.526619) can0 0E0#005000E0917D0000
(1599991180.527819) can0 1F0#04180000FFFF07FA
(1599991180.528057) can0 260#0000000000001D00
(1599991180.528343) can0 3F6#3D25FF00000006E1
(1599991180.529568) can0 191#0000812000000001
(1599991180.535843) can0 084#0100007A508C9C6D
(1599991180.536053) can0 085#A5000E78BF6000C0
(1599991180.536528) can0 288#A500004E00000059
(1599991180.536825) can0 0E0#005100E0A1260000
(1599991180.537053) can0 28A#C300020098570E9F
(1599991180.537312) can0 122#000000000000006A
(1599991180.537560) can0 123#000000000000006A
(1599991180.537790) can0 124#2E932F29A2F0005B
(1599991180.538036) can0 125#00000108000000FC
(1599991180.539010) can0 150#7E0004042D036693
(1599991180.542181) can0 113#0E780000AA090638
(1599991180.545879) can0 084#0100007A508C9D42
(1599991180.546089) can0 085#A5000E66936000D0
(1599991180.546616) can0 0E0#005000E0B1920000
(1599991180.549557) can0 191#000081200000012E
(1599991180.552835) can0 2FB#000007DD466407F4
(1599991180.553073) can0 2FC#0A00000000004019
(1599991180.553316) can0 2FD#0000000000001000
(1599991180.555862) can0 084#0100007A508C9E33
(1599991180.556069) can0 085#A5000E664E6000E0
(1599991180.556355) can0 2C2#0000000000000000
(1599991180.556835) can0 0E0#005100E0C1380000
(1599991180.557323) can0 122#0000000000000145
(1599991180.557562) can0 123#0000000000000145
(1599991180.557789) can0 124#2E932F29A2F010F5
(1599991180.558032) can0 125#00000108000001D3
(1599991180.558813) can0 285#0140014000000100
(1599991180.559048) can0 150#7E0004042D0367BC
(1599991180.562194) can0 113#0E660000AA0907ED
(1599991180.565967) can0 084#0100007A508C9F1C
(1599991180.566107) can0 085#A5000E66E06000F0
(1599991180.566646) can0 0E0#005000E0D18C0000
(1599991180.567738) can0 1F2#9E9FA0A14E535052
(1599991180.568227) can0 286#0140014000000000
(1599991180.569584) can0 191#000081200000025F
(1599991180.575912) can0 084#0100007A508C9086
(1599991180.576111) can0 085#A5000E6638600000
(1599991180.576868) can0 0E0#005000E0E1830000
(1599991180.577348) can0 122#0000000000000234
(1599991180.577586) can0 123#0000000000000234
(1599991180.577816) can0 124#2E932F29A2F02028
(1599991180.578058) can0 1F0#04180000FFFF0860
(1599991180.578301) can0 125#00000108000002A2
(1599991180.579026) can0 150#7E0004046D0368D7
(1599991180.579258) can0 284#004140530C680200
(1599991180.582181) can0 113#0E660000AA090877
(1599991180.585889) can0 084#0100007A508C91A9
(1599991180.586100) can0 085#A5000E6696600010
(1599991180.586639) can0 0E0#005100E0F1370000
(1599991180.588357) can0 287#0059000000000120
(1599991180.589572) can0 191#0000812000000370
(1599991180.590181) can0 380#17D0B60000000000
(1599991180.595967) can0 084#0100007A508C92D8
(1599991180.596174) can0 085#A5000E664B600020
(1599991180.596938) can0 0E0#005000E001500000
(1599991180.597421) can0 122#000000000000031B
(1599991180.597705) can0 123#000000000000031B
(1599991180.597928) can0 124#2E932F29A2F03086
(1599991180.598173) can0 125#000001080000038D
(1599991180.599112) can0 150#7E0004046D0369F8
(1599991180.599351) can0 281#00000001000000DF
(1599991180.602189) can0 113#0E660000AA090958
(1599991180.605908) can0 084#0100007A508C93F7
(1599991180.606112) can0 085#A5000E66E5600030
(1599991180.606657) can0 0E0#005000E011B00000
(1599991180.606971) can0 2AB#0190430000030100
(1599991180.607232) can0 2B1#2100000000000000
(1599991180.609550) can0 191#00008120000004BD
(1599991180.615978) can0 084#0100007A508C943A
(1599991180.616172) can0 085#A5000E66DE600040
(1599991180.616417) can0 2A0#0000000000000000
(1599991180.616690) can0 2A1#0000007F7F7F7F7F
(1599991180.616927) can0 0E0#005000E021BF0000
(1599991180.617167) can0 2A3#E707E71800000300
(1599991180.617413) can0 122#00000000000004D6
(1599991180.617655) can0 123#00000000000004D6
(1599991180.617886) can0 124#2E932F29A2F040BD
(1599991180.618130) can0 125#0000010800000440
(1599991180.618360) can0 1F2#9E9FA0A14E535052
(1599991180.618602) can0 26D#40540A0412000000
(1599991180.618886) can0 2A4#0080000000000000
(1599991180.619083) can0 150#7E0004042D036A78
(1599991180.619377) can0 2A5#000F071F00000000
(1599991180.619599) can0 2A7#0000000000001400
(1599991180.619882) can0 2A8#0040000000000057
(1599991180.620137) can0 2AA#0000000000000000
(1599991180.620399) can0 2AE#0100000000000000
(1599991180.620676) can0 3E1#000000000000083D
(1599991180.620946) can0 3E2#000000000000083D
(1599991180.622181) can0 113#0E660000AA090A29
(1599991180.622913) can0 40E#0E100601E0030000
(1599991180.623611) can0 218#5E00000000000E17
(1599991180.623835) can0 2F1#2188FFFFFFFF7800
(1599991180.624361) can0 2F2#110210090A000000
(1599991180.625897) can0 084#0100007A508C9515
(1599991180.626101) can0 085#A5000E6670600050
(1599991180.626645) can0 0E0#005000E0315F0000
(1599991180.627792) can0 1F0#04180000FFFF094F
(1599991180.628029) can0 260#0000000000001D00
(1599991180.629586) can0 191#0000812000000592
(1599991180.635999) can0 084#0100007A508C9664
(1599991180.636197) can0 085#A5000E50F8600060
(1599991180.636927) can0 288#A500004E00000059
(1599991180.637156) can0 0E0#005000E041A10000
(1599991180.637383) can0 28A#C400020098570F22
(1599991180.637632) can0 122#00000000000005F9
(1599991180.637881) can0 123#00000000000005F9
(1599991180.638111) can0 124#2E932F29A2F05013
(1599991180.638354) can0 125#000001080000056F
(1599991180.639130) can0 150#7E0004042D036B57
(1599991180.642214) can0 113#0E660000AA090B06
(1599991180.645919) can0 084#0100007A508C974B
(1599991180.646119) can0 085#A5000E5056600070
(1599991180.646670) can0 0E0#005000E051410000
(1599991180.649574) can0 191#00008120000006E3
(1599991180.652863) can0 2FB#000007DF466407F3
(1599991180.653093) can0 2FC#0A00000000004019
(1599991180.653339) can0 2FD#0000000000001000
(1599991180.655952) can0 084#0100007A508C98D1
(1599991180.656160) can0 085#A5000E508E600080
(1599991180.656930) can0 0E0#005000E0614E0000
(1599991180.657161) can0 2C2#0000000000000000
(1599991180.657401) can0 122#0000000000000688
(1599991180.657647) can0 123#0000000000000688
(1599991180.657879) can0 124#2E932F29A2F060CE
(1599991180.658120) can0 125#000001080000061E
(1599991180.658765) can0 285#0140014000000100
(1599991180.659075) can0 150#7E0004046D036C6B
(1599991180.662198) can0 113#0E500000AA090C46
(1599991180.665922) can0 084#0100007A508C99FE
(1599991180.666123) can0 085#A5000E5020600090
(1599991180.666662) can0 0E0#005000E071AE0000
(1599991180.667766) can0 1F2#9E9FA0A14E535052
(1599991180.668202) can0 286#0140014000000000
(1599991180.669577) can0 191#00008120000007CC
(1599991180.676477) can0 084#0100007A508C9A8F
(1599991180.676700) can0 085#A5000E408B6000A0
(1599991180.677335) can0 0E0#005000E0819D0000
(1599991180.677568) can0 122#00000000000007A7
(1599991180.677814) can0 1F0#04180000FFFF0A3E
(1599991180.678058) can0 123#00000000000007A7
(1599991180.678291) can0 124#2E932F29A2F07060
(1599991180.678535) can0 125#0000010800000731
(1599991180.679255) can0 150#7E0004046D036D44
(1599991180.679480) can0 284#004140530C680200
(1599991180.682230) can0 113#0E500000AA090D69
(1599991180.685922) can0 084#0100007A508C9BA0
(1599991180.686135) can0 085#A5000E40256000B0
(1599991180.686676) can0 0E0#005000E0917D0000
(1599991180.688352) can0 287#0059000000000120
(1599991180.689593) can0 191#0000812000000856
(1599991180.696003) can0 084#0100007A508C9C6D
(1599991180.696208) can0 085#A6000E402D6000C0
(1599991180.696975) can0 0E0#005000E0A1720000
(1599991180.697464) can0 122#000000000000083D
(1599991180.697704) can0 123#000000000000083D
(1599991180.697931) can0 124#2E932F29A2F080B8
(1599991180.698175) can0 125#00000108000008AB
(1599991180.699150) can0 150#7E0004042D036EC4
(1599991180.699392) can0 281#00000001000001F0
(1599991180.702194) can0 113#0E400000AA090ECB
(1599991180.705932) can0 084#0100007A508C9D42
(1599991180.706134) can0 085#A6000E40836000D0
(1599991180.706664) can0 0E0#005100E0B1C60000
(1599991180.706987) can0 2B1#2100000000000000
(1599991180.709547) can0 191#0000812000000979
(1599991180.715896) can0 084#0100007A508C9E33
(1599991180.716100) can0 085#A6000E405E6000E0
(1599991180.716368) can0 2A0#0000000000000000
(1599991180.716620) can0 2A1#0000007F7F7F7F7F
(1599991180.716859) can0 0E0#005000E0C16C0000
(1599991180.717099) can0 2A3#E707E71800000300
(1599991180.717343) can0 122#0000000000000912
(1599991180.717585) can0 123#0000000000000912
(1599991180.717813) can0 124#2E932F29A2F09016
(1599991180.718054) can0 125#0000010800000984
(1599991180.718287) can0 1F2#9E9FA0A14E535052
(1599991180.718523) can0 26D#40540A0412000000
(1599991180.718774) can0 2A4#0080000000000000
(1599991180.719012) can0 150#7E0004046D036F1A
(1599991180.719260) can0 2A5#000F071F00000000
(1599991180.719523) can0 2A7#0000000000001400
(1599991180.719794) can0 2A8#00400000000010F9
(1599991180.720092) can0 2AA#0000000000000000
(1599991180.720339) can0 2AE#0100000000000000
(1599991180.722181) can0 113#0E400000AA090FE4
(1599991180.723634) can0 218#5E00000000000F38
(1599991180.723859) can0 2F1#2188FFFFFFFF7800
(1599991180.724228) can0 2F2#110210090A000000
(1599991180.725939) can0 084#0100007A508C9F1C
(1599991180.726142) can0 085#A6000E463F6000F0
(1599991180.726670) can0 0E0#005100E0D1D80000
(1599991180.727748) can0 1F0#04180000FFFF0B11
(1599991180.727982) can0 260#0000000000001D00
(1599991180.728227) can0 3F6#3D25FF00000007CE
(1599991180.729589) can0 191#0000812000000A08
(1599991180.736004) can0 084#0100007A508C9086
(1599991180.736214) can0 085#A6000E46E7600000
(1599991180.736939) can0 288#A500004E00000059
(1599991180.737172) can0 0E0#005000E0E1830000
(1599991180.737402) can0 28A#C30002009857002A
(1599991180.737651) can0 122#0000000000000A63
(1599991180.737893) can0 123#0000000000000A63
(1599991180.738123) can0 124#2E932F29A2F0A0CB
(1599991180.738364) can0 125#0000010800000AF5
(1599991180.739153) can0 150#7E0004046D036080
(1599991180.742189) can0 113#0E460000AA0900A9
(1599991180.745944) can0 084#0100007A508C91A9
(1599991180.746146) can0 085#A6000E4649600010
(1599991180.746676) can0 0E0#005100E0F1370000
(1599991180.749572) can0 191#0000812000000B27
(1599991180.752837) can0 2FB#000007DC466607F6
(1599991180.753065) can0 2FC#0A00000000004019
(1599991180.753311) can0 2FD#0000000000001000
(1599991180.755935) can0 084#0100007A508C92D8
(1599991180.756154) can0 085#A6000E4694600020
(1599991180.756913) can0 0E0#005100E001040000
(1599991180.757399) can0 122#0000000000000B4C
(1599991180.757636) can0 123#0000000000000B4C
(1599991180.757864) can0 124#2E932F29A2F0B065
(1599991180.758112) can0 125#0000010800000BDA
(1599991180.758361) can0 2C2#0000000000000000
(1599991180.758741) can0 285#0140014000000100
(1599991180.759074) can0 150#7E0004042D03615E
(1599991180.762216) can0 113#0E460000AA090186
(1599991180.765941) can0 084#0100007A508C93F7
(1599991180.766151) can0 085#A6000E3AE6600030
(1599991180.766678) can0 0E0#005100E011E40000
(1599991180.767678) can0 1F2#9E9FA0A14E535052
(1599991180.767943) can0 402#0210020102000000
(1599991180.768167) can0 286#0140014000000000
(1599991180.769581) can0 191#0000812000000CEA
(1599991180.775956) can0 084#0100007A508C943A
(1599991180.776160) can0 085#A6000E3ADD600040
(1599991180.776923) can0 0E0#005000E021BF0000
(1599991180.777405) can0 122#0000000000000C81
(1599991180.777643) can0 1F0#04180000FFFF0CDC
(1599991180.777891) can0 123#0000000000000C81
(1599991180.778118) can0 124#2E932F29A2F0C05E
(1599991180.778364) can0 125#0000010800000C17
(1599991180.779019) can0 284#004140530C680200
(1599991180.779240) can0 150#7E0004046D0362DE
(1599991180.782203) can0 113#0E3A0000AA090211
(1599991180.785928) can0 084#0100007A508C9515
(1599991180.786167) can0 085#A6000E3A73600050
(1599991180.786684) can0 0E0#005000E0315F0000
(1599991180.788187) can0 287#0059000000000120
(1599991180.789559) can0 191#0000812000000DC5
(1599991180.790229) can0 380#17E0EC0000000000
(1599991180.795990) can0 084#0100007A508C9664
(1599991180.796185) can0 085#A6000E3AAE600060
(1599991180.796953) can0 0E0#005000E041A10000
(1599991180.797440) can0 122#0000000000000DAE
(1599991180.797681) can0 123#0000000000000DAE
(1599991180.797903) can0 124#2E932F29A2F0D0F0
(1599991180.798146) can0 125#0000010800000D38
(1599991180.799132) can0 150#7E0004046D0363F1
(1599991180.799377) can0 281#0000000100000281
(1599991180.799621) can0 390#0800000000000000
(1599991180.802201) can0 113#0E3A0000AA09033E
(1599991180.805954) can0 084#0100007A508C974B
(1599991180.806163) can0 085#A6000E3A00600070
(1599991180.806699) can0 0E0#005100E051150000
(1599991180.806983) can0 2AB#0190430000030100
(1599991180.807243) can0 2B1#2100000000000000
(1599991180.809587) can0 191#0000812000000EB4
(1599991180.815955) can0 084#0100007A508C98D1
(1599991180.816154) can0 085#A6000E40CB600080
(1599991180.816396) can0 2A0#0000000000000000
(1599991180.816671) can0 2A1#0000007F7F7F7F7F
(1599991180.816907) can0 0E0#005000E0614E0000
(1599991180.817142) can0 2A3#E707E71800000300
(1599991180.817400) can0 122#0000000000000EDF
(1599991180.817645) can0 123#0000000000000EDF
(1599991180.817872) can0 124#2E932F29A2F0E02D
(1599991180.818111) can0 125#0000010800000E49
(1599991180.818344) can0 1F2#9E9FA0A14E535052
(1599991180.818584) can0 26D#40540A0412000000
(1599991180.818835) can0 2A4#0080000000000000
(1599991180.819068) can0 150#7E0004042D0364CD
(1599991180.819350) can0 2A5#000F071F00000000
(1599991180.819583) can0 2A7#0000000000001400
(1599991180.819850) can0 2A8#0040000000002024
(1599991180.820118) can0 2AA#0000000000000000
(1599991180.820385) can0 2AE#0100000000000000
(1599991180.820653) can0 3E1#0000000000000912
(1599991180.820920) can0 3E2#0000000000000912
(1599991180.822188) can0 113#0E3A0000AA0904F3
(1599991180.823631) can0 218#5E000000000000A2
(1599991180.823855) can0 2F1#2188FFFFFFFF7800
(1599991180.824325) can0 2F2#110210090A000000
(1599991180.825964) can0 084#0100007A508C99FE
(1599991180.826171) can0 085#A6000E4065600090
(1599991180.826712) can0 0E0#005000E071AE0000
(1599991180.827729) can0 1F0#04180000FFFF0DF3
(1599991180.827959) can0 260#0000000000001D00
(1599991180.829588) can0 191#0000812000000F9B
(1599991180.832143) can0 41C#1C00020102000000
(1599991180.835952) can0 084#0100007A508C9A8F
(1599991180.836170) can0 085#A6000E40B86000A0
(1599991180.836884) can0 288#A500004E00000059
(1599991180.837130) can0 0E0#005000E0819D0000
(1599991180.837359) can0 28A#C300020098570105
(1599991180.837611) can0 122#0000000000000FF0
(1599991180.837858) can0 123#0000000000000FF0
(1599991180.838086) can0 124#2E932F29A2F0F083
(1599991180.838325) can0 125#0000010800000F66
(1599991180.838568) can0 415#1500050110000000
(1599991180.839098) can0 150#7E0004042D0365E2
(1599991180.842229) can0 113#0E400000AA0905ED
(1599991180.845973) can0 084#0100007A508C9BA0
(1599991180.846179) can0 085#A6000E40166000B0
(1599991180.846714) can0 0E0#005000E0917D0000
(1599991180.849585) can0 191#0000812000000001
(1599991180.852811) can0 2FB#000007DF465F07F3
(1599991180.853039) can0 2FC#0A00000000004019
(1599991180.853285) can0 2FD#0000000000001000
(1599991180.855964) can0 084#0100007A508C9C6D
(1599991180.856173) can0 085#A6000E4C9C6000C0
(1599991180.856928) can0 0E0#005100E0A1260000
(1599991180.857420) can0 122#000000000000006A
(1599991180.857663) can0 123#000000000000006A
(1599991180.857892) can0 124#2E932F29A2F0005B
(1599991180.858144) can0 125#00000108000000FC
(1599991180.858721) can0 285#0140014000000100
(1599991180.859095) can0 150#7E0004042D036693
(1599991180.859344) can0 2C2#0000000000000000
(1599991180.862203) can0 113#0E400000AA09069C
(1599991180.865968) can0 084#0100007A408C9DA2
(1599991180.866174) can0 085#A6000E4C326000D0
(1599991180.866702) can0 0E0#005000E0B1920000
(1599991180.867666) can0 1F2#9E9FA0A14E535052
(1599991180.867941) can0 3F1#015F6F0001219E00
(1599991180.868159) can0 286#0140014000000000
(1599991180.869595) can0 191#000081200000012E
(1599991180.875972) can0 084#0100007A408C9ED3
(1599991180.876172) can0 085#A6000E4CEF6000E0
(1599991180.876938) can0 0E0#005100E0C1380000
(1599991180.877420) can0 122#0000000000000145
(1599991180.877659) can0 1F0#04180000FFFF0E82
(1599991180.877906) can0 123#0000000000000145
(1599991180.878133) can0 124#2E932F29A2F010F5
(1599991180.878376) can0 125#00000108000001D3
(1599991180.878982) can0 284#004140530C680200
(1599991180.879214) can0 150#7E0004042D0367BC
(1599991180.882207) can0 113#0E4C0000AA090732
(1599991180.885992) can0 084#0100007A408C9FFC
(1599991180.886195) can0 085#A6000E4C416000F0
(1599991180.886729) can0 0E0#005000E0D18C0000
(1599991180.887928) can0 3F0#2534340702170007
(1599991180.888153) can0 287#0059000000000120
(1599991180.889589) can0 191#000081200000025F
(1599991180.896005) can0 084#0100007A408C9066
(1599991180.896205) can0 085#A6000E46E7600000
(1599991180.896954) can0 0E0#005100E0E1D70000
(1599991180.897437) can0 122#0000000000000234
(1599991180.897684) can0 370#0F00000000000000
(1599991180.897926) can0 123#0000000000000234
(1599991180.898157) can0 124#2E932F29A2F02028
(1599991180.898403) can0 125#00000108000002A2
(1599991180.899125) can0 150#7E0004042D036826
(1599991180.899368) can0 281#00000001000003AE
(1599991180.902208) can0 113#0E4C0000AA0908A8
(1599991180.905994) can0 084#0100007A408C9149
(1599991180.906195) can0 085#A6000E4649600010
(1599991180.906735) can0 0E0#005000E0F1630000
(1599991180.907007) can0 2B1#2100000000000000
(1599991180.907916) can0 3F7#FFF0FFF8FFF807C6
(1599991180.909601) can0 191#0000812000000370
(1599991180.915985) can0 084#0100007A408C9238
(1599991180.916236) can0 2A0#0000000000000000
(1599991180.916452) can0 085#A6000E4694600020
(1599991180.916693) can0 2A1#0000007F7F7F7F7F
(1599991180.916946) can0 0E0#005100E001040000
(1599991180.917185) can0 2A3#E707E71800000300
(1599991180.917445) can0 122#000000000000031B
(1599991180.917675) can0 1F2#9E9FA0A14E535052
(1599991180.917923) can0 123#000000000000031B
(1599991180.918147) can0 124#2E932F29A2F03086
(1599991180.918387) can0 125#000001080000038D
(1599991180.918626) can0 26D#40540A0412000000
(1599991180.918877) can0 2A4#0080000000000000
(1599991180.919113) can0 150#7E0004042D036909
(1599991180.919391) can0 2A5#000F071F00000000
(1599991180.919631) can0 2A7#0000000000001400
(1599991180.919898) can0 2A8#004000000000308A
(1599991180.920168) can0 2AA#0000000000000000
(1599991180.920437) can0 2AE#0100000000000000
(1599991180.922183) can0 113#0E460000AA0909D1
(1599991180.923631) can0 218#5E0000000000018D
(1599991180.923857) can0 2F1#2188FFFFFFFF7800
(1599991180.924321) can0 2F2#110210090A000000
(1599991180.925976) can0 084#0100007A408C9317
(1599991180.926200) can0 085#A6000E463A600030
(1599991180.926736) can0 0E0#005000E011B00000
(1599991180.927708) can0 1F0#04180000FFFF0FAD
(1599991180.927937) can0 3F6#3CFFFF0000000862
(1599991180.928183) can0 260#0000000000001D00
(1599991180.929595) can0 191#00008120000004BD
(1599991180.936007) can0 084#0100007A408C94DA
(1599991180.936204) can0 085#A7000E46F5600040
(1599991180.936933) can0 288#A500004E00000059
(1599991180.937160) can0 0E0#005000E021BF0000
(1599991180.937398) can0 28A#C300020098570274
(1599991180.937638) can0 122#00000000000004D6
(1599991180.937885) can0 123#00000000000004D6
(1599991180.938114) can0 124#2E932F29A2F040BD
(1599991180.938354) can0 125#0000010800000440
(1599991180.939127) can0 150#7E0004046D036A89
(1599991180.942224) can0 113#0E460000AA090AA0
(1599991180.946009) can0 084#0100007A408C95F5
(1599991180.946210) can0 085#A7000E48AF600050
(1599991180.946737) can0 0E0#005100E0310B0000
(1599991180.949579) can0 191#0000812000000592
(1599991180.952851) can0 2FB#000007DE466207F5
(1599991180.953089) can0 2FC#0A00000000004019
(1599991180.953333) can0 2FD#0000000000001000
(1599991180.956000) can0 084#0100007A408C9684
(1599991180.956213) can0 085#A7000E4872600060
(1599991180.956980) can0 0E0#005100E041F50000
(1599991180.957466) can0 122#00000000000005F9
(1599991180.957705) can0 123#00000000000005F9
(1599991180.957934) can0 124#2E932F29A2F05013
(1599991180.958178) can0 125#000001080000056F
(1599991180.958739) can0 285#0140014000000100
(1599991180.959132) can0 150#7E0004042D036B57
(1599991180.960140) can0 2C2#0000000000000000
(1599991180.962204) can0 113#0E480000AA090BA6
(1599991180.965995) can0 084#0100007A408C97AB
(1599991180.966203) can0 085#A7000E48DC600070
(1599991180.966748) can0 0E0#005000E051410000
(1599991180.967618) can0 1F2#9E9FA0A14E535052
(1599991180.968125) can0 286#0140014000000000
(1599991180.969594) can0 191#00008120000006E3
(1599991180.975852) can0 084#0100007A408C9831
(1599991180.976048) can0 085#A7000E4804600080
(1599991180.976818) can0 0E0#005000E0614E0000
(1599991180.977307) can0 122#0000000000000688
(1599991180.977541) can0 1F0#04180000FFFF0037
(1599991180.977788) can0 123#0000000000000688
(1599991180.978014) can0 124#2E932F29A2F060CE
(1599991180.978254) can0 125#000001080000061E
(1599991180.978972) can0 284#004140530C680200
(1599991180.979191) can0 150#7E0004042D036C9A
(1599991180.982196) can0 113#0E480000AA090C6B
(1599991180.986016) can0 084#0100007A408C991E
(1599991180.986220) can0 085#A7000E4AEF600090
(1599991180.986759) can0 0E0#005100E071FA0000
(1599991180.988161) can0 287#0059000000000120
(1599991180.989607) can0 191#00008120000007CC
(1599991180.990302) can0 380#17F03F0000000000
(1599991180.996012) can0 084#0100007A408C9A6F
(1599991180.996213) can0 407#0710050110000000
(1599991180.996447) can0 085#A7000E4A326000A0
(1599991180.996985) can0 0E0#005000E0819D0000
(1599991180.997468) can0 122#00000000000007A7
(1599991180.997708) can0 123#00000000000007A7
(1599991180.997940) can0 124#2E932F29A2F07060
(1599991180.998184) can0 125#0000010800000731
(1599991180.999158) can0 150#7E0004046D036D44
(1599991180.999410) can0 281#0000000100000463
(1599991181.002188) can0 113#0E4A0000AA090DEC
(1599991181.005996) can0 084#0100007A408C9B40
(1599991181.006221) can0 085#A7000E4A9C6000B0
(1599991181.006757) can0 0E0#005100E091290000
(1599991181.006997) can0 2AB#0190430000030100
(1599991181.007253) can0 2B1#2100000000000000
(1599991181.009597) can0 191#0000812000000856
(1599991181.016075) can0 084#0100007A408C9C8D
(1599991181.016421) can0 085#A7000E4AA76000C0
(1599991181.016527) can0 2A0#0000000000000000
(1599991181.016804) can0 2A1#0000007F7F7F7F7F
(1599991181.017043) can0 0E0#005100E0A1260000
(1599991181.017312) can0 2A3#E707E71800000300
(1599991181.017533) can0 122#000000000000083D
(1599991181.017766) can0 1F2#9E9FA0A14E535052
(1599991181.018011) can0 123#000000000000083D
(1599991181.018236) can0 124#2E932F29A2F080B8
(1599991181.018481) can0 125#00000108000008AB
(1599991181.018722) can0 26D#40540A0412000000
(1599991181.018973) can0 2A4#0080000000000000
(1599991181.019207) can0 150#7E0004046D036E35
(1599991181.019451) can0 2A5#000F071F00000000
(1599991181.019723) can0 2A7#0000000000001400
(1599991181.019984) can0 2A8#00400000000040B1
(1599991181.020568) can0 2AA#0000000000000000
(1599991181.020605) can0 2AE#0100000000000000
(1599991181.020793) can0 3E1#0000000000000A63
(1599991181.021055) can0 3E2#0000000000000A63
(1599991181.022188) can0 113#0E4A0000AA090E9D
(1599991181.023652) can0 218#5E000000000002FC
(1599991181.023871) can0 2F1#2188FFFFFFFF7800
(1599991181.024476) can0 2F2#110210090A000000
(1599991181.026026) can0 084#0100007A408C9DA2
(1599991181.026229) can0 085#A7000E4A096000D0
(1599991181.026560) can0 0E0#005000E0B1920000
(1599991181.027683) can0 1F0#04180000FFFF0118
(1599991181.027940) can0 260#0000000000001D00
(1599991181.029608) can0 191#0000812000000979
(1599991181.036033) can0 084#0100007A508C9E33
(1599991181.036228) can0 085#A7000E42EF6000E0
(1599991181.036963) can0 288#A500004E00000059
(1599991181.037184) can0 0E0#005000E0C16C0000
(1599991181.037414) can0 28A#C30002009857035B
(1599991181.037659) can0 122#0000000000000912
(1599991181.037904) can0 123#0000000000000912
(1599991181.038133) can0 124#2E932F29A2F09016
(1599991181.038372) can0 125#0000010800000984
(1599991181.039163) can0 150#7E0004042D036FEB
(1599991181.042233) can0 113#0E4A0000AA090FB2
(1599991181.046030) can0 084#0100007A508C9F1C
(1599991181.046235) can0 085#A7000E42416000F0
(1599991181.046562) can0 0E0#005000E0D18C0000
(1599991181.049608) can0 191#0000812000000A08
(1599991181.052801) can0 2FB#000007DD465F07F3
(1599991181.053027) can0 2FC#0A00000000004019
(1599991181.053275) can0 2FD#0000000000001000
(1599991181.056019) can0 084#0100007A508C9086
(1599991181.056332) can0 085#A7000E4299600000
(1599991181.056996) can0 0E0#005000E0E1830000
(1599991181.057473) can0 122#0000000000000A63
(1599991181.057710) can0 123#0000000000000A63
(1599991181.057941) can0 124#2E932F29A2F0A0CB
(1599991181.058179) can0 125#0000010800000AF5
(1599991181.058742) can0 285#0140014000000100
(1599991181.059144) can0 150#7E0004042D036071
(1599991181.061215) can0 2C2#0000000000000000
(1599991181.062191) can0 113#0E420000AA0900D6
(1599991181.065775) can0 084#0100007A508C91A9
(1599991181.065996) can0 085#A7000E4237600010
(1599991181.066530) can0 0E0#005100E0F1370000
(1599991181.067605) can0 1F2#9E9FA0A14E535052
(1599991181.068090) can0 286#0140014000000000
(1599991181.069595) can0 191#0000812000000B27
(1599991181.076005) can0 084#0100007A508C92D8
(1599991181.076224) can0 085#A7000E38F9600020
(1599991181.076983) can0 0E0#005100E001040000
(1599991181.077461) can0 122#0000000000000B4C
(1599991181.077698) can0 1F0#04180000FFFF0269
(1599991181.077944) can0 123#0000000000000B4C
(1599991181.078169) can0 124#2E932F29A2F0B065
(1599991181.078409) can0 125#0000010800000BDA
(1599991181.078942) can0 284#004140530C680200
(1599991181.079170) can0 150#7E0004042D03615E
(1599991181.082197) can0 113#0E420000AA0901F9
(1599991181.086031) can0 084#0100007A508C93F7
(1599991181.086244) can0 085#A7000E3857600030
(1599991181.086572) can0 0E0#005000E011B00000
(1599991181.088131) can0 287#0059000000000120
(1599991181.089596) can0 191#0000812000000CEA
(1599991181.096063) can0 084#0100007A508C943A
(1599991181.096335) can0 085#A7000E386C600040
(1599991181.097022) can0 0E0#005000E021BF0000
(1599991181.097503) can0 122#0000000000000C81
(1599991181.097746) can0 123#0000000000000C81
(1599991181.097972) can0 124#2E932F29A2F0C05E
(1599991181.098214) can0 125#0000010800000C17
(1599991181.099181) can0 150#7E0004042D03622F
(1599991181.099427) can0 281#000000010000054C
(1599991181.102206) can0 113#0E380000AA0902B9
(1599991181.105800) can0 084#0100007A508C9515
(1599991181.106003) can0 085#A7000E38C2600050
(1599991181.106548) can0 0E0#005000E0315F0000
(1599991181.107020) can0 2B1#2100000000000000
(1599991181.109618) can0 191#0000812000000DC5
(1599991181.116034) can0 084#0100007A508C9664
(1599991181.116228) can0 085#A7000E4872600060
(1599991181.116563) can0 2A0#0000000000000000
(1599991181.116742) can0 2A1#0000007F7F7F7F7F
(1599991181.117015) can0 0E0#005000E041A10000
(1599991181.117223) can0 2A3#E707E71800000300
(1599991181.117469) can0 122#0000000000000DAE
(1599991181.117701) can0 1F2#9E9FA0A14E535052
(1599991181.117946) can0 123#0000000000000DAE
(1599991181.118172) can0 124#2E932F29A2F0D0F0
(1599991181.118411) can0 125#0000010800000D38
(1599991181.118651) can0 26D#40540A0412000000
(1599991181.118902) can0 2A4#0080000000000000
(1599991181.119144) can0 150#7E0004042D036300
(1599991181.119392) can0 2A5#000F071F00000000
(1599991181.119656) can0 2A7#0000000000001400
(1599991181.119928) can0 2A8#004000000000501F
(1599991181.120192) can0 2AA#0000000000000000
(1599991181.120462) can0 2AE#0100000000000000
(1599991181.122233) can0 113#0E380000AA090396
(1599991181.122914) can0 40E#0E100601E0030000
(1599991181.123686) can0 218#5E000000000003D3
(1599991181.123913) can0 2F1#2188FFFFFFFF7800
(1599991181.124363) can0 2F2#110210090A000000
(1599991181.125797) can0 084#0100007A408C97AB
(1599991181.126006) can0 085#A7000E48DC600070
(1599991181.126558) can0 0E0#005000E051410000
(1599991181.127655) can0 1F0#04180000FFFF0346
(1599991181.127926) can0 3F6#3D25FF000000097B
(1599991181.128175) can0 260#0000000000001D00
(1599991181.129614) can0 191#0000812000000EB4
(1599991181.136073) can0 084#0100007A508C98D1
(1599991181.136356) can0 085#A7000E4804600080
(1599991181.137002) can0 288#A500004E00000059
(1599991181.137234) can0 0E0#005000E0614E0000
(1599991181.137461) can0 28A#C300020098570496
(1599991181.137709) can0 122#0000000000000EDF
(1599991181.137956) can0 123#0000000000000EDF
(1599991181.138183) can0 124#2E932F29A2F0E02D
(1599991181.138424) can0 125#0000010800000E49
(1599991181.139203) can0 150#7E0004046D03643C
(1599991181.142269) can0 113#0E480000AA09043C
(1599991181.145804) can0 084#0100007A508C99FE
(1599991181.146004) can0 085#A7000E48AA600090
(1599991181.146549) can0 0E0#005000E071AE0000
(1599991181.149634) can0 191#0000812000000F9B
(1599991181.152794) can0 2FB#000007DB465D07F3
(1599991181.153018) can0 2FC#0A00000000004019
(1599991181.153271) can0 2FD#0000000000001000
(1599991181.156072) can0 084#0100007A508C9A8F
(1599991181.156347) can0 085#A7000E48776000A0
(1599991181.157021) can0 0E0#005100E081C90000
(1599991181.157557) can0 122#0000000000000FF0
(1599991181.157757) can0 123#0000000000000FF0
(1599991181.157985) can0 124#2E932F29A2F0F083
(1599991181.158230) can0 125#0000010800000F66
(1599991181.158481) can0 285#0140014000000100
(1599991181.159246) can0 150#7E0004042D0365E2
(1599991181.162170) can0 2C2#0000000000000000
(1599991181.162381) can0 113#0E480000AA090513
(1599991181.165801) can0 084#0100007A508C9BA0
(1599991181.165999) can0 085#A7000E4A9C6000B0
(1599991181.166541) can0 0E0#005100E091290000
(1599991181.167575) can0 1F2#9E9FA0A14E535052
(1599991181.168061) can0 286#0140014000000000
(1599991181.169618) can0 191#0000812000000001
(1599991181.176090) can0 084#0100007A508C9C6D
(1599991181.176386) can0 085#A8000E4A586000C0
(1599991181.177044) can0 0E0#005000E0A1720000
(1599991181.177533) can0 122#000000000000006A
(1599991181.177769) can0 1F0#04180000FFFF048B
(1599991181.178017) can0 123#000000000000006A
(1599991181.178246) can0 124#2E932F29A2F0005B
(1599991181.178491) can0 125#00000108000000FC
(1599991181.179024) can0 284#004140530C680200
(1599991181.179249) can0 150#7E0004046D036662
(1599991181.182275) can0 113#0E4A0000AA0906CA
(1599991181.185797) can0 084#0100007A508C9D42
(1599991181.186003) can0 085#A8000E4AF66000D0
(1599991181.186545) can0 0E0#005000E0B1920000
(1599991181.188085) can0 287#0059000000000120
(1599991181.189600) can0 191#000081200000012E
(1599991181.190356) can0 380#1700220000000000
(1599991181.196077) can0 084#0100007A408C9ED3
(1599991181.196377) can0 085#A8000E4A2B6000E0
(1599991181.197031) can0 0E0#005100E0C1380000
(1599991181.197522) can0 122#0000000000000145
(1599991181.197764) can0 123#0000000000000145
(1599991181.197991) can0 124#2E932F29A2F010F5
(1599991181.198236) can0 125#00000108000001D3
(1599991181.199206) can0 150#7E0004042D0367BC
(1599991181.199454) can0 281#000000010000063D
(1599991181.202280) can0 113#0E4A0000AA0907E5
(1599991181.205821) can0 084#0100007A408C9FFC
(1599991181.206049) can0 085#A8000E56426000F0
(1599991181.206543) can0 0E0#005100E0D1D80000
(1599991181.207018) can0 2AB#0190430000030100
(1599991181.207272) can0 2B1#2100000000000000
(1599991181.209619) can0 191#000081200000025F
(1599991181.216065) can0 084#0100007A408C9066
(1599991181.216367) can0 2A0#0000000000000000
(1599991181.216503) can0 085#A8000E569A600000
(1599991181.216752) can0 2A1#0000007F7F7F7F7F
(1599991181.217005) can0 0E0#005000E0E1830000
(1599991181.217241) can0 2A3#E707E71800000300
(1599991181.217508) can0 122#0000000000000234
(1599991181.217753) can0 123#0000000000000234
(1599991181.217982) can0 124#2E932F29A2F02028
(1599991181.218226) can0 125#00000108000002A2
(1599991181.218458) can0 1F2#9E9FA0A14E535052
(1599991181.218697) can0 26D#40540A0412000000
(1599991181.218945) can0 2A4#0080000000000000
(1599991181.219184) can0 150#7E0004046D0368D7
(1599991181.219432) can0 2A5#000F071F00000000
(1599991181.219697) can0 2A7#0000000000001400
(1599991181.219964) can0 2A8#00400000000060C2
(1599991181.220231) can0 2AA#0000000000000000
(1599991181.220499) can0 2AE#0100000000000000
(1599991181.220762) can0 3E1#0000000000000B4C
(1599991181.221032) can0 3E2#0000000000000B4C
(1599991181.222258) can0 113#0E560000AA09082D
(1599991181.223724) can0 218#5E0000000000041E
(1599991181.223932) can0 2F1#2188FFFFFFFF7800
(1599991181.224366) can0 2F2#110210090A000000
(1599991181.225811) can0 084#0100007A408C9149
(1599991181.226022) can0 085#A8000E5634600010
(1599991181.226564) can0 0E0#005100E0F1370000
(1599991181.227623) can0 1F0#04180000FFFF05A4
(1599991181.227938) can0 260#0000000000001D00
(1599991181.229630) can0 191#0000812000000370
(1599991181.236076) can0 084#0100007A408C9238
(1599991181.236367) can0 085#A8000E56E9600020
(1599991181.236997) can0 288#A500004E00000059
(1599991181.237235) can0 0E0#005000E001500000
(1599991181.237461) can0 28A#C3000200985705B9
(1599991181.237709) can0 122#000000000000031B
(1599991181.237960) can0 123#000000000000031B
(1599991181.238184) can0 124#2E932F29A2F03086
(1599991181.238429) can0 125#000001080000038D
(1599991181.239202) can0 150#7E0004042D036909
(1599991181.242263) can0 113#0E560000AA090902
(1599991181.245820) can0 084#0100007A408C9317
(1599991181.246020) can0 085#A8000E6829600030
(1599991181.246556) can0 0E0#005100E011E40000
(1599991181.249625) can0 191#00008120000004BD
(1599991181.252838) can0 2FB#000007E1465D07F1
(1599991181.253099) can0 2FC#0A00000000004019
(1599991181.253313) can0 2FD#0000000000001000
(1599991181.256087) can0 084#0100007A508C943A
(1599991181.256364) can0 085#A8000E6812600040
(1599991181.257049) can0 0E0#005100E021EB0000
(1599991181.257532) can0 122#00000000000004D6
(1599991181.257768) can0 123#00000000000004D6
(1599991181.257996) can0 124#2E932F29A2F040BD
(1599991181.258243) can0 125#0000010800000440
(1599991181.258808) can0 285#0140014000000100
(1599991181.259206) can0 150#7E0004042D036A78
(1599991181.262262) can0 113#0E680000AA090A00
(1599991181.263166) can0 2C2#0000000000000000
(1599991181.265803) can0 084#0100007A508C9515
(1599991181.266011) can0 085#A8000E68BC600050
(1599991181.266552) can0 0E0#005000E0315F0000
(1599991181.267543) can0 1F2#9E9FA0A14E535052
(1599991181.267884) can0 402#0210020102000000
(1599991181.268127) can0 286#0140014000000000
(1599991181.269610) can0 191#0000812000000592
(1599991181.275863) can0 084#0100007A508C9664
(1599991181.276056) can0 085#A8000E6861600060
(1599991181.276834) can0 0E0#005000E041A10000
(1599991181.277323) can0 122#00000000000005F9
(1599991181.277560) can0 1F0#04180000FFFF06D5
(1599991181.277803) can0 123#00000000000005F9
(1599991181.278033) can0 124#2E932F29A2F05013
(1599991181.278276) can0 125#000001080000056F
(1599991181.278881) can0 284#004140530C680200
(1599991181.279107) can0 150#7E0004046D036BA6
(1599991181.282267) can0 113#0E680000AA090B2F
(1599991181.285808) can0 084#0100007A508C974B
(1599991181.286011) can0 085#A8000E68CF600070
(1599991181.286565) can0 0E0#005000E051410000
(1599991181.288080) can0 287#0059000000000120
(1599991181.289615) can0 191#00008120000006E3
(1599991181.295863) can0 084#0100007A508C98D1
(1599991181.296059) can0 085#A8000E66E3600080
(1599991181.296834) can0 0E0#005000E0614E0000
(1599991181.297308) can0 122#0000000000000688
(1599991181.297554) can0 123#0000000000000688
(1599991181.297780) can0 124#2E932F29A2F060CE
(1599991181.298021) can0 125#000001080000061E
(1599991181.298995) can0 150#7E0004042D036C9A
(1599991181.299239) can0 281#0000000100000712
(1599991181.299657) can0 390#0800000000000000
(1599991181.302252) can0 113#0E680000AA090CE2
(1599991181.305846) can0 084#0100007A508C99FE
(1599991181.306049) can0 085#A8000E664D600090
(1599991181.306577) can0 0E0#005000E071AE0000
(1599991181.307038) can0 2B1#2100000000000000
(1599991181.309627) can0 191#00008120000007CC
(1599991181.315861) can0 084#0100007A508C9A8F
(1599991181.316059) can0 085#A8000E66906000A0
(1599991181.316359) can0 2A0#0000000000000000
(1599991181.316574) can0 2A1#0000007F7F7F7F7F
(1599991181.316831) can0 0E0#005000E0819D0000
(1599991181.317069) can0 2A3#E707E71800000300
(1599991181.317314) can0 122#00000000000007A7
(1599991181.317565) can0 2A4#0080000000000000
(1599991181.317811) can0 123#00000000000007A7
(1599991181.318043) can0 124#2E932F29A2F07060
(1599991181.318286) can0 125#0000010800000731
(1599991181.318520) can0 1F2#9E9FA0A14E535052
(1599991181.318758) can0 26D#40540A0412000000
(1599991181.318991) can0 150#7E0004042D036DB5
(1599991181.319239) can0 2A5#000F071F00000000
(1599991181.319509) can0 2A7#0000000000001400
(1599991181.319783) can0 2A8#004000000000706C
(1599991181.320051) can0 2AA#0000000000000000
(1599991181.320347) can0 2AE#0100000000000000
(1599991181.322243) can0 113#0E660000AA090DE4
(1599991181.323675) can0 218#5E00000000000531
(1599991181.323908) can0 2F1#2188FFFFFFFF7800
(1599991181.324359) can0 2F2#110210090A000000
(1599991181.325819) can0 084#0100007A508C9BA0
(1599991181.326028) can0 085#A8000E663E6000B0
(1599991181.326566) can0 0E0#005100E091290000
(1599991181.327600) can0 1F0#04180000FFFF07FA
(1599991181.327971) can0 3F6#3D25FF0000000A0A
(1599991181.328211) can0 260#0000000000001D00
(1599991181.329622) can0 191#0000812000000856
(1599991181.333180) can0 41C#1C00020102000000
(1599991181.335890) can0 084#0100007A508C9C6D
(1599991181.336094) can0 085#A8000E72F96000C0
(1599991181.336873) can0 0E0#005000E0A1720000
(1599991181.337097) can0 288#A500004E00000059
(1599991181.337338) can0 415#1500050110000000
(1599991181.337587) can0 122#000000000000083D
(1599991181.337834) can0 123#000000000000083D
(1599991181.338060) can0 124#2E932F29A2F080B8
(1599991181.338305) can0 125#00000108000008AB
(1599991181.339032) can0 150#7E0004046D036E35
(1599991181.339700) can0 28A#C3000200985706C8
(1599991181.342242) can0 113#0E660000AA090E95
(1599991181.345835) can0 084#0100007A508C9D42
(1599991181.346045) can0 085#A8000E72576000D0
(1599991181.346587) can0 0E0#005000E0B1920000
(1599991181.349621) can0 191#0000812000000979
(1599991181.352838) can0 2FB#000007E0466207F2
(1599991181.353064) can0 2FC#0A00000000004019
(1599991181.353315) can0 2FD#0000000000001000
(1599991181.355856) can0 084#0100007A508C9E33
(1599991181.356091) can0 085#A8000E728A6000E0
(1599991181.356834) can0 0E0#005100E0C1380000
(1599991181.357316) can0 122#0000000000000912
(1599991181.357553) can0 123#0000000000000912
(1599991181.357783) can0 124#2E932F29A2F09016
(1599991181.358021) can0 125#0000010800000984
(1599991181.358583) can0 285#0140014000000100
(1599991181.358989) can0 150#7E0004042D036FEB
(1599991181.362238) can0 113#0E720000AA090F16
(1599991181.364193) can0 2C2#0000000000000000
(1599991181.365814) can0 084#0100007A508C9F1C
(1599991181.366027) can0 085#A8000E72246000F0
(1599991181.366571) can0 0E0#005000E0D18C0000
(1599991181.367520) can0 1F2#9E9FA0A14E535052
(1599991181.367999) can0 286#0140014000000000
(1599991181.369625) can0 191#0000812000000A08
(1599991181.375872) can0 084#0100007A508C9086
(1599991181.376077) can0 085#A8000E7C08600000
(1599991181.376845) can0 0E0#005000E0E1830000
(1599991181.377328) can0 122#0000000000000A63
(1599991181.377560) can0 1F0#04180000FFFF0860
(1599991181.377801) can0 123#0000000000000A63
(1599991181.378031) can0 124#2E932F29A2F0A0CB
(1599991181.378273) can0 125#0000010800000AF5
(1599991181.378840) can0 284#004140530C680200
(1599991181.379068) can0 150#7E0004042D036071
(1599991181.382240) can0 113#0E720000AA09008C
(1599991181.385809) can0 084#0100007A508C91A9
(1599991181.386025) can0 085#A8000E7CA6600010
(1599991181.386566) can0 0E0#005000E0F1630000
(1599991181.387950) can0 3F0#2534340702170007
(1599991181.388177) can0 287#0059000000000120
(1599991181.389616) can0 191#0000812000000B27
(1599991181.390396) can0 380#1710F10000000000
(1599991181.395866) can0 084#0100007A508C92D8
(1599991181.396068) can0 085#A8000E7C7B600020
(1599991181.396847) can0 0E0#005000E001500000
(1599991181.397324) can0 122#0000000000000B4C
(1599991181.397568) can0 370#0F00000000000000
(1599991181.397814) can0 123#0000000000000B4C
(1599991181.398042) can0 124#2E932F29A2F0B065
(1599991181.398283) can0 125#0000010800000BDA
(1599991181.398996) can0 150#7E0004046D0361AF
(1599991181.399251) can0 281#0000000100000888
(1599991181.402253) can0 113#0E7C0000AA09018A
(1599991181.405814) can0 084#0100007A508C93F7
(1599991181.406023) can0 085#A9000E7C21600030
(1599991181.406568) can0 0E0#005000E011B00000
(1599991181.407034) can0 2AB#0190430000030100
(1599991181.407284) can0 2B1#2100000000000000
(1599991181.409670) can0 191#0000812000000CEA
(1599991181.415858) can0 084#0100007A508C943A
(1599991181.416053) can0 085#A9000E7C1A600040
(1599991181.416350) can0 2A0#0000000000000000
(1599991181.416571) can0 2A1#0000007F7F7F7F7F
(1599991181.416816) can0 0E0#005100E021EB0000
(1599991181.417055) can0 2A3#E707E71800000300
(1599991181.417307) can0 122#0000000000000C81
(1599991181.417537) can0 1F2#9E9FA0A14E535052
(1599991181.417786) can0 123#0000000000000C81
(1599991181.418012) can0 124#2E932F29A2F0C05E
(1599991181.418254) can0 125#0000010800000C17
(1599991181.418495) can0 26D#40540A0412000000
(1599991181.418749) can0 2A4#0080000000000000
(1599991181.418980) can0 150#7E0004042D03622F
(1599991181.419228) can0 2A5#000F071F00000000
(1599991181.419493) can0 2A7#0000000000001400
(1599991181.419756) can0 2A8#00400000000080B4
(1599991181.420022) can0 2AA#0000000000000000
(1599991181.420357) can0 2AE#0100000000000000
(1599991181.420561) can0 3E1#0000000000000C81
(1599991181.420840) can0 3E2#0000000000000C81
(1599991181.422222) can0 113#0E7C0000AA0902FB
(1599991181.423649) can0 218#5E00000000000640
(1599991181.423878) can0 2F1#2188FFFFFFFF7800
(1599991181.424354) can0 2F2#110210090A000000
(1599991181.425801) can0 084#0100007A508C9515
(1599991181.426015) can0 085#A9000E7A7B600050
(1599991181.426560) can0 0E0#005000E0315F0000
(1599991181.427566) can0 1F0#04180000FFFF094F
(1599991181.427920) can0 260#0000000000001D00
(1599991181.429633) can0 191#0000812000000DC5
(1599991181.436160) can0 084#0100007A508C9664
(1599991181.436385) can0 085#A9000E7AA6600060
(1599991181.437091) can0 288#A500004E00000059
(1599991181.437312) can0 0E0#005000E041A10000
(1599991181.437545) can0 28A#C3000200985707E7
(1599991181.437793) can0 122#0000000000000DAE
(1599991181.438041) can0 123#0000000000000DAE
(1599991181.438264) can0 124#2E932F29A2F0D0F0
(1599991181.438505) can0 125#0000010800000D38
(1599991181.439296) can0 150#7E0004042D036300
(1599991181.442244) can0 113#0E7A0000AA090303
(1599991181.445805) can0 084#0100007A508C974B
(1599991181.446015) can0 085#A9000E7A08600070
(1599991181.446563) can0 0E0#005000E051410000
(1599991181.449645) can0 191#0000812000000EB4
(1599991181.452791) can0 2FB#000007DB466207F3
(1599991181.453019) can0 2FC#0A00000000004019
(1599991181.453265) can0 2FD#0000000000001000
(1599991181.455891) can0 084#0100007A508C98D1
(1599991181.456059) can0 085#A9000E7AD0600080
(1599991181.456827) can0 0E0#005100E0611A0000
(1599991181.457321) can0 122#0000000000000EDF
(1599991181.457565) can0 123#0000000000000EDF
(1599991181.457792) can0 124#2E932F29A2F0E02D
(1599991181.458032) can0 125#0000010800000E49
(1599991181.458587) can0 285#0140014000000100
(1599991181.458982) can0 150#7E0004042D0364CD
(1599991181.462211) can0 113#0E7A0000AA0904CE
(1599991181.465184) can0 2C2#0000000000000000
(1599991181.465783) can0 084#0100007A508C99FE
(1599991181.466017) can0 085#A9000E7EF4600090
(1599991181.466550) can0 0E0#005100E071FA0000
(1599991181.467485) can0 1F2#9E9FA0A14E535052
(1599991181.467969) can0 286#0140014000000000
(1599991181.469625) can0 191#0000812000000F9B
(1599991181.475912) can0 084#0100007A508C9A8F
(1599991181.476103) can0 085#A9000E7E296000A0
(1599991181.476883) can0 0E0#005000E0819D0000
(1599991181.477372) can0 122#0000000000000FF0
(1599991181.477612) can0 1F0#04180000FFFF0A3E
(1599991181.477860) can0 123#0000000000000FF0
(1599991181.478089) can0 124#2E932F29A2F0F083
(1599991181.478328) can0 125#0000010800000F66
(1599991181.478854) can0 284#004140530C680200
(1599991181.479084) can0 150#7E0004046D036513
(1599991181.482234) can0 113#0E7E0000AA09059E
(1599991181.485817) can0 084#0100007A508C9BA0
(1599991181.486024) can0 085#A9000E7E876000B0
(1599991181.486562) can0 0E0#005000E0917D0000
(1599991181.488004) can0 287#0059000000000120
(1599991181.489619) can0 191#0000812000000001
(1599991181.495867) can0 084#0100007A508C9C6D
(1599991181.496060) can0 085#A9000E7EBC6000C0
(1599991181.496364) can0 407#0710050110000000
(1599991181.496837) can0 0E0#005000E0A1720000
(1599991181.497327) can0 122#000000000000006A
(1599991181.497570) can0 123#000000000000006A
(1599991181.497797) can0 124#2E932F29A2F0005B
(1599991181.498049) can0 125#00000108000000FC
(1599991181.499028) can0 150#7E0004042D036693
(1599991181.499280) can0 281#00000001000009A7
(1599991181.502273) can0 113#0E7E0000AA0906EF
(1599991181.505800) can0 084#0100007A508C9D42
(1599991181.506018) can0 085#A9000E7A986000D0
(1599991181.506563) can0 0E0#005001E0B13F0000
(1599991181.507050) can0 2B1#2100000000000000
(1599991181.509608) can0 191#000081200000012E
(1599991181.515925) can0 084#0100007A508C9E33
(1599991181.516078) can0 085#A9000E7A456000E0
(1599991181.516350) can0 2A0#0000000000000000
(1599991181.516571) can0 2A1#0000007F7F7F7F7F
(1599991181.516827) can0 0E0#005000E0C16C0000
(1599991181.517062) can0 2A3#E707E71800000300
(1599991181.517315) can0 122#0000000000000145
(1599991181.517546) can0 1F2#9E9FA0A14E535052
(1599991181.517791) can0 123#0000000000000145
(1599991181.518021) can0 124#2E932F29A2F010F5
(1599991181.518263) can0 125#00000108000001D3
(1599991181.518506) can0 26D#40540A0412000000
(1599991181.518755) can0 2A4#0080000000000000
(1599991181.518998) can0 150#7E0004042D0367BC
(1599991181.519243) can0 2A5#000F071F00000000
(1599991181.519518) can0 2A7#0000000000001400
(1599991181.519781) can0 2A8#004000000000901A
(1599991181.520045) can0 2AA#0000000000000000
(1599991181.520347) can0 2AE#0100000000000000
(1599991181.522239) can0 113#0E7A0000AA0907BF
(1599991181.523666) can0 218#5E0000000000076F
(1599991181.523886) can0 2F1#2188FFFFFFFF7800
(1599991181.524351) can0 2F2#110210090A000000
(1599991181.525815) can0 084#0100007A508C9F1C
(1599991181.526027) can0 085#A9000E7AEB6000F0
(1599991181.526573) can0 0E0#005000E0D18C0000
(1599991181.527534) can0 1F0#04180000FFFF0B11
(1599991181.527970) can0 3F6#3D25FF0000000B25
(1599991181.528206) can0 260#0000000000001D00
(1599991181.529650) can0 191#000081200000025F
(1599991181.535889) can0 084#0100007A508C9086
(1599991181.536093) can0 085#A9000E7A33600000
(1599991181.536864) can0 0E0#005000E0E1830000
(1599991181.537093) can0 288#A500004E00000059
(1599991181.537339) can0 122#0000000000000234
(1599991181.537586) can0 123#0000000000000234
(1599991181.537816) can0 124#2E932F29A2F02028
(1599991181.538060) can0 125#00000108000002A2
(1599991181.539038) can0 150#7E0004042D036826
(1599991181.539702) can0 28A#C30002009857087D
(1599991181.542324) can0 113#0E7A0000AA090825
(1599991181.545808) can0 084#0100007A508C91A9
(1599991181.546020) can0 085#A9000E7A9D600010
(1599991181.546557) can0 0E0#005101E0F19A0000
(1599991181.549640) can0 191#0000812000000370
(1599991181.552784) can0 2FB#000007DE465D07F3
(1599991181.553009) can0 2FC#0A00000000004019
(1599991181.553257) can0 2FD#0000000000001000
(1599991181.555860) can0 084#0100007A508C92D8
(1599991181.556066) can0 085#A9000E7A40600020
(1599991181.556839) can0 0E0#005001E001FD0000
(1599991181.557327) can0 122#000000000000031B
(1599991181.557570) can0 123#000000000000031B
(1599991181.557833) can0 124#2E932F29A2F03086
(1599991181.558041) can0 125#000001080000038D
(1599991181.558600) can0 285#0140014000000100
(1599991181.559003) can0 150#7E0004042D036909
(1599991181.562286) can0 113#0E7A0000AA09090A
(1599991181.565819) can0 084#0100007A508C93F7
(1599991181.566044) can0 085#A9000E7AEE600030
(1599991181.566275) can0 2C2#0000000000000000
(1599991181.566575) can0 0E0#005000E011B00000
(1599991181.567453) can0 1F2#9E9FA0A14E535052
(1599991181.567942) can0 286#0140014000000000
(1599991181.569625) can0 191#00008120000004BD
(1599991181.575865) can0 084#0100007A508C943A
(1599991181.576060) can0 085#A9000E7AD5600040
(1599991181.576840) can0 0E0#005000E021BF0000
(1599991181.577320) can0 122#00000000000004D6
(1599991181.577557) can0 1F0#04180000FFFF0CDC
(1599991181.577802) can0 123#00000000000004D6
(1599991181.578029) can0 124#2E932F29A2F040BD
(1599991181.578270) can0 125#0000010800000440
(1599991181.578796) can0 284#004140530C680200
(1599991181.579029) can0 150#7E0004042D036A78
(1599991181.582309) can0 113#0E7A0000AA090A7B
(1599991181.585815) can0 084#0100007A508C9515
(1599991181.586019) can0 085#A9000E7A7B600050
(1599991181.586557) can0 0E0#005100E0310B0000
(1599991181.587988) can0 287#0059000000000120
(1599991181.589646) can0 191#0000812000000592
(1599991181.590457) can0 380#1720AB0000000000
(1599991181.595865) can0 084#0100007A508C9664
(1599991181.596062) can0 085#A9000E5C85600060
(1599991181.596841) can0 0E0#005100E041F50000
(1599991181.597329) can0 122#00000000000005F9
(1599991181.597569) can0 123#00000000000005F9
(1599991181.597796) can0 124#2E932F29A2F05013
(1599991181.598039) can0 125#000001080000056F
(1599991181.599009) can0 150#7E0004046D036BA6
(1599991181.599245) can0 281#0000000100000AD6
(1599991181.602272) can0 113#0E7A0000AA090B54
(1599991181.605827) can0 084#0100007A508C974B
(1599991181.606049) can0 085#A9000E5C2B600070
(1599991181.606587) can0 0E0#005000E051410000
(1599991181.607038) can0 2AB#0190430000030100
(1599991181.607295) can0 2B1#2100000000000000
(1599991181.609631) can0 191#00008120000006E3
(1599991181.615877) can0 084#0100007A508C98D1
(1599991181.616080) can0 085#A9000E5CF3600080
(1599991181.616359) can0 2A0#0000000000000000
(1599991181.616583) can0 2A1#0000007F7F7F7F7F
(1599991181.616857) can0 0E0#005000E0614E0000
(1599991181.617060) can0 2A3#E707E71800000300
(1599991181.617313) can0 122#0000000000000688
(1599991181.617544) can0 1F2#9E9FA0A14E535052
(1599991181.617788) can0 123#0000000000000688
(1599991181.618016) can0 124#2E932F29A2F060CE
(1599991181.618253) can0 125#000001080000061E
(1599991181.618494) can0 26D#40540A0412000000
(1599991181.618744) can0 2A4#0080000000000000
(1599991181.618979) can0 150#7E0004046D036C6B
(1599991181.619225) can0 2A5#000F071F00000000
(1599991181.619493) can0 2A7#0000000000001400
(1599991181.619758) can0 2A8#004000000000A0C7
(1599991181.620025) can0 2AA#0000000000000000
(1599991181.620337) can0 2AE#0100000000000000
(1599991181.620562) can0 3E1#0000000000000DAE
(1599991181.620833) can0 3E2#0000000000000DAE
(1599991181.622279) can0 113#0E5C0000AA090CC7
(1599991181.622906) can0 40E#0E100601E0030000
(1599991181.623722) can0 218#5E000000000008F5
(1599991181.623972) can0 2F1#2188FFFFFFFF7800
(1599991181.624433) can0 2F2#110210090A000000
(1599991181.625812) can0 084#0100007A508C99FE
(1599991181.626049) can0 085#A9000E5C5D600090
(1599991181.626561) can0 0E0#005000E071AE0000
(1599991181.627514) can0 1F0#04180000FFFF0DF3
(1599991181.627941) can0 260#0000000000001D00
(1599991181.629649) can0 191#00008120000007CC
(1599991181.635905) can0 084#0100007A508C9A8F
(1599991181.636100) can0 085#A9000E52746000A0
(1599991181.636883) can0 0E0#005000E0819D0000
(1599991181.637112) can0 288#A500004E00000059
(1599991181.637358) can0 122#00000000000007A7
(1599991181.637602) can0 123#00000000000007A7
(1599991181.637835) can0 124#2E932F29A2F07060
(1599991181.638076) can0 125#0000010800000731
(1599991181.639051) can0 150#7E0004042D036DB5
(1599991181.639710) can0 28A#C2000200985709A6
(1599991181.642291) can0 113#0E5C0000AA090DE8
(1599991181.645828) can0 084#0100007A508C9BA0
(1599991181.646022) can0 085#AA000E52E96000B0
(1599991181.646552) can0 0E0#005100E091290000
(1599991181.649632) can0 191#0000812000000856
(1599991181.652825) can0 2FB#000007DF466207F3
(1599991181.653051) can0 2FC#0A00000000004019
(1599991181.653301) can0 2FD#0000000000001000
(1599991181.655842) can0 084#0100007A508C9C6D
(1599991181.656096) can0 085#AA000E52D26000C0
(1599991181.656845) can0 0E0#005000E0A1720000
(1599991181.657337) can0 122#000000000000083D
(1599991181.657578) can0 123#000000000000083D
(1599991181.657816) can0 124#2E932F29A2F080B8
(1599991181.658044) can0 125#00000108000008AB
(1599991181.658291) can0 285#0140014000000100
(1599991181.658997) can0 150#7E0004046D036E35
(1599991181.662318) can0 113#0E520000AA090EB0
(1599991181.665823) can0 084#0100007A508C9D42
(1599991181.666025) can0 085#AA000E527C6000D0
(1599991181.666553) can0 0E0#005000E0B1920000
(1599991181.667208) can0 2C2#0000000000000000
(1599991181.667425) can0 1F2#9E9FA0A14E535052
(1599991181.667918) can0 286#0140014000000000
(1599991181.669643) can0 191#0000812000000979
(1599991181.675882) can0 084#0100007A508C9E33
(1599991181.676077) can0 085#AA000E52A16000E0
(1599991181.676843) can0 0E0#005000E0C16C0000
(1599991181.677322) can0 122#0000000000000912
(1599991181.677566) can0 1F0#04180000FFFF0E82
(1599991181.677812) can0 123#0000000000000912
(1599991181.678038) can0 124#2E932F29A2F09016
(1599991181.678278) can0 125#0000010800000984
(1599991181.678830) can0 284#004140530C680200
(1599991181.679061) can0 150#7E0004042D036FEB
(1599991181.682321) can0 113#0E520000AA090F9F
(1599991181.685831) can0 084#0100007A508C9F1C
(1599991181.686031) can0 085#AA000E4C8D6000F0
(1599991181.686564) can0 0E0#005000E0D18C0000
(1599991181.687957) can0 287#0059000000000120
(1599991181.689646) can0 191#0000812000000A08
(1599991181.695900) can0 084#0100007A508C9086
(1599991181.696101) can0 085#AA000E4C55600000
(1599991181.696877) can0 0E0#005000E0E1830000
(1599991181.697355) can0 122#0000000000000A63
(1599991181.697592) can0 123#0000000000000A63
(1599991181.697822) can0 124#2E932F29A2F0A0CB
(1599991181.698065) can0 125#0000010800000AF5
(1599991181.699045) can0 150#7E0004042D036071
(1599991181.699284) can0 281#0000000100000BF9
(1599991181.702322) can0 113#0E4C0000AA0900FF
(1599991181.705807) can0 084#0100007A508C91A9
(1599991181.706065) can0 085#AA000E4CFB600010
(1599991181.706561) can0 0E0#005000E0F1630000
(1599991181.707055) can0 2B1#2100000000000000
(1599991181.709643) can0 191#0000812000000B27
(1599991181.715887) can0 084#0100007A508C92D8
(1599991181.716085) can0 085#AA000E4C26600020
(1599991181.716359) can0 2A0#0000000000000000
(1599991181.716592) can0 2A1#0000007F7F7F7F7F
(1599991181.716847) can0 0E0#005000E001500000
(1599991181.717083) can0 2A3#E707E71800000300
(1599991181.717329) can0 122#0000000000000B4C
(1599991181.717560) can0 1F2#9E9FA0A14E535052
(1599991181.717803) can0 123#0000000000000B4C
(1599991181.718032) can0 124#2E932F29A2F0B065
(1599991181.718277) can0 125#0000010800000BDA
(1599991181.718518) can0 26D#40540A0412000000
(1599991181.718769) can0 2A4#0080000000000000
(1599991181.719008) can0 150#7E0004046D0361AF
(1599991181.719255) can0 2A5#000F071F00000000
(1599991181.719519) can0 2A7#0000000000001400
(1599991181.719789) can0 2A8#004000000000B069
(1599991181.720056) can0 2AA#0000000000000000
(1599991181.720348) can0 2AE#0100000000000000
(1599991181.722306) can0 113#0E4C0000AA0901D0
(1599991181.723760) can0 218#5E000000000009DA
(1599991181.723968) can0 2F1#2188FFFFFFFF7800
(1599991181.724381) can0 2F2#110210090A000000
(1599991181.725840) can0 084#0100007A508C93F7
(1599991181.726049) can0 085#AA000E2ED6600030
(1599991181.726581) can0 0E0#005100E011E40000
(1599991181.727491) can0 1F0#04180000FFFF0FAD
(1599991181.727982) can0 3F6#3CFFFF0000000CDE
(1599991181.728216) can0 260#0000000000001D00
(1599991181.729652) can0 191#0000812000000CEA
(1599991181.735904) can0 084#0100007A508C943A
(1599991181.736106) can0 085#AA000E2EED600040
(1599991181.736879) can0 0E0#005000E021BF0000
(1599991181.737104) can0 288#A500004E00000059
(1599991181.737355) can0 122#0000000000000C81
(1599991181.737605) can0 123#0000000000000C81
(1599991181.737834) can0 124#2E932F29A2F0C05E
(1599991181.738075) can0 125#0000010800000C17
(1599991181.739040) can0 150#7E0004042D03622F
(1599991181.739709) can0 28A#C300020098570A23
(1599991181.742328) can0 113#0E2E0000AA0902BD
(1599991181.745820) can0 084#0100007A508C9515
(1599991181.746031) can0 085#AA000E2E43600050
(1599991181.746577) can0 0E0#005000E0315F0000
(1599991181.749642) can0 191#0000812000000DC5
(1599991181.752816) can0 2FB#000007DE466607F4
(1599991181.753104) can0 2FC#0A00000000004019
(1599991181.753295) can0 2FD#0000000000001000
(1599991181.756066) can0 084#0100007A508C9664
(1599991181.756344) can0 085#AA000E2E9E600060
(1599991181.757068) can0 0E0#005000E041A10000
(1599991181.757527) can0 122#0000000000000DAE
(1599991181.757768) can0 285#0140014000000100
(1599991181.758015) can0 123#0000000000000DAE
(1599991181.758240) can0 124#2E932F29A2F0D0F0
(1599991181.758480) can0 125#0000010800000D38
(1599991181.759202) can0 150#7E0004042D036300
(1599991181.762356) can0 113#0E2E0000AA090392
(1599991181.766303) can0 084#0100007A508C974B
(1599991181.766514) can0 085#AA000E2E30600070
(1599991181.766762) can0 0E0#005000E051410000
(1599991181.767747) can0 1F2#9E9FA0A14E535052
(1599991181.767968) can0 402#0210020102000000
(1599991181.768215) can0 286#0140014000000000
(1599991181.768461) can0 2C2#0000000000000000
(1599991181.769639) can0 191#0000812000000EB4
(1599991181.775875) can0 084#0100007A508C98D1
(1599991181.776089) can0 085#AA000E3E9E600080
(1599991181.776852) can0 0E0#005100E0611A0000
(1599991181.777343) can0 122#0000000000000EDF
(1599991181.777581) can0 1F0#04180000FFFF0037
(1599991181.777825) can0 123#0000000000000EDF
(1599991181.778051) can0 124#2E932F29A2F0E02D
(1599991181.778291) can0 125#0000010800000E49
(1599991181.778821) can0 284#004140530C680200
(1599991181.779051) can0 150#7E0004046D03643C
(1599991181.782332) can0 113#0E2E0000AA09045F
(1599991181.785824) can0 084#0100007A508C99FE
(1599991181.786031) can0 085#AA000E3E30600090
(1599991181.786571) can0 0E0#005000E071AE0000
(1599991181.787930) can0 287#0059000000000120
(1599991181.789649) can0 191#0000812000000F9B
(1599991181.790534) can0 380#1730780000000000
(1599991181.795878) can0 084#0100007A508C9A8F
(1599991181.796072) can0 085#AA000E3EED6000A0
(1599991181.796846) can0 0E0#005100E081C90000
(1599991181.797345) can0 122#0000000000000FF0
(1599991181.797580) can0 123#0000000000000FF0
(1599991181.797807) can0 124#2E932F29A2F0F083
(1599991181.798046) can0 125#0000010800000F66
(1599991181.799026) can0 150#7E0004042D0365E2
(1599991181.799267) can0 281#0000000100000C34
(1599991181.799690) can0 390#0800000000000000
(1599991181.802308) can0 113#0E3E0000AA0905A3
(1599991181.805817) can0 084#0100007A508C9BA0
(1599991181.806028) can0 085#AA000E3E436000B0
(1599991181.806567) can0 0E0#005000E0917D0000
(1599991181.807094) can0 2AB#0190430000030100
(1599991181.807312) can0 2B1#2100000000000000
(1599991181.809649) can0 191#0000812000000001
(1599991181.815879) can0 084#0100007A508C9C6D
(1599991181.816073) can0 085#AA000E3C3D6000C0
(1599991181.816353) can0 2A0#0000000000000000
(1599991181.816585) can0 2A1#0000007F7F7F7F7F
(1599991181.816827) can0 0E0#005101E0A18B0000
(1599991181.817064) can0 2A3#E707E71800000300
(1599991181.817319) can0 122#000000000000006A
(1599991181.817553) can0 1F2#9E9FA0A14E535052
(1599991181.817800) can0 123#000000000000006A
(1599991181.818029) can0 124#2E932F29A2F0005B
(1599991181.818273) can0 125#00000108000000FC
(1599991181.818513) can0 26D#40540A0412000000
(1599991181.818762) can0 2A4#0080000000000000
(1599991181.818999) can0 150#7E0004042D036693
(1599991181.819249) can0 2A5#000F071F00000000
(1599991181.819517) can0 2A7#0000000000001400
(1599991181.819779) can0 2A8#004000000000C052
(1599991181.820047) can0 2AA#0000000000000000
(1599991181.820340) can0 2AE#0100000000000000
(1599991181.820591) can0 3E1#0000000000000EDF
(1599991181.820858) can0 3E2#0000000000000EDF
(1599991181.822322) can0 113#0E3E0000AA0906D2
(1599991181.823771) can0 218#5E00000000000AAB
(1599991181.823981) can0 2F1#2188FFFFFFFF7800
(1599991181.824392) can0 2F2#110210090A000000
(1599991181.825824) can0 084#0100007A508C9D42
(1599991181.826030) can0 085#AA000E3C936000D0
(1599991181.826576) can0 0E0#005001E0B13F0000
(1599991181.827446) can0 1F0#04180000FFFF0118
(1599991181.827984) can0 260#0000000000001D00
(1599991181.829658) can0 191#000081200000012E
(1599991181.834236) can0 41C#1C00020102000000
(1599991181.835889) can0 084#0100007A508C9E33
(1599991181.836097) can0 085#AA000E3C4E6000E0
(1599991181.836869) can0 0E0#005000E0C16C0000
(1599991181.837105) can0 288#A500004E00000059
(1599991181.837343) can0 415#1500050110000000
(1599991181.837590) can0 122#0000000000000145
(1599991181.837835) can0 123#0000000000000145
(1599991181.838063) can0 124#2E932F29A2F010F5
(1599991181.838307) can0 125#00000108000001D3
(1599991181.839036) can0 150#7E0004042D0367BC
(1599991181.839715) can0 28A#C300020098570B0C
(1599991181.842330) can0 113#0E3C0000AA090755
(1599991181.845834) can0 084#0100007A508C9F1C
(1599991181.846039) can0 085#AA000E3CE06000F0
(1599991181.846578) can0 0E0#005000E0D18C0000
(1599991181.849650) can0 191#000081200000025F
(1599991181.852770) can0 2FB#000007DD465F07F4
(1599991181.853034) can0 2FC#0A00000000004019
(1599991181.853246) can0 2FD#0000000000001000
(1599991181.855872) can0 084#0100007A508C9086
(1599991181.856074) can0 085#AA000E40E4600000
(1599991181.856836) can0 0E0#005100E0E1D70000
(1599991181.857322) can0 122#0000000000000234
(1599991181.857564) can0 123#0000000000000234
(1599991181.857793) can0 124#2E932F29A2F02028
(1599991181.858045) can0 285#0140014000000100
(1599991181.858288) can0 125#00000108000002A2
(1599991181.859007) can0 150#7E0004046D0368D7
(1599991181.862321) can0 113#0E3C0000AA0908CF
(1599991181.865831) can0 084#0100007A508C91A9
(1599991181.866032) can0 085#AA000E404A600010
(1599991181.866570) can0 0E0#005100E0F1370000
(1599991181.867380) can0 1F2#9E9FA0A14E535052
(1599991181.867869) can0 286#0140014000000000
(1599991181.868098) can0 3F1#015F6F0001219E00
(1599991181.869235) can0 2C2#0000000000000000
(1599991181.869643) can0 191#0000812000000370
(1599991181.875891) can0 084#0100007A508C92D8
(1599991181.876088) can0 085#AA000E4097600020
(1599991181.876857) can0 0E0#005100E001040000
(1599991181.877343) can0 122#000000000000031B
(1599991181.877581) can0 1F0#04180000FFFF0269
(1599991181.877828) can0 123#000000000000031B
(1599991181.878054) can0 124#2E932F29A2F03086
(1599991181.878295) can0 125#000001080000038D
(1599991181.878822) can0 284#004140530C680200
(1599991181.879054) can0 150#7E0004042D036909
(1599991181.882326) can0 113#0E400000AA090906
(1599991181.885832) can0 084#0100007A508C93F7
(1599991181.886041) can0 085#AB000E40CD600030
(1599991181.886582) can0 0E0#005000E011B00000
(1599991181.887885) can0 287#0059000000000120
(1599991181.888109) can0 3F0#2634340702170007
(1599991181.889650) can0 191#00008120000004BD
(1599991181.895876) can0 084#0100007A508C943A
(1599991181.896076) can0 085#AB000E40F6600040
(1599991181.896843) can0 0E0#005000E021BF0000
(1599991181.897324) can0 122#00000000000004D6
(1599991181.897569) can0 123#00000000000004D6
(1599991181.897799) can0 124#2E932F29A2F040BD
(1599991181.898043) can0 125#0000010800000440
(1599991181.898599) can0 370#0F00000000000000
(1599991181.899003) can0 150#7E0004042D036A78
(1599991181.899260) can0 281#0000000100000D1B
(1599991181.902308) can0 113#0E400000AA090A77
(1599991181.905831) can0 084#0100007A508C9515
(1599991181.906034) can0 085#AB000E5A50600050
(1599991181.906573) can0 0E0#005100E0310B0000
(1599991181.907072) can0 2B1#2100000000000000
(1599991181.907962) can0 3F7#FFF0FFF8FFF807C6
(1599991181.909653) can0 191#0000812000000592
(1599991181.915930) can0 084#0100007A508C9664
(1599991181.916133) can0 085#AB000E5A8D600060
(1599991181.916396) can0 2A0#0000000000000000
(1599991181.916645) can0 2A1#0000007F7F7F7F7F
(1599991181.916893) can0 0E0#005100E041F50000
(1599991181.917129) can0 2A3#E707E71800000300
(1599991181.917383) can0 122#00000000000005F9
(1599991181.917615) can0 1F2#9E9FA0A14E535052
(1599991181.917864) can0 123#00000000000005F9
(1599991181.918099) can0 124#2E932F29A2F05013
(1599991181.918343) can0 125#000001080000056F
(1599991181.918584) can0 26D#40540A0412000000
(1599991181.918829) can0 2A4#0080000000000000
(1599991181.919065) can0 150#7E0004046D036BA6
(1599991181.919313) can0 2A5#000F071F00000000
(1599991181.919581) can0 2A7#0000000000001400
(1599991181.919845) can0 2A8#004000000000D0FC
(1599991181.920114) can0 2AA#0000000000000000
(1599991181.920376) can0 2AE#0100000000000000
(1599991181.922299) can0 113#0E5A0000AA090BDD
(1599991181.923747) can0 218#5E00000000000B84
(1599991181.923965) can0 2F1#2188FFFFFFFF7800
(1599991181.924411) can0 2F2#110210090A000000
(1599991181.925822) can0 084#0100007A508C974B
(1599991181.926043) can0 085#AB000E5A23600070
(1599991181.926570) can0 0E0#005100E051150000
(1599991181.927415) can0 1F0#04180000FFFF0346
(1599991181.927953) can0 3F6#3CFFFF0000000DF1
(1599991181.928192) can0 260#0000000000001D00
(1599991181.929654) can0 191#00008120000006E3
(1599991181.935911) can0 084#0100007A508C98D1
(1599991181.936103) can0 085#AB000E5AFB600080
(1599991181.936874) can0 0E0#005100E0611A0000
(1599991181.937101) can0 288#A500004E00000059
(1599991181.937346) can0 122#0000000000000688
(1599991181.937596) can0 123#0000000000000688
(1599991181.937826) can0 124#2E932F29A2F060CE
(1599991181.938067) can0 125#000001080000061E
(1599991181.939021) can0 150#7E0004042D036C9A
(1599991181.939691) can0 28A#C400020098570C53
(1599991181.942327) can0 113#0E5A0000AA090C10
(1599991181.945823) can0 084#0100007A508C99FE
(1599991181.946033) can0 085#AB000E56E4600090
(1599991181.946564) can0 0E0#005100E071FA0000
(1599991181.949669) can0 191#00008120000007CC
(1599991181.952815) can0 2FB#000007E1466407F3
(1599991181.953002) can0 2FC#0A00000000004019
(1599991181.953251) can0 2FD#0000000000001000
(1599991181.955879) can0 084#0100007A508C9A8F
(1599991181.956076) can0 085#AB000E56396000A0
(1599991181.956846) can0 0E0#005100E081C90000
(1599991181.957334) can0 122#00000000000007A7
(1599991181.957576) can0 123#00000000000007A7
(1599991181.957806) can0 124#2E932F29A2F07060
(1599991181.958051) can0 125#0000010800000731
(1599991181.958602) can0 285#0140014000000100
(1599991181.959009) can0 150#7E0004042D036DB5
(1599991181.962307) can0 113#0E560000AA090DBE
(1599991181.965829) can0 084#0100007A508C9BA0
(1599991181.966038) can0 085#AB000E56976000B0
(1599991181.966568) can0 0E0#005001E091D00000
(1599991181.967348) can0 1F2#9E9FA0A14E535052
(1599991181.967836) can0 286#0140014000000000
(1599991181.969645) can0 191#0000812000000856
(1599991181.970231) can0 2C2#0000000000000000
(1599991181.975882) can0 084#0100007A508C9C6D
(1599991181.976085) can0 085#AB000E56AC6000C0
(1599991181.976858) can0 0E0#005000E0A1720000
(1599991181.977348) can0 122#000000000000083D
(1599991181.977585) can0 1F0#04180000FFFF048B
(1599991181.977833) can0 123#000000000000083D
(1599991181.978059) can0 124#2E932F29A2F080B8
(1599991181.978302) can0 125#00000108000008AB
(1599991181.978829) can0 284#004140530C680200
(1599991181.979056) can0 150#7E0004046D036E35
(1599991181.982302) can0 113#0E560000AA090ECF
(1599991181.985845) can0 084#0100007A508C9D42
(1599991181.986049) can0 085#AB000E62126000D0
(1599991181.986576) can0 0E0#005000E0B1920000
(1599991181.987859) can0 287#0059000000000120
(1599991181.989658) can0 191#0000812000000979
(1599991181.990571) can0 380#17401F0000000000
(1599991181.995886) can0 084#0100007A508C9E33
(1599991181.996087) can0 085#AB000E62CF6000E0
(1599991181.996360) can0 407#0710050110000000
(1599991181.996856) can0 0E0#005000E0C16C0000
(1599991181.997337) can0 122#0000000000000912
(1599991181.997578) can0 123#0000000000000912
(1599991181.997805) can0 124#2E932F29A2F09016
(1599991181.998047) can0 125#0000010800000984
(1599991181.999020) can0 150#7E0004046D036F1A
(1599991181.999260) can0 281#0000000100000E6A
(1599991182.002304) can0 113#0E620000AA090FC5
(1599991182.005843) can0 084#0100007A508C9F1C
(1599991182.006043) can0 085#AB000E62616000F0
(1599991182.006629) can0 0E0#005000E0D18C0000
(1599991182.007073) can0 2AB#0190430000030100
(1599991182.007325) can0 2B1#2100000000000000
(1599991182.009662) can0 191#0000812000000A08
(1599991182.015877) can0 084#0100007A508C9086
(1599991182.016094) can0 085#AB000E62B9600000
(1599991182.016336) can0 2A0#0000000000000000
(1599991182.016603) can0 2A1#0000007F7F7F7F7F
(1599991182.016844) can0 0E0#005100E0E1D70000
(1599991182.017083) can0 2A3#E707E71800000300
(1599991182.017328) can0 122#0000000000000A63
(1599991182.017560) can0 1F2#9E9FA0A14E535052
(1599991182.017805) can0 123#0000000000000A63
(1599991182.018033) can0 124#2E932F29A2F0A0CB
(1599991182.018274) can0 125#0000010800000AF5
(1599991182.018512) can0 26D#40540A0412000000
(1599991182.018764) can0 2A4#0080000000000000
(1599991182.019003) can0 150#7E0004042D036071
(1599991182.019257) can0 2A5#000F071F00000000
(1599991182.019521) can0 2A7#0000000000001400
(1599991182.019785) can0 2A8#004000000000E021
(1599991182.020050) can0 2AA#0000000000000000
(1599991182.020319) can0 2AE#0100000000000000
(1599991182.020592) can0 3E1#0000000000000FF0
(1599991182.020862) can0 3E2#0000000000000FF0
(1599991182.022305) can0 113#0E620000AA09005F
(1599991182.023760) can0 218#5E00000000000C49
(1599991182.023972) can0 2F1#2188FFFFFFFF7800
(1599991182.024431) can0 2F2#110210090A000000
(1599991182.025846) can0 084#0100007A508C91A9
(1599991182.026055) can0 085#AB000E6217600010
(1599991182.026593) can0 0E0#005100E0F1370000
(1599991182.027396) can0 1F0#04180000FFFF05A4
(1599991182.027986) can0 260#0000000000001D00
(1599991182.029671) can0 191#0000812000000B27
(1599991182.035918) can0 084#0100007A508C92D8
(1599991182.036116) can0 085#AB000E6405600020
(1599991182.036896) can0 0E0#005000E001500000
(1599991182.037123) can0 288#A500004E00000059
(1599991182.037369) can0 122#0000000000000B4C
(1599991182.037615) can0 123#0000000000000B4C
(1599991182.037842) can0 124#2E932F29A2F0B065
(1599991182.038086) can0 125#0000010800000BDA
(1599991182.039053) can0 150#7E0004042D03615E
(1599991182.039719) can0 28A#C300020098570DEE
(1599991182.042327) can0 113#0E620000AA090170
(1599991182.045874) can0 084#0100007A508C93F7
(1599991182.046079) can0 085#AB000E64AB600030
(1599991182.046602) can0 0E0#005100E011E40000
(1599991182.049658) can0 191#0000812000000CEA
(1599991182.052763) can0 2FB#000007DE465F07F3
(1599991182.052989) can0 2FC#0A00000000004019
(1599991182.053275) can0 2FD#0000000000001000
(1599991182.055870) can0 084#0100007A508C943A
(1599991182.056083) can0 085#AB000E6490600040
(1599991182.056853) can0 0E0#005000E021BF0000
(1599991182.057343) can0 122#0000000000000C81
(1599991182.057587) can0 123#0000000000000C81
(1599991182.057813) can0 124#2E932F29A2F0C05E
(1599991182.058055) can0 125#0000010800000C17
(1599991182.058613) can0 285#0140014000000100
(1599991182.059010) can0 150#7E0004046D0362DE
(1599991182.062305) can0 113#0E640000AA0902D6
(1599991182.065824) can0 084#0100007A508C9515
(1599991182.066037) can0 085#AB000E643E600050
(1599991182.066585) can0 0E0#005000E0315F0000
(1599991182.067322) can0 1F2#9E9FA0A14E535052
(1599991182.067817) can0 286#0140014000000000
(1599991182.069673) can0 191#0000812000000DC5
(1599991182.071254) can0 2C2#0000000000000000
(1599991182.075882) can0 084#0100007A508C9664
(1599991182.076094) can0 085#AB000E622C600060
(1599991182.076866) can0 0E0#005000E041A10000
(1599991182.077352) can0 122#0000000000000DAE
(1599991182.077591) can0 1F0#04180000FFFF06D5
(1599991182.077841) can0 123#0000000000000DAE
(1599991182.078065) can0 124#2E932F29A2F0D0F0
(1599991182.078309) can0 125#0000010800000D38
(1599991182.078839) can0 284#004140530C680200
(1599991182.079064) can0 150#7E0004042D036300
(1599991182.082325) can0 113#0E640000AA0903F9
(1599991182.085861) can0 084#0100007A508C974B
(1599991182.086076) can0 085#AB000E6282600070
(1599991182.086606) can0 0E0#005100E051150000
(1599991182.087828) can0 287#0059000000000120
(1599991182.089660) can0 191#0000812000000EB4
(1599991182.095889) can0 084#0100007A508C98D1
(1599991182.096087) can0 085#AB000E625A600080
(1599991182.096862) can0 0E0#005000E0614E0000
(1599991182.097349) can0 122#0000000000000EDF
(1599991182.097586) can0 123#0000000000000EDF
(1599991182.097816) can0 124#2E932F29A2F0E02D
(1599991182.098054) can0 125#0000010800000E49
(1599991182.099009) can0 150#7E0004042D0364CD
(1599991182.099261) can0 281#0000000100000F45
(1599991182.102301) can0 113#0E620000AA0904E3
(1599991182.105829) can0 084#0100007A508C99FE
(1599991182.106050) can0 085#AB000E62F4600090
(1599991182.106588) can0 0E0#005100E071FA0000
(1599991182.107132) can0 2B1#2100000000000000
(1599991182.109670) can0 191#0000812000000F9B
(1599991182.115924) can0 084#0100007A508C9A8F
(1599991182.116120) can0 085#AC000E48296000A0
(1599991182.116366) can0 2A0#0000000000000000
(1599991182.116637) can0 2A1#0000007F7F7F7F7F
(1599991182.116888) can0 0E0#005000E0819D0000
(1599991182.117123) can0 1F2#9E9FA0A14E535052
(1599991182.117360) can0 2A3#E707E71800000300
(1599991182.117611) can0 122#0000000000000FF0
(1599991182.117858) can0 123#0000000000000FF0
(1599991182.118085) can0 124#2E932F29A2F0F083
(1599991182.118324) can0 125#0000010800000F66
(1599991182.118566) can0 26D#40540A0412000000
(1599991182.118816) can0 2A4#0080000000000000
(1599991182.119062) can0 150#7E0004042D0365E2
(1599991182.119309) can0 2A5#000F071F00000000
(1599991182.119578) can0 2A7#0000000000001400
(1599991182.119841) can0 2A8#004000000000F08F
(1599991182.120106) can0 2AA#0000000000000000
(1599991182.120369) can0 2AE#0100000000000000
(1599991182.122321) can0 113#0E620000AA0905CC
(1599991182.122896) can0 40E#0E100601E0030000
(1599991182.123736) can0 218#5E00000000000D66
(1599991182.124341) can0 2F1#2188FFFFFFFF7800
(1599991182.124489) can0 2F2#110210090A000000
(1599991182.125825) can0 084#0100007A508C9BA0
(1599991182.126043) can0 085#AC000E48876000B0
(1599991182.126592) can0 0E0#005100E091290000
(1599991182.127363) can0 1F0#04180000FFFF07FA
(1599991182.127961) can0 3F6#3CFFFF0000000E80
(1599991182.128203) can0 260#0000000000001D00
(1599991182.129679) can0 191#0000812000000001
(1599991182.135926) can0 084#0100007A508C9C6D
(1599991182.136121) can0 085#AC000E48BC6000C0
(1599991182.136887) can0 0E0#005100E0A1260000
(1599991182.137116) can0 288#A500004E00000059
(1599991182.137368) can0 122#000000000000006A
(1599991182.137616) can0 123#000000000000006A
(1599991182.137849) can0 124#2E932F29A2F0005B
(1599991182.138097) can0 125#00000108000000FC
(1599991182.139074) can0 150#7E0004042D036693
(1599991182.139736) can0 28A#C200020098570E6B
(1599991182.142331) can0 113#0E480000AA090662
(1599991182.145827) can0 084#0100007A508C9D42
(1599991182.146039) can0 085#AC000E48126000D0
(1599991182.146571) can0 0E0#005000E0B1920000
(1599991182.149669) can0 191#000081200000012E
(1599991182.152760) can0 2FB#000007DD465D07F1
(1599991182.152987) can0 2FC#0A00000000004019
(1599991182.153236) can0 2FD#0000000000001000
(1599991182.155884) can0 084#0100007A508C9E33
(1599991182.156112) can0 085#AC000E48CF6000E0
(1599991182.156864) can0 0E0#005000E0C16C0000
(1599991182.157347) can0 122#0000000000000145
(1599991182.157586) can0 123#0000000000000145
(1599991182.157817) can0 124#2E932F29A2F010F5
(1599991182.158058) can0 125#00000108000001D3
(1599991182.158605) can0 285#0140014000000100
(1599991182.159027) can0 150#7E0004042D0367BC
(1599991182.162329) can0 113#0E480000AA09074D
(1599991182.165846) can0 084#0100007A508C9F1C
(1599991182.166051) can0 085#AC000E48616000F0
(1599991182.166622) can0 0E0#005000E0D18C0000
(1599991182.167291) can0 1F2#9E9FA0A14E535052
(1599991182.167789) can0 286#0140014000000000
(1599991182.169700) can0 191#000081200000025F
(1599991182.172369) can0 2C2#0000000000000000
(1599991182.175923) can0 084#0100007A508C9086
(1599991182.176129) can0 085#AC000E48B9600000
(1599991182.176903) can0 0E0#005000E0E1830000
(1599991182.177201) can0 1F0#04180000FFFF0860
(1599991182.177448) can0 122#0000000000000234
(1599991182.177690) can0 123#0000000000000234
(1599991182.177920) can0 124#2E932F29A2F02028
(1599991182.178164) can0 125#00000108000002A2
(1599991182.178875) can0 284#004140530C680200
(1599991182.179100) can0 150#7E0004046D0368D7
(1599991182.182343) can0 113#0E480000AA0908D7
(1599991182.185840) can0 084#0100007A508C91A9
(1599991182.186052) can0 085#AC000E4817600010
(1599991182.186595) can0 0E0#005100E0F1370000
(1599991182.187816) can0 287#0059000000000120
(1599991182.189686) can0 191#0000812000000370
(1599991182.190632) can0 380#1750CC0000000000
(1599991182.195896) can0 084#0100007A508C92D8
(1599991182.196099) can0 085#AC000E48CA600020
(1599991182.196872) can0 0E0#005100E001040000
(1599991182.197357) can0 122#000000000000031B
(1599991182.197598) can0 123#000000000000031B
(1599991182.197823) can0 124#2E932F29A2F03086
(1599991182.198066) can0 125#000001080000038D
(1599991182.199042) can0 150#7E0004042D036909
(1599991182.199289) can0 281#00000001000000DF
(1599991182.202330) can0 113#0E480000AA0909F8
(1599991182.205855) can0 084#0100007A508C93F7
(1599991182.206061) can0 085#AC000E44D5600030
(1599991182.206590) can0 0E0#005100E011E40000
(1599991182.207089) can0 2AB#0190430000030100
(1599991182.207338) can0 2B1#2100000000000000
(1599991182.209677) can0 191#00008120000004BD
(1599991182.215968) can0 084#0100007A508C943A
(1599991182.216118) can0 085#AC000E44EE600040
(1599991182.216351) can0 2A0#0000000000000000
(1599991182.216606) can0 2A1#0000007F7F7F7F7F
(1599991182.216853) can0 0E0#005000E021BF0000
(1599991182.217086) can0 1F2#9E9FA0A14E535052
(1599991182.217323) can0 2A3#E707E71800000300
(1599991182.217567) can0 122#00000000000004D6
(1599991182.217812) can0 123#00000000000004D6
(1599991182.218043) can0 124#2E932F29A2F040BD
(1599991182.218285) can0 125#0000010800000440
(1599991182.218524) can0 26D#40540A0412000000
(1599991182.218776) can0 2A4#0080000000000000
(1599991182.219017) can0 150#7E0004042D036A78
(1599991182.219263) can0 2A5#000F071F00000000
(1599991182.219529) can0 2A7#0000000000001400
(1599991182.219796) can0 2A8#0040000000000057
(1599991182.220062) can0 2AA#0000000000000000
(1599991182.220332) can0 2AE#0100000000000000
(1599991182.220605) can0 3E1#000000000000006A
(1599991182.220871) can0 3E2#000000000000006A
(1599991182.222312) can0 113#0E440000AA090A08
(1599991182.223758) can0 218#5E00000000000E17
(1599991182.223978) can0 2F1#2188FFFFFFFF7800
(1599991182.224457) can0 2F2#110210090A000000
(1599991182.225855) can0 084#0100007A508C9515
(1599991182.226062) can0 085#AC000E4440600050
(1599991182.226642) can0 0E0#005000E0315F0000
(1599991182.227335) can0 1F0#04180000FFFF094F
(1599991182.227992) can0 260#0000000000001D00
(1599991182.229680) can0 191#0000812000000592
(1599991182.236165) can0 084#0100007A508C9664
(1599991182.236379) can0 085#AC000E449D600060
(1599991182.237163) can0 0E0#005000E041A10000
(1599991182.237380) can0 288#A500004E00000059
(1599991182.237630) can0 122#00000000000005F9
(1599991182.237876) can0 123#00000000000005F9
(1599991182.238106) can0 124#2E932F29A2F05013
(1599991182.238347) can0 125#000001080000056F
(1599991182.239305) can0 150#7E0004042D036B57
(1599991182.239987) can0 28A#C100020098570F77
(1599991182.242407) can0 113#0E440000AA090B27
(1599991182.245848) can0 084#0100007A508C974B
(1599991182.246052) can0 085#AC000E4433600070
(1599991182.246598) can0 0E0#005000E051410000
(1599991182.249665) can0 191#00008120000006E3
(1599991182.252748) can0 2FB#000007DB465D07F5
(1599991182.252981) can0 2FC#0A00000000004019
(1599991182.253225) can0 2FD#0000000000001000
(1599991182.255887) can0 084#0100007A508C98D1
(1599991182.256095) can0 085#AC000E3EF8600080
(1599991182.256863) can0 0E0#005100E0611A0000
(1599991182.257341) can0 122#0000000000000688
(1599991182.257580) can0 123#0000000000000688
(1599991182.257842) can0 124#2E932F29A2F060CE
(1599991182.258052) can0 125#000001080000061E
(1599991182.258300) can0 285#0140014000000100
(1599991182.259018) can0 150#7E0004042D036C9A
(1599991182.262350) can0 113#0E440000AA090CEA
(1599991182.265850) can0 084#0100007A508C99FE
(1599991182.266055) can0 085#AC000E3E56600090
(1599991182.266596) can0 0E0#005000E071AE0000
(1599991182.267259) can0 1F2#9E9FA0A14E535052
(1599991182.267757) can0 286#0140014000000000
(1599991182.267994) can0 402#0210020102000000
(1599991182.269683) can0 191#00008120000007CC
(1599991182.273271) can0 2C2#0000000000000000
(1599991182.275883) can0 084#0100007A508C9A8F
(1599991182.276125) can0 085#AC000E3E8B6000A0
(1599991182.276876) can0 0E0#005000E0819D0000
(1599991182.277177) can0 1F0#04180000FFFF0A3E
(1599991182.277419) can0 122#00000000000007A7
(1599991182.277668) can0 123#00000000000007A7
(1599991182.277898) can0 124#2E932F29A2F07060
(1599991182.278140) can0 125#0000010800000731
(1599991182.278843) can0 284#004140530C680200
(1599991182.279070) can0 150#7E0004042D036DB5
(1599991182.282323) can0 113#0E3E0000AA090DF4
(1599991182.285834) can0 084#0100007A508C9BA0
(1599991182.286072) can0 085#AC000E3E256000B0
(1599991182.286580) can0 0E0#005000E0917D0000
(1599991182.287771) can0 287#0059000000000120
(1599991182.289664) can0 191#0000812000000856
(1599991182.295889) can0 084#0100007A508C9C6D
(1599991182.296087) can0 085#AC000E52B46000C0
(1599991182.296866) can0 0E0#005000E0A1720000
(1599991182.297358) can0 122#000000000000083D
(1599991182.297597) can0 123#000000000000083D
(1599991182.297824) can0 124#2E932F29A2F080B8
(1599991182.298068) can0 125#00000108000008AB
(1599991182.299039) can0 150#7E0004042D036EC4
(1599991182.299283) can0 281#00000001000001F0
(1599991182.299723) can0 390#0800000000000000
(1599991182.302355) can0 113#0E3E0000AA090E85
(1599991182.305871) can0 084#0100007A508C9D42
(1599991182.306082) can0 085#AC000E521A6000D0
(1599991182.306601) can0 0E0#005100E0B1C60000
(1599991182.307106) can0 2B1#2100000000000000
(1599991182.309690) can0 191#0000812000000979
(1599991182.315902) can0 084#0100007A508C9E33
(1599991182.316133) can0 085#AC000E52C76000E0
(1599991182.316355) can0 2A0#0000000000000000
(1599991182.316612) can0 2A1#0000007F7F7F7F7F
(1599991182.316861) can0 0E0#005100E0C1380000
(1599991182.317090) can0 1F2#9E9FA0A14E535052
(1599991182.317326) can0 2A3#E707E71800000300
(1599991182.317576) can0 122#0000000000000912
(1599991182.317817) can0 123#0000000000000912
(1599991182.318045) can0 124#2E932F29A2F09016
(1599991182.318286) can0 125#0000010800000984
(1599991182.318526) can0 26D#40540A0412000000
(1599991182.318774) can0 2A4#0080000000000000
(1599991182.319022) can0 150#7E0004042D036FEB
(1599991182.319270) can0 2A5#000F071F00000000
(1599991182.319538) can0 2A7#0000000000001400
(1599991182.319808) can0 2A8#00400000000010F9
(1599991182.320078) can0 2AA#0000000000000000
(1599991182.320355) can0 2AE#0100000000000000
(1599991182.322323) can0 113#0E520000AA090F9F
(1599991182.323774) can0 218#5E00000000000F38
(1599991182.323991) can0 2F1#2188FFFFFFFF7800
(1599991182.324474) can0 2F2#110210090A000000
(1599991182.325848) can0 084#0100007A508C9F1C
(1599991182.326075) can0 085#AC000E52696000F0
(1599991182.326601) can0 0E0#005000E0D18C0000
(1599991182.327298) can0 1F0#04180000FFFF0B11
(1599991182.328012) can0 3F6#3D25FF0000000F99
(1599991182.328343) can0 260#0000000000001D00
(1599991182.329684) can0 191#0000812000000A08
(1599991182.335282) can0 41C#1C00020102000000
(1599991182.335900) can0 084#0100007A508C9086
(1599991182.336124) can0 085#AC000E52B1600000
(1599991182.336894) can0 0E0#005000E0E1830000
(1599991182.337124) can0 288#A500004E00000059
(1599991182.337367) can0 415#1500050110000000
(1599991182.337613) can0 122#0000000000000A63
(1599991182.337855) can0 123#0000000000000A63
(1599991182.338084) can0 124#2E932F29A2F0A0CB
(1599991182.338324) can0 125#0000010800000AF5
(1599991182.339050) can0 150#7E0004042D036071
(1599991182.339730) can0 28A#C30002009857002A
(1599991182.342362) can0 113#0E520000AA090005
(1599991182.345851) can0 084#0100007A508C91A9
(1599991182.346062) can0 085#AC000E521F600010
(1599991182.346608) can0 0E0#005000E0F1630000
(1599991182.349692) can0 191#0000812000000B27
(1599991182.352747) can0 2FB#000007E1465B07F3
(1599991182.352979) can0 2FC#0A00000000004019
(1599991182.353228) can0 2FD#0000000000001000
(1599991182.355885) can0 084#0100007A508C92D8
(1599991182.356096) can0 085#AD000E5236600020
(1599991182.356859) can0 0E0#005100E001040000
(1599991182.357354) can0 122#0000000000000B4C
(1599991182.357630) can0 285#0140014000000100
(1599991182.357841) can0 123#0000000000000B4C
(1599991182.358068) can0 124#2E932F29A2F0B065
(1599991182.358313) can0 125#0000010800000BDA
(1599991182.359018) can0 150#7E0004042D03615E
(1599991182.362308) can0 113#0E520000AA09012A
(1599991182.365842) can0 084#0100007A508C93F7
(1599991182.366077) can0 085#AD000E5298600030
(1599991182.366595) can0 0E0#005100E011E40000
(1599991182.367230) can0 1F2#9E9FA0A14E535052
(1599991182.367725) can0 286#0140014000000000
(1599991182.369672) can0 191#0000812000000CEA
(1599991182.374273) can0 2C2#0000000000000000
(1599991182.375886) can0 084#0100007A508C943A
(1599991182.376098) can0 085#AD000E52A3600040
(1599991182.376874) can0 0E0#005000E021BF0000
(1599991182.377172) can0 1F0#04180000FFFF0CDC
(1599991182.377409) can0 122#0000000000000C81
(1599991182.377657) can0 123#0000000000000C81
(1599991182.377888) can0 124#2E932F29A2F0C05E
(1599991182.378134) can0 125#0000010800000C17
(1599991182.378852) can0 284#004140530C680200
(1599991182.379080) can0 150#7E0004042D03622F
(1599991182.382359) can0 113#0E520000AA09025B
(1599991182.385851) can0 084#0100007A508C9515
(1599991182.386051) can0 085#AD000E5687600050
(1599991182.386602) can0 0E0#005000E0315F0000
(1599991182.387766) can0 287#0059000000000120
(1599991182.387975) can0 3F0#2634340702170007
(1599991182.389678) can0 191#0000812000000DC5
(1599991182.390692) can0 380#1760960000000000
(1599991182.395953) can0 084#0100007A508C9664
(1599991182.396149) can0 085#AD000E565A600060
(1599991182.396928) can0 0E0#005000E041A10000
(1599991182.397168) can0 370#0F00000000000000
(1599991182.397411) can0 122#0000000000000DAE
(1599991182.397664) can0 123#0000000000000DAE
(1599991182.397883) can0 124#2E932F29A2F0D0F0
(1599991182.398127) can0 125#0000010800000D38
(1599991182.399100) can0 150#7E0004042D036300
(1599991182.399342) can0 281#0000000100000281
(1599991182.402348) can0 113#0E560000AA09030B
(1599991182.405849) can0 084#0100007A508C974B
(1599991182.406053) can0 085#AD000E56F4600070
(1599991182.406594) can0 0E0#005100E051150000
(1599991182.407097) can0 2AB#0190430000030100
(1599991182.407355) can0 2B1#2100000000000000
(1599991182.409694) can0 191#0000812000000EB4
(1599991182.415897) can0 084#0100007A508C98D1
(1599991182.416126) can0 085#AD000E562C600080
(1599991182.416411) can0 2A0#0000000000000000
(1599991182.416610) can0 2A1#0000007F7F7F7F7F
(1599991182.416864) can0 0E0#005100E0611A0000
(1599991182.417093) can0 1F2#9E9FA0A14E535052
(1599991182.417332) can0 2A3#E707E71800000300
(1599991182.417578) can0 122#0000000000000EDF
(1599991182.417827) can0 123#0000000000000EDF
(1599991182.418050) can0 124#2E932F29A2F0E02D
(1599991182.418292) can0 125#0000010800000E49
(1599991182.418548) can0 26D#40540A0412000000
(1599991182.418785) can0 2A4#0080000000000000
(1599991182.419020) can0 150#7E0004042D0364CD
(1599991182.419267) can0 2A5#000F071F00000000
(1599991182.419551) can0 2A7#0000000000001400
(1599991182.419803) can0 2A8#0040000000002024
(1599991182.420070) can0 2AA#0000000000000000
(1599991182.420424) can0 2AE#0100000000000000
(1599991182.420606) can0 3E1#0000000000000145
(1599991182.420874) can0 3E2#0000000000000145
(1599991182.422348) can0 113#0E560000AA0904C6
(1599991182.423781) can0 218#5E000000000000A2
(1599991182.424017) can0 2F1#2188FFFFFFFF7800
(1599991182.424493) can0 2F2#110210090A000000
(1599991182.425854) can0 084#0100007A508C99FE
(1599991182.426065) can0 085#AD000E6618600090
(1599991182.426610) can0 0E0#005000E071AE0000
(1599991182.427276) can0 1F0#04180000FFFF0DF3
(1599991182.427966) can0 260#0000000000001D00
(1599991182.429704) can0 191#0000812000000F9B
(1599991182.435972) can0 084#0100007A508C9A8F
(1599991182.436176) can0 085#AD000E66C56000A0
(1599991182.436945) can0 0E0#005000E0819D0000
(1599991182.437171) can0 288#A500004E00000059
(1599991182.437433) can0 122#0000000000000FF0
(1599991182.437676) can0 123#0000000000000FF0
(1599991182.437903) can0 124#2E932F29A2F0F083
(1599991182.438146) can0 125#0000010800000F66
(1599991182.439120) can0 150#7E0004046D036513
(1599991182.439786) can0 28A#C300020098570105
(1599991182.442341) can0 113#0E660000AA0905B3
(1599991182.446063) can0 084#0100007A508C9BA0
(1599991182.446131) can0 085#AD000E666B6000B0
(1599991182.446865) can0 0E0#005000E0917D0000
(1599991182.449707) can0 191#0000812000000001
(1599991182.452855) can0 2FB#000007DD465F07F4
(1599991182.453029) can0 2FC#0A00000000004019
(1599991182.453233) can0 2FD#0000000000001000
(1599991182.455904) can0 084#0100007A508C9C6D
(1599991182.456103) can0 085#AD000E66506000C0
(1599991182.456873) can0 0E0#005000E0A1720000
(1599991182.457360) can0 122#000000000000006A
(1599991182.457603) can0 285#0140014000000100
(1599991182.457856) can0 123#000000000000006A
(1599991182.458112) can0 124#2E932F29A2F0005B
(1599991182.458354) can0 125#00000108000000FC
(1599991182.459046) can0 150#7E0004042D036693
(1599991182.462370) can0 113#0E660000AA0906C2
(1599991182.465859) can0 084#0100007A508C9D42
(1599991182.466065) can0 085#AD000E72026000D0
(1599991182.466621) can0 0E0#005000E0B1920000
(1599991182.467197) can0 1F2#9E9FA0A14E535052
(1599991182.467699) can0 286#0140014000000000
(1599991182.469694) can0 191#000081200000012E
(1599991182.475305) can0 2C2#0000000000000000
(1599991182.476217) can0 084#0100007A508C9E33
(1599991182.476366) can0 085#AD000E72DF6000E0
(1599991182.476886) can0 0E0#005100E0C1380000
(1599991182.477131) can0 1F0#04180000FFFF0E82
(1599991182.477366) can0 122#0000000000000145
(1599991182.477635) can0 123#0000000000000145
(1599991182.477868) can0 124#2E932F29A2F010F5
(1599991182.478111) can0 125#00000108000001D3
(1599991182.478795) can0 284#004140530C680200
(1599991182.479063) can0 150#7E0004042D0367BC
(1599991182.482349) can0 113#0E720000AA090741
(1599991182.485859) can0 084#0100007A508C9F1C
(1599991182.486064) can0 085#AD000E72716000F0
(1599991182.486618) can0 0E0#005100E0D1D80000
(1599991182.487716) can0 287#0059000000000120
(1599991182.489705) can0 191#000081200000025F
(1599991182.495917) can0 084#0100007A508C9086
(1599991182.496113) can0 085#AD000E72A9600000
(1599991182.496395) can0 407#0710050110000000
(1599991182.496883) can0 0E0#005000E0E1830000
(1599991182.497365) can0 122#0000000000000234
(1599991182.497606) can0 123#0000000000000234
(1599991182.497837) can0 124#2E932F29A2F02028
(1599991182.498081) can0 125#00000108000002A2
(1599991182.499053) can0 150#7E0004042D036826
(1599991182.499296) can0 281#00000001000003AE
(1599991182.502339) can0 113#0E720000AA0908DB
(1599991182.505846) can0 084#0100007A508C91A9
(1599991182.506066) can0 085#AD000E7207600010
(1599991182.506644) can0 0E0#005000E0F1630000
(1599991182.507116) can0 2B1#2100000000000000
(1599991182.509687) can0 191#0000812000000370
(1599991182.515906) can0 084#0100007A508C92D8
(1599991182.516111) can0 085#AD000E62AC600020
(1599991182.516372) can0 2A0#0000000000000000
(1599991182.516623) can0 2A1#0000007F7F7F7F7F
(1599991182.516867) can0 0E0#005100E001040000
(1599991182.517098) can0 1F2#9E9FA0A14E535052
(1599991182.517373) can0 2A3#E707E71800000300
(1599991182.517584) can0 122#000000000000031B
(1599991182.517831) can0 123#000000000000031B
(1599991182.518060) can0 124#2E932F29A2F03086
(1599991182.518300) can0 125#000001080000038D
(1599991182.518538) can0 26D#40540A0412000000
(1599991182.518791) can0 2A4#0080000000000000
(1599991182.519036) can0 150#7E0004046D0369F8
(1599991182.519283) can0 2A5#000F071F00000000
(1599991182.519550) can0 2A7#0000000000001400
(1599991182.519820) can0 2A8#004000000000308A
(1599991182.520085) can0 2AA#0000000000000000
(1599991182.520350) can0 2AE#0100000000000000
(1599991182.522317) can0 113#0E720000AA0909F4
(1599991182.523771) can0 218#5E0000000000018D
(1599991182.524361) can0 2F1#2188FFFFFFFF7800
(1599991182.524498) can0 2F2#110210090A000000
(1599991182.525910) can0 084#0100007A508C93F7
(1599991182.526128) can0 085#AD000E6202600030
(1599991182.526662) can0 0E0#005100E011E40000
(1599991182.527246) can0 1F0#04180000FFFF0FAD
(1599991182.528006) can0 3F6#3CFFFF0000000035
(1599991182.528330) can0 260#0000000000001D00
(1599991182.529726) can0 191#00008120000004BD
(1599991182.535934) can0 084#0100007A508C943A
(1599991182.536128) can0 085#AD000E6239600040
(1599991182.536909) can0 0E0#005100E021EB0000
(1599991182.537135) can0 288#A500004E00000059
(1599991182.537382) can0 122#00000000000004D6
(1599991182.537630) can0 123#00000000000004D6
(1599991182.537856) can0 124#2E932F29A2F040BD
(1599991182.538100) can0 125#0000010800000440
(1599991182.539074) can0 150#7E0004042D036A78
(1599991182.539744) can0 28A#C300020098570274
(1599991182.542368) can0 113#0E620000AA090A56
(1599991182.545836) can0 084#0100007A508C9515
(1599991182.546070) can0 085#AD000E6297600050
(1599991182.546630) can0 0E0#005100E0310B0000
(1599991182.549677) can0 191#0000812000000592
(1599991182.552738) can0 2FB#000007DF465F07F2
(1599991182.552970) can0 2FC#0A00000000004019
(1599991182.553222) can0 2FD#0000000000001000
(1599991182.555913) can0 084#0100007A508C9664
(1599991182.556107) can0 085#AD000E6EFB600060
(1599991182.556884) can0 0E0#005000E041A10000
(1599991182.557372) can0 122#00000000000005F9
(1599991182.557608) can0 285#0140014000000100
(1599991182.557854) can0 123#00000000000005F9
(1599991182.558086) can0 124#2E932F29A2F05013
(1599991182.558328) can0 125#000001080000056F
(1599991182.559096) can0 150#7E0004042D036B57
(1599991182.562340) can0 113#0E620000AA090B79
(1599991182.565856) can0 084#0100007A508C974B
(1599991182.566057) can0 085#AD000E6E55600070
(1599991182.566659) can0 0E0#005000E051410000
(1599991182.567176) can0 1F2#9E9FA0A14E535052
(1599991182.567677) can0 286#0140014000000000
(1599991182.569717) can0 191#00008120000006E3
(1599991182.575912) can0 084#0100007A508C98D1
(1599991182.576113) can0 085#AD000E6E8D600080
(1599991182.576358) can0 2C2#0000000000000000
(1599991182.576876) can0 0E0#005100E0611A0000
(1599991182.577116) can0 1F0#04180000FFFF0037
(1599991182.577359) can0 122#0000000000000688
(1599991182.577606) can0 123#0000000000000688
(1599991182.577835) can0 124#2E932F29A2F060CE
(1599991182.578076) can0 125#000001080000061E
(1599991182.578745) can0 284#004140530C680200
(1599991182.579029) can0 150#7E0004046D036C6B
(1599991182.582342) can0 113#0E6E0000AA090C35
(1599991182.585852) can0 084#0100007A508C99FE
(1599991182.586067) can0 085#AD000E6E23600090
(1599991182.586648) can0 0E0#005100E071FA0000
(1599991182.587689) can0 287#0059000000000120
(1599991182.589688) can0 191#00008120000007CC
(1599991182.590738) can0 380#1770450000000000
(1599991182.595902) can0 084#0100007A508C9A8F
(1599991182.596109) can0 085#AE000E6A476000A0
(1599991182.596889) can0 0E0#005000E0819D0000
(1599991182.597392) can0 122#00000000000007A7
(1599991182.597616) can0 123#00000000000007A7
(1599991182.597848) can0 124#2E932F29A2F07060
(1599991182.598089) can0 125#0000010800000731
(1599991182.599050) can0 150#7E0004042D036DB5
(1599991182.599296) can0 281#0000000100000463
(1599991182.602319) can0 113#0E6E0000AA090D1A
(1599991182.605841) can0 084#0100007A508C9BA0
(1599991182.606059) can0 085#AE000E6AE96000B0
(1599991182.606649) can0 0E0#005100E091290000
(1599991182.607111) can0 2AB#0190430000030100
(1599991182.607368) can0 2B1#2100000000000000
(1599991182.609684) can0 191#0000812000000856
(1599991182.615916) can0 084#0100007A508C9C6D
(1599991182.616116) can0 085#AE000E6AD26000C0
(1599991182.616361) can0 2A0#0000000000000000
(1599991182.616622) can0 2A1#0000007F7F7F7F7F
(1599991182.616874) can0 0E0#005000E0A1720000
(1599991182.617102) can0 1F2#9E9FA0A14E535052
(1599991182.617341) can0 2A3#E707E71800000300
(1599991182.617627) can0 122#000000000000083D
(1599991182.617838) can0 123#000000000000083D
(1599991182.618062) can0 124#2E932F29A2F080B8
(1599991182.618304) can0 125#00000108000008AB
(1599991182.618547) can0 26D#40540A0412000000
(1599991182.618794) can0 2A4#0080000000000000
(1599991182.619042) can0 150#7E0004042D036EC4
(1599991182.619289) can0 2A5#000F071F00000000
(1599991182.619559) can0 2A7#0000000000001400
(1599991182.619824) can0 2A8#00400000000040B1
(1599991182.620089) can0 2AA#0000000000000000
(1599991182.620352) can0 2AE#0100000000000000
(1599991182.620624) can0 3E1#0000000000000234
(1599991182.620892) can0 3E2#0000000000000234
(1599991182.622361) can0 113#0E6A0000AA090E14
