(1599991300.710855) can0 084#0100007A508CAD9F
(1599991300.711066) can0 085#A3000E603A6000D0
(1599991300.714001) can0 0E0#004B00E0C1BD0000
(1599991300.714552) can0 150#7E0004042D036EC4
(1599991300.715341) can0 2B1#2100000000000000
(1599991300.717452) can0 191#0000812000000979
(1599991300.720835) can0 084#0100007A508CAEEE
(1599991300.721054) can0 085#A3000E60E76000E0
(1599991300.723304) can0 26D#40540A0412000000
(1599991300.723682) can0 2A0#0000000000000000
(1599991300.723942) can0 2A1#0000007F7F7F7F7F
(1599991300.724179) can0 0E0#004B00E0D15D0000
(1599991300.724421) can0 2A3#E707E71800000300
(1599991300.724671) can0 285#C920C92000000100
(1599991300.724921) can0 2A4#0080000000000000
(1599991300.725189) can0 2A5#000F071F00000000
(1599991300.725457) can0 2A7#0000000000001400
(1599991300.725723) can0 2A8#00400000000010F9
(1599991300.725988) can0 2AA#0000000000000000
(1599991300.726256) can0 2AE#0100000000000000
(1599991300.727300) can0 113#0E600000AA090F6D
(1599991300.727892) can0 122#0000000000000912
(1599991300.728164) can0 123#0000000000000912
(1599991300.728356) can0 124#2E932F29A2F09016
(1599991300.728839) can0 125#0000010800000984
(1599991300.731157) can0 084#0100007A508CAFC1
(1599991300.731364) can0 085#A4000E50416000F0
(1599991300.731854) can0 218#5E00000000000F38
(1599991300.733251) can0 3F6#3D25FF0000000F99
(1599991300.733499) can0 260#0000000000001D00
(1599991300.733963) can0 0E0#004B00E0E1520000
(1599991300.734690) can0 150#7E000403ED036FAD
(1599991300.734907) can0 1F2#9E9FA0A14E535052
(1599991300.735146) can0 286#C920C92000000000
(1599991300.737517) can0 191#0000812000000A08
(1599991300.740907) can0 084#0100007A508C9086
(1599991300.741123) can0 085#A4000E5099600000
(1599991300.741604) can0 288#A500004D00000059
(1599991300.741831) can0 28A#C2000200985700DE
(1599991300.742574) can0 2F1#2188FFFFFFFF7900
(1599991300.742797) can0 2F2#110210090A000000
(1599991300.743938) can0 0E0#004B00E0F1B20000
(1599991300.744444) can0 1F0#04180000FFFF0CDC
(1599991300.744935) can0 284#004140530C680200
(1599991300.747232) can0 113#0E500000AA0900AD
(1599991300.747899) can0 122#0000000000000A63
(1599991300.748136) can0 123#0000000000000A63
(1599991300.748360) can0 124#2E932F29A2F0A0CB
(1599991300.748604) can0 2FB#000007E1466207F1
(1599991300.748844) can0 125#0000010800000AF5
(1599991300.749090) can0 2FC#0A00000000004019
(1599991300.749338) can0 2FD#0000000000001000
(1599991300.750827) can0 084#0100007A508C91A9
(1599991300.751048) can0 085#A4000E5037600010
(1599991300.753991) can0 0E0#004B00E001810000
(1599991300.754566) can0 150#7E0004042D036071
(1599991300.754981) can0 287#005900000000C940
(1599991300.757468) can0 191#0000812000000B27
(1599991300.760852) can0 084#0100007A508C92D8
(1599991300.761065) can0 085#A4000E50EA600020
(1599991300.763923) can0 0E0#004B00E011610000
(1599991300.767335) can0 113#0E500000AA090182
(1599991300.767909) can0 122#0000000000000B4C
(1599991300.768144) can0 123#0000000000000B4C
(1599991300.768368) can0 124#2E932F29A2F0B065
(1599991300.768854) can0 125#0000010800000BDA
(1599991300.770929) can0 084#0100007A508C93F7
(1599991300.771132) can0 085#A4000E568B600030
(1599991300.773213) can0 402#0210020102000000
(1599991300.773974) can0 0E0#004B00E0216E0000
(1599991300.774548) can0 150#7E0004042D03615E
(1599991300.777469) can0 191#0000812000000CEA
(1599991300.778405) can0 2C2#0000000000000000
(1599991300.780850) can0 084#0100007A508C943A
(1599991300.781089) can0 085#A4000E56B0600040
(1599991300.783954) can0 0E0#004C00E0310D0000
(1599991300.784158) can0 1F2#9E9FA0A14E535052
(1599991300.787262) can0 113#0E560000AA090224
(1599991300.787911) can0 122#0000000000000C81
(1599991300.788147) can0 123#0000000000000C81
(1599991300.788373) can0 124#2E932F29A2F0C05E
(1599991300.788854) can0 125#0000010800000C17
(1599991300.790827) can0 084#0100007A508C9515
(1599991300.791052) can0 085#A4000E561E600050
(1599991300.793994) can0 0E0#004B00E041700000
(1599991300.794216) can0 281#0000000100000281
(1599991300.794683) can0 150#7E0004042D03622F
(1599991300.794922) can0 1F0#04180000FFFF0DF3
(1599991300.797490) can0 191#0000812000000DC5
(1599991300.800844) can0 084#0100007A508C9664
(1599991300.801061) can0 085#A4000E56C3600060
(1599991300.803949) can0 0E0#004B00E051900000
(1599991300.807330) can0 113#0E560000AA09030B
(1599991300.807911) can0 122#0000000000000DAE
(1599991300.808151) can0 123#0000000000000DAE
(1599991300.808381) can0 124#2E932F29A2F0D0F0
(1599991300.808853) can0 125#0000010800000D38
(1599991300.809845) can0 390#0800000000000000
(1599991300.811288) can0 084#0100007A508C974B
(1599991300.811499) can0 085#A4000E5E56600070
(1599991300.813993) can0 0E0#004B00E0619F0000
(1599991300.814567) can0 150#7E0004042D036300
(1599991300.815326) can0 2AB#0190430000030100
(1599991300.815582) can0 2B1#2100000000000000
(1599991300.817471) can0 191#0000812000000EB4
(1599991300.820844) can0 084#0100007A508C98D1
(1599991300.821063) can0 085#A4000E5E8E600080
(1599991300.823279) can0 26D#40540A0412000000
(1599991300.823695) can0 2A0#0000000000000000
(1599991300.823956) can0 2A1#0000007F7F7F7F7F
(1599991300.824195) can0 0E0#004B00E0717F0000
(1599991300.824440) can0 2A3#E707E71800000300
(1599991300.824677) can0 285#C920C92000000100
(1599991300.824925) can0 2A4#0080000000000000
(1599991300.825177) can0 380#1760960000000000
(1599991300.825424) can0 2A5#000F071F00000000
(1599991300.825690) can0 2A7#0000000000001400
(1599991300.825960) can0 2A8#0040000000002024
(1599991300.826228) can0 2AA#0000000000000000
(1599991300.826495) can0 2AE#0100000000000000
(1599991300.826800) can0 3E1#0000000000000145
(1599991300.827027) can0 3E2#0000000000000145
(1599991300.827260) can0 113#0E5E0000AA090438
(1599991300.828031) can0 122#0000000000000EDF
(1599991300.828340) can0 123#0000000000000EDF
(1599991300.828703) can0 124#2E932F29A2F0E02D
(1599991300.828952) can0 125#0000010800000E49
(1599991300.830843) can0 084#0100007A508C99FE
(1599991300.831053) can0 085#A4000E5E20600090
(1599991300.831798) can0 218#5E000000000000A2
(1599991300.833265) can0 260#0000000000001D00
(1599991300.834031) can0 0E0#004C00E081CF0000
(1599991300.834629) can0 150#7E0004042D0364CD
(1599991300.834851) can0 1F2#9E9FA0A14E535052
(1599991300.835089) can0 286#C920C92000000000
(1599991300.837489) can0 191#0000812000000F9B
(1599991300.840881) can0 084#0100007A508C9A8F
(1599991300.841091) can0 085#A4000E5EFD6000A0
(1599991300.841579) can0 288#A500004D00000059
(1599991300.841800) can0 28A#C300020098570105
(1599991300.842571) can0 2F1#2188FFFFFFFF7900
(1599991300.842795) can0 2F2#110210090A000000
(1599991300.843942) can0 0E0#004B00E091AC0000
(1599991300.844447) can0 1F0#04180000FFFF0E82
(1599991300.844938) can0 284#004140530C680200
(1599991300.845347) can0 415#1500050110000000
(1599991300.847318) can0 113#0E5E0000AA090517
(1599991300.847925) can0 122#0000000000000FF0
(1599991300.848164) can0 123#0000000000000FF0
(1599991300.848392) can0 124#2E932F29A2F0F083
(1599991300.848637) can0 2FB#000007DB466207EF
(1599991300.848874) can0 125#0000010800000F66
(1599991300.849122) can0 2FC#0A00000000004019
(1599991300.849369) can0 2FD#0000000000001000
(1599991300.850909) can0 084#0100007A508C9BA0
(1599991300.851130) can0 085#A4000E5E536000B0
(1599991300.853987) can0 0E0#004B00E0A1A30000
(1599991300.854580) can0 150#7E0004042D0365E2
(1599991300.854962) can0 287#005900000000C940
(1599991300.857480) can0 191#0000812000000001
(1599991300.860852) can0 084#0100007A508C9C6D
(1599991300.861063) can0 085#A4000E648C6000C0
(1599991300.863949) can0 0E0#004B00E0B1430000
(1599991300.864168) can0 370#0F00000000000000
(1599991300.867261) can0 113#0E5E0000AA090666
(1599991300.867923) can0 122#000000000000006A
(1599991300.868157) can0 123#000000000000006A
(1599991300.868387) can0 124#2E932F29A2F0005B
(1599991300.868883) can0 125#00000108000000FC
(1599991300.870866) can0 084#0100007A508C9D42
(1599991300.871068) can0 085#A4000E64226000D0
(1599991300.873200) can0 3F1#015F6F0001219E00
(1599991300.874065) can0 0E0#004B00E0C1BD0000
(1599991300.874643) can0 150#7E000403ED0366D5
(1599991300.877488) can0 191#000081200000012E
(1599991300.879369) can0 2C2#0000000000000000
(1599991300.880848) can0 084#0100007A508C9E33
(1599991300.881070) can0 085#A4000E64FF6000E0
(1599991300.883956) can0 0E0#004B00E0D15D0000
(1599991300.884149) can0 1F2#9E9FA0A14E535052
(1599991300.887314) can0 113#0E640000AA090745
(1599991300.887924) can0 122#0000000000000145
(1599991300.888161) can0 123#0000000000000145
(1599991300.888383) can0 124#2E932F29A2F010F5
(1599991300.888870) can0 125#00000108000001D3
(1599991300.890929) can0 084#0100007A508C9F1C
(1599991300.891130) can0 085#A4000E64516000F0
(1599991300.893201) can0 3F0#2536340702170007
(1599991300.894019) can0 0E0#004B00E0E1520000
(1599991300.894260) can0 281#00000001000003AE
(1599991300.894732) can0 150#7E0004042D0367BC
(1599991300.894976) can0 1F0#04180000FFFF0FAD
(1599991300.897494) can0 191#000081200000025F
(1599991300.900854) can0 084#0100007A508C9086
(1599991300.901075) can0 085#A4000E6A7D600000
(1599991300.903959) can0 0E0#004C00E0F1310000
(1599991300.907318) can0 113#0E640000AA0908DF
(1599991300.907914) can0 122#0000000000000234
(1599991300.908151) can0 123#0000000000000234
(1599991300.908378) can0 124#2E932F29A2F02028
(1599991300.908869) can0 125#00000108000002A2
(1599991300.910930) can0 084#0100007A508C91A9
(1599991300.911131) can0 085#A4000E6AD3600010
(1599991300.913262) can0 3F7#FFF0FFF8FFF807C6
(1599991300.913975) can0 0E0#004B00E001810000
(1599991300.914592) can0 150#7E0004042D036826
(1599991300.915342) can0 2B1#2100000000000000
(1599991300.917477) can0 191#0000812000000370
(1599991300.920856) can0 084#0100007A508C92D8
(1599991300.921071) can0 085#A4000E6A0E600020
(1599991300.923288) can0 26D#40540A0412000000
(1599991300.923700) can0 2A0#0000000000000000
(1599991300.923959) can0 2A1#0000007F7F7F7F7F
(1599991300.924199) can0 0E0#004B00E011610000
(1599991300.924455) can0 2A3#E707E71800000300
(1599991300.924678) can0 285#C920C92000000100
(1599991300.924928) can0 2A4#0080000000000000
(1599991300.925197) can0 2A5#000F071F00000000
(1599991300.925460) can0 2A7#0000000000001400
(1599991300.925730) can0 2A8#004000000000308A
(1599991300.925998) can0 2AA#0000000000000000
(1599991300.926263) can0 2AE#0100000000000000
(1599991300.927228) can0 113#0E6A0000AA0909D9
(1599991300.927948) can0 122#000000000000031B
(1599991300.928158) can0 123#000000000000031B
(1599991300.928381) can0 124#2E932F29A2F03086
(1599991300.928859) can0 125#000001080000038D
(1599991300.931090) can0 084#0100007A508C93F7
(1599991300.931312) can0 085#A4000E6AA0600030
(1599991300.931782) can0 218#5E0000000000018D
(1599991300.933274) can0 3F6#3CFFFF0000000035
(1599991300.933497) can0 260#0000000000001D00
(1599991300.933968) can0 0E0#004B00E0216E0000
(1599991300.934684) can0 150#7E000403ED03694F
(1599991300.934907) can0 1F2#9E9FA0A14E535052
(1599991300.935143) can0 286#C920C92000000000
(1599991300.937509) can0 191#00008120000004BD
(1599991300.941549) can0 084#0100007A508C943A
(1599991300.941760) can0 085#A4000E7419600040
(1599991300.942241) can0 288#A500004D00000059
(1599991300.942465) can0 28A#C300020098570274
(1599991300.942705) can0 2F1#2188FFFFFFFF7900
(1599991300.943215) can0 2F2#110210090A000000
(1599991300.943921) can0 0E0#004B00E0318E0000
(1599991300.944205) can0 1F0#04180000FFFF0037
(1599991300.944922) can0 284#004140530C680200
(1599991300.947257) can0 113#0E6A0000AA090AA8
(1599991300.947923) can0 122#00000000000004D6
(1599991300.948160) can0 123#00000000000004D6
(1599991300.948387) can0 124#2E932F29A2F040BD
(1599991300.948631) can0 2FB#000007DF465D07EF
(1599991300.948874) can0 125#0000010800000440
(1599991300.949115) can0 2FC#0A00000000004019
(1599991300.949363) can0 2FD#0000000000001000
(1599991300.950833) can0 084#0100007A508C9515
(1599991300.951042) can0 085#A4000E74B7600050
(1599991300.953980) can0 0E0#004B00E041700000
(1599991300.954601) can0 150#7E0004042D036A78
(1599991300.954970) can0 287#005900000000C940
(1599991300.957485) can0 191#0000812000000592
(1599991300.960847) can0 084#0100007A508C9664
(1599991300.961061) can0 085#A4000E746A600060
(1599991300.963954) can0 0E0#004C00E051130000
(1599991300.967332) can0 113#0E740000AA090B7D
(1599991300.967929) can0 122#00000000000005F9
(1599991300.968167) can0 123#00000000000005F9
(1599991300.968396) can0 124#2E932F29A2F05013
(1599991300.968873) can0 125#000001080000056F
(1599991300.970924) can0 084#0100007A508C974B
(1599991300.971127) can0 085#A5000E7430600070
(1599991300.973987) can0 0E0#004B00E0619F0000
(1599991300.974610) can0 150#7E0004042D036B57
(1599991300.977472) can0 191#00008120000006E3
(1599991300.980534) can0 2C2#0000000000000000
(1599991300.980842) can0 084#0100007A508C98D1
(1599991300.981069) can0 085#A5000E74E8600080
(1599991300.983957) can0 0E0#004B00E0717F0000
(1599991300.984155) can0 1F2#9E9FA0A14E535052
(1599991300.987316) can0 113#0E740000AA090CB0
(1599991300.987922) can0 122#0000000000000688
(1599991300.988158) can0 123#0000000000000688
(1599991300.988384) can0 124#2E932F29A2F060CE
(1599991300.988857) can0 125#000001080000061E
(1599991300.990903) can0 084#0100007A508C99FE
(1599991300.991124) can0 085#A5000E7289600090
(1599991300.993972) can0 0E0#004B00E0814C0000
(1599991300.994203) can0 281#0000000100000463
(1599991300.994675) can0 150#7E0004042D036C9A
(1599991300.994910) can0 1F0#04180000FFFF0118
(1599991300.997525) can0 191#00008120000007CC
(1599991301.000884) can0 084#0100007A508C9A8F
(1599991301.001100) can0 085#A5000E72546000A0
(1599991301.003706) can0 407#0710050110000000
(1599991301.003916) can0 0E0#004B00E091AC0000
(1599991301.007367) can0 113#0E720000AA090D48
(1599991301.007928) can0 122#00000000000007A7
(1599991301.008169) can0 123#00000000000007A7
(1599991301.008397) can0 124#2E932F29A2F07060
(1599991301.008880) can0 125#0000010800000731
(1599991301.010966) can0 084#0100007A508C9BA0
(1599991301.011178) can0 085#A5000E72FA6000B0
(1599991301.013978) can0 0E0#004B00E0A1A30000
(1599991301.014623) can0 150#7E0004042D036DB5
(1599991301.015352) can0 2AB#0190430000030100
(1599991301.015594) can0 2B1#2100000000000000
(1599991301.017489) can0 191#0000812000000856
(1599991301.020846) can0 084#0100007A508C9C6D
(1599991301.021069) can0 085#A5000E72C16000C0
(1599991301.023308) can0 26D#40540A0412000000
(1599991301.023702) can0 2A0#0000000000000000
(1599991301.023960) can0 2A1#0000007F7F7F7F7F
(1599991301.024208) can0 0E0#004B00E0B1430000
(1599991301.024448) can0 2A3#E707E71800000300
(1599991301.024675) can0 285#C920C92000000100
(1599991301.024926) can0 2A4#0080000000000000
(1599991301.025170) can0 380#1770450000000000
(1599991301.025418) can0 2A5#000F071F00000000
(1599991301.025687) can0 2A7#0000000000001400
(1599991301.025953) can0 2A8#00400000000040B1
(1599991301.026218) can0 2AA#0000000000000000
(1599991301.026486) can0 2AE#0100000000000000
(1599991301.026791) can0 3E1#0000000000000234
(1599991301.027023) can0 3E2#0000000000000234
(1599991301.027254) can0 113#0E720000AA090E39
(1599991301.028013) can0 122#000000000000083D
(1599991301.028336) can0 123#000000000000083D
(1599991301.028703) can0 124#2E932F29A2F080B8
(1599991301.028956) can0 125#00000108000008AB
(1599991301.030854) can0 084#0100007A508C9D42
(1599991301.031062) can0 085#A5000E62196000D0
(1599991301.031799) can0 218#5E000000000002FC
(1599991301.033209) can0 260#0000000000001D00
(1599991301.033993) can0 0E0#004B00E0C1BD0000
(1599991301.034623) can0 150#7E0004042D036EC4
(1599991301.034848) can0 1F2#9E9FA0A14E535052
(1599991301.035086) can0 286#C920C92000000000
(1599991301.037492) can0 191#0000812000000979
(1599991301.040878) can0 084#0100007A508C9E33
(1599991301.041094) can0 085#A5000E62C46000E0
(1599991301.041576) can0 288#A500004D00000059
(1599991301.041798) can0 28A#C30002009857035B
(1599991301.042614) can0 2F1#2188FFFFFFFF7900
(1599991301.042833) can0 2F2#110210090A000000
(1599991301.043938) can0 0E0#004B00E0D15D0000
(1599991301.044178) can0 1F0#04180000FFFF0269
(1599991301.044887) can0 284#004140530C680200
(1599991301.047395) can0 113#0E620000AA090FC5
(1599991301.047932) can0 122#0000000000000912
(1599991301.048167) can0 123#0000000000000912
(1599991301.048398) can0 124#2E932F29A2F09016
(1599991301.048635) can0 2FB#000007DE465F07F2
(1599991301.048873) can0 125#0000010800000984
(1599991301.049119) can0 2FC#0A00000000004019
(1599991301.049366) can0 2FD#0000000000001000
(1599991301.050965) can0 084#0100007A508C9F1C
(1599991301.051180) can0 085#A5000E626A6000F0
(1599991301.053964) can0 0E0#004B00E0E1520000
(1599991301.054642) can0 150#7E0004042D036FEB
(1599991301.054955) can0 287#005900000000C940
(1599991301.057514) can0 191#0000812000000A08
(1599991301.060879) can0 084#0100007A508C9086
(1599991301.061099) can0 085#A5000E62B2600000
(1599991301.063947) can0 0E0#004B00E0F1B20000
(1599991301.067364) can0 113#0E620000AA09005F
(1599991301.067932) can0 122#0000000000000A63
(1599991301.068168) can0 123#0000000000000A63
(1599991301.068395) can0 124#2E932F29A2F0A0CB
(1599991301.068872) can0 125#0000010800000AF5
(1599991301.071322) can0 084#0100007A508C91A9
(1599991301.071527) can0 085#A5000E702F600010
(1599991301.073983) can0 0E0#004B00E001810000
(1599991301.074641) can0 150#7E0004042D036071
(1599991301.077534) can0 191#0000812000000B27
(1599991301.080853) can0 084#0100007A508C92D8
(1599991301.081083) can0 085#A5000E70F2600020
(1599991301.081368) can0 2C2#0000000000000000
(1599991301.083944) can0 0E0#004B00E011610000
(1599991301.084144) can0 1F2#9E9FA0A14E535052
(1599991301.087385) can0 113#0E700000AA09010B
(1599991301.087933) can0 122#0000000000000B4C
(1599991301.088168) can0 123#0000000000000B4C
(1599991301.088395) can0 124#2E932F29A2F0B065
(1599991301.088642) can0 41C#1C00020102000000
(1599991301.088887) can0 125#0000010800000BDA
(1599991301.090971) can0 084#0100007A508C93F7
(1599991301.091180) can0 085#A5000E705C600030
(1599991301.093959) can0 0E0#004C00E021ED0000
(1599991301.094206) can0 281#000000010000054C
(1599991301.094446) can0 1F0#04180000FFFF0346
(1599991301.094678) can0 150#7E0004042D03615E
(1599991301.097524) can0 191#0000812000000CEA
(1599991301.100845) can0 084#0100007A508C943A
(1599991301.101067) can0 085#A5000E7067600040
(1599991301.103959) can0 0E0#004C00E0310D0000
(1599991301.107392) can0 113#0E700000AA09027A
(1599991301.107933) can0 122#0000000000000C81
(1599991301.108174) can0 123#0000000000000C81
(1599991301.108401) can0 124#2E932F29A2F0C05E
(1599991301.108875) can0 125#0000010800000C17
(1599991301.110948) can0 084#0100007A508C9515
(1599991301.111168) can0 085#A5000E70C9600050
(1599991301.113974) can0 0E0#004B00E041700000
(1599991301.114646) can0 150#7E0004042D03622F
(1599991301.115357) can0 2B1#2100000000000000
(1599991301.117497) can0 191#0000812000000DC5
(1599991301.118391) can0 40E#0E100601E0030000
(1599991301.120854) can0 084#0100007A508C9664
(1599991301.121067) can0 085#A5000E6A1C600060
(1599991301.123259) can0 26D#40540A0412000000
(1599991301.123709) can0 2A0#0000000000000000
(1599991301.123965) can0 2A1#0000007F7F7F7F7F
(1599991301.124204) can0 0E0#004B00E051900000
(1599991301.124460) can0 2A3#E707E71800000300
(1599991301.124683) can0 285#C920C92000000100
(1599991301.124933) can0 2A4#0080000000000000
(1599991301.125201) can0 2A5#000F071F00000000
(1599991301.125467) can0 2A7#0000000000001400
(1599991301.125742) can0 2A8#004000000000501F
(1599991301.126009) can0 2AA#0000000000000000
(1599991301.126278) can0 2AE#0100000000000000
(1599991301.127369) can0 113#0E700000AA090355
(1599991301.127943) can0 122#0000000000000DAE
(1599991301.128181) can0 123#0000000000000DAE
(1599991301.128441) can0 124#2E932F29A2F0D0F0
(1599991301.128885) can0 125#0000010800000D38
(1599991301.130949) can0 084#0100007A508C974B
(1599991301.131177) can0 085#A5000E6AB2600070
(1599991301.131910) can0 218#5E000000000003D3
(1599991301.133264) can0 3F6#3D25FF000000012C
(1599991301.133501) can0 260#0000000000001D00
(1599991301.133956) can0 0E0#004B00E0619F0000
(1599991301.134208) can0 1F2#9E9FA0A14E535052
(1599991301.134673) can0 150#7E0004042D036300
(1599991301.134960) can0 286#C920C92000000000
(1599991301.137514) can0 191#0000812000000EB4
(1599991301.140876) can0 084#0100007A508C98D1
(1599991301.141100) can0 085#A5000E6A6A600080
(1599991301.141588) can0 288#A500004D00000059
(1599991301.141809) can0 28A#C300020098570496
(1599991301.142619) can0 2F1#2188FFFFFFFF7900
(1599991301.142844) can0 2F2#110210090A000000
(1599991301.143925) can0 0E0#004B00E0717F0000
(1599991301.144161) can0 1F0#04180000FFFF048B
(1599991301.144851) can0 284#004140530C680200
(1599991301.147377) can0 113#0E6A0000AA09041D
(1599991301.147948) can0 122#0000000000000EDF
(1599991301.148190) can0 123#0000000000000EDF
(1599991301.148411) can0 124#2E932F29A2F0E02D
(1599991301.148669) can0 2FB#000007DD466207ED
(1599991301.148896) can0 125#0000010800000E49
(1599991301.149139) can0 2FC#0A00000000004019
(1599991301.149384) can0 2FD#0000000000001000
(1599991301.150962) can0 084#0100007A508C99FE
(1599991301.151188) can0 085#A5000E6AC4600090
(1599991301.153982) can0 0E0#004B00E0814C0000
(1599991301.154660) can0 150#7E0004042D0364CD
(1599991301.154938) can0 287#005900000000C940
(1599991301.157505) can0 191#0000812000000F9B
(1599991301.160858) can0 084#0100007A508C9A8F
(1599991301.161072) can0 085#A5000E64ED6000A0
(1599991301.163925) can0 0E0#004B00E091AC0000
(1599991301.167386) can0 113#0E6A0000AA090532
(1599991301.167958) can0 122#0000000000000FF0
(1599991301.168191) can0 123#0000000000000FF0
(1599991301.168417) can0 124#2E932F29A2F0F083
(1599991301.168886) can0 125#0000010800000F66
(1599991301.170965) can0 084#0100007A508C9BA0
(1599991301.171185) can0 085#A5000E64436000B0
(1599991301.173970) can0 0E0#004B00E0A1A30000
(1599991301.174740) can0 150#7E0004042D0365E2
(1599991301.177487) can0 191#0000812000000001
(1599991301.180867) can0 084#0100007A508C9C6D
(1599991301.181080) can0 085#A5000E64786000C0
(1599991301.182391) can0 2C2#0000000000000000
(1599991301.183976) can0 0E0#004B00E0B1430000
(1599991301.184143) can0 1F2#9E9FA0A14E535052
(1599991301.187395) can0 113#0E640000AA09066A
(1599991301.187964) can0 122#000000000000006A
(1599991301.188199) can0 123#000000000000006A
(1599991301.188428) can0 124#2E932F29A2F0005B
(1599991301.188918) can0 125#00000108000000FC
(1599991301.190985) can0 084#0100007A508C9D42
(1599991301.191202) can0 085#A5000E64D66000D0
(1599991301.193977) can0 0E0#004C00E0C13E0000
(1599991301.194214) can0 281#000000010000063D
(1599991301.194460) can0 1F0#04180000FFFF05A4
(1599991301.194698) can0 150#7E000403ED0366D5
(1599991301.197539) can0 191#000081200000012E
(1599991301.201536) can0 084#0100007A508C9E33
(1599991301.201742) can0 085#A5000E640B6000E0
(1599991301.203946) can0 0E0#004B00E0D15D0000
(1599991301.207397) can0 113#0E640000AA090745
(1599991301.207948) can0 122#0000000000000145
(1599991301.208185) can0 123#0000000000000145
(1599991301.208412) can0 124#2E932F29A2F010F5
(1599991301.208890) can0 125#00000108000001D3
(1599991301.210999) can0 084#0100007A508C9F1C
(1599991301.211202) can0 085#A6000E68276000F0
(1599991301.213972) can0 0E0#004B00E0E1520000
(1599991301.214673) can0 150#7E0004042D0367BC
(1599991301.215347) can0 2AB#0190430000030100
(1599991301.215604) can0 2B1#2100000000000000
(1599991301.217501) can0 191#000081200000025F
(1599991301.220861) can0 084#0100007A508C9086
(1599991301.221080) can0 085#A6000E68FF600000
(1599991301.223318) can0 26D#40540A0412000000
(1599991301.223716) can0 2A0#0000000000000000
(1599991301.223972) can0 2A1#0000007F7F7F7F7F
(1599991301.224212) can0 0E0#004B00E0F1B20000
(1599991301.224472) can0 285#C920C92000000100
(1599991301.224690) can0 2A3#E707E71800000300
(1599991301.224964) can0 2A4#0080000000000000
(1599991301.225209) can0 380#1780580000000000
(1599991301.225456) can0 2A5#000F071F00000000
(1599991301.225723) can0 2A7#0000000000001400
(1599991301.225991) can0 2A8#00400000000060C2
(1599991301.226258) can0 2AA#0000000000000000
(1599991301.226523) can0 2AE#0100000000000000
(1599991301.226790) can0 3E1#000000000000031B
(1599991301.227058) can0 3E2#000000000000031B
(1599991301.227371) can0 113#0E680000AA09085E
(1599991301.228041) can0 122#0000000000000234
(1599991301.228345) can0 123#0000000000000234
(1599991301.228503) can0 124#2E932F29A2F02028
(1599991301.228995) can0 125#00000108000002A2
(1599991301.231212) can0 084#0100007A508C91A9
(1599991301.231460) can0 085#A6000E6851600010
(1599991301.231917) can0 218#5E0000000000041E
(1599991301.233244) can0 260#0000000000001D00
(1599991301.234030) can0 0E0#004B00E001810000
(1599991301.234252) can0 1F2#9E9FA0A14E535052
(1599991301.234680) can0 150#7E0004042D036826
(1599991301.234933) can0 286#C920C92000000000
(1599991301.237504) can0 191#0000812000000370
(1599991301.240887) can0 084#0100007A508C92D8
(1599991301.241104) can0 085#A6000E688C600020
(1599991301.241591) can0 288#A500004D00000059
(1599991301.241811) can0 28A#C3000200985705B9
(1599991301.242649) can0 2F1#2188FFFFFFFF7900
(1599991301.242876) can0 2F2#110210090A000000
(1599991301.243926) can0 0E0#004B00E011610000
(1599991301.244150) can0 1F0#04180000FFFF06D5
(1599991301.244821) can0 284#004140530C680200
(1599991301.247356) can0 113#0E680000AA090971
(1599991301.247939) can0 122#000000000000031B
(1599991301.248184) can0 123#000000000000031B
(1599991301.248412) can0 124#2E932F29A2F03086
(1599991301.248651) can0 2FB#000007E0465F07F3
(1599991301.248895) can0 125#000001080000038D
(1599991301.249147) can0 2FC#0A00000000004019
(1599991301.249396) can0 2FD#0000000000001000
(1599991301.250979) can0 084#0100007A508C93F7
(1599991301.251181) can0 085#A6000E58B8600030
(1599991301.253975) can0 0E0#004B00E0216E0000
(1599991301.254771) can0 150#7E0004042D036909
(1599991301.255001) can0 287#005900000000C940
(1599991301.257504) can0 191#00008120000004BD
(1599991301.260892) can0 084#0100007A508C943A
(1599991301.261106) can0 085#A6000E5883600040
(1599991301.263934) can0 0E0#004B00E0318E0000
(1599991301.267381) can0 113#0E580000AA090A5A
(1599991301.267955) can0 122#00000000000004D6
(1599991301.268191) can0 123#00000000000004D6
(1599991301.268418) can0 124#2E932F29A2F040BD
(1599991301.268891) can0 125#0000010800000440
(1599991301.270975) can0 084#0100007A508C9515
(1599991301.271174) can0 085#A6000E582D600050
(1599991301.273240) can0 402#0210020102000000
(1599991301.273966) can0 0E0#004B00E041700000
(1599991301.274900) can0 150#7E0004042D036A78
(1599991301.277504) can0 191#0000812000000592
(1599991301.280862) can0 084#0100007A508C9664
(1599991301.281081) can0 085#A6000E58F0600060
(1599991301.283479) can0 2C2#0000000000000000
(1599991301.283922) can0 0E0#004B00E051900000
(1599991301.284142) can0 1F2#9E9FA0A14E535052
(1599991301.287381) can0 113#0E580000AA090B75
(1599991301.287958) can0 122#00000000000005F9
(1599991301.288195) can0 123#00000000000005F9
(1599991301.288425) can0 124#2E932F29A2F05013
(1599991301.288903) can0 125#000001080000056F
(1599991301.290976) can0 084#0100007A508C974B
(1599991301.291177) can0 085#A6000E4CA2600070
(1599991301.293972) can0 0E0#004B00E0619F0000
(1599991301.294199) can0 1F0#04180000FFFF07FA
(1599991301.294444) can0 281#0000000100000712
(1599991301.294755) can0 150#7E0004042D036B57
(1599991301.297522) can0 191#00008120000006E3
(1599991301.300852) can0 084#0100007A508C98D1
(1599991301.301078) can0 085#A6000E4C7A600080
(1599991301.303937) can0 0E0#004B00E0717F0000
(1599991301.307372) can0 113#0E4C0000AA090C14
(1599991301.307960) can0 122#0000000000000688
(1599991301.308190) can0 123#0000000000000688
(1599991301.308426) can0 124#2E932F29A2F060CE
(1599991301.308894) can0 125#000001080000061E
(1599991301.309890) can0 390#0800000000000000
(1599991301.310951) can0 084#0100007A508C99FE
(1599991301.311163) can0 085#A6000E4CD4600090
(1599991301.313970) can0 0E0#004B00E0814C0000
(1599991301.314926) can0 150#7E0004042D036C9A
(1599991301.315367) can0 2B1#2100000000000000
(1599991301.317509) can0 191#00008120000007CC
(1599991301.320867) can0 084#0100007A508C9A8F
(1599991301.321084) can0 085#A6000E4C096000A0
(1599991301.323306) can0 26D#40540A0412000000
(1599991301.323723) can0 2A0#0000000000000000
(1599991301.323980) can0 2A1#0000007F7F7F7F7F
(1599991301.324220) can0 0E0#004B00E091AC0000
(1599991301.324480) can0 285#C920C92000000100
(1599991301.324700) can0 2A3#E707E71800000300
(1599991301.324973) can0 2A4#0080000000000000
(1599991301.325240) can0 2A5#000F071F00000000
(1599991301.325506) can0 2A7#0000000000001400
(1599991301.325773) can0 2A8#004000000000706C
(1599991301.326039) can0 2AA#0000000000000000
(1599991301.326305) can0 2AE#0100000000000000
(1599991301.327349) can0 113#0E4C0000AA090D3B
(1599991301.327961) can0 122#00000000000007A7
(1599991301.328193) can0 123#00000000000007A7
(1599991301.328430) can0 124#2E932F29A2F07060
(1599991301.328904) can0 125#0000010800000731
(1599991301.330966) can0 084#0100007A508C9BA0
(1599991301.331164) can0 085#A6000E4CA76000B0
(1599991301.331908) can0 218#5E00000000000531
(1599991301.333288) can0 3F6#3D25FF000000025D
(1599991301.333508) can0 260#0000000000001D00
(1599991301.333955) can0 0E0#004B00E0A1A30000
(1599991301.334180) can0 1F2#9E9FA0A14E535052
(1599991301.334713) can0 150#7E0004042D036DB5
(1599991301.334943) can0 286#C920C92000000000
(1599991301.337515) can0 191#0000812000000856
(1599991301.340898) can0 084#0100007A508C9C6D
(1599991301.341111) can0 085#A6000E4ED96000C0
(1599991301.341595) can0 288#A500004D00000059
(1599991301.341821) can0 28A#C3000200985706C8
(1599991301.342668) can0 2F1#2188FFFFFFFF7900
(1599991301.342888) can0 2F2#110210090A000000
(1599991301.343925) can0 0E0#004B00E0B1430000
(1599991301.344151) can0 1F0#04180000FFFF0860
(1599991301.344801) can0 284#004140530C680200
(1599991301.345368) can0 415#1500050110000000
(1599991301.347358) can0 113#0E4C0000AA090E4A
(1599991301.347964) can0 122#000000000000083D
(1599991301.348205) can0 123#000000000000083D
(1599991301.348438) can0 124#2E932F29A2F080B8
(1599991301.348674) can0 2FB#000007E1465F07F3
(1599991301.348915) can0 125#00000108000008AB
(1599991301.349161) can0 2FC#0A00000000004019
(1599991301.349412) can0 2FD#0000000000001000
(1599991301.350966) can0 084#0100007A508C9D42
(1599991301.351185) can0 085#A6000E4E776000D0
(1599991301.353992) can0 0E0#004B00E0C1BD0000
(1599991301.354904) can0 287#005900000000C940
(1599991301.355126) can0 150#7E0004042D036EC4
(1599991301.357500) can0 191#0000812000000979
(1599991301.360871) can0 084#0100007A508C9E33
(1599991301.361086) can0 085#A6000E4EAA6000E0
(1599991301.363939) can0 0E0#004B00E0D15D0000
(1599991301.364161) can0 370#0F00000000000000
(1599991301.367358) can0 113#0E4E0000AA090FCD
(1599991301.367952) can0 122#0000000000000912
(1599991301.368191) can0 123#0000000000000912
(1599991301.368417) can0 124#2E932F29A2F09016
(1599991301.368889) can0 125#0000010800000984
(1599991301.370930) can0 084#0100007A508C9F1C
(1599991301.371156) can0 085#A6000E4E046000F0
(1599991301.373974) can0 0E0#004B00E0E1520000
(1599991301.374894) can0 150#7E0004042D036FEB
(1599991301.377517) can0 191#0000812000000A08
(1599991301.380870) can0 084#0100007A508C9086
(1599991301.381090) can0 085#A6000E46E7600000
(1599991301.383941) can0 0E0#004B00E0F1B20000
(1599991301.384142) can0 1F2#9E9FA0A14E535052
(1599991301.384396) can0 2C2#0000000000000000
(1599991301.387389) can0 113#0E4E0000AA090057
(1599991301.387957) can0 122#0000000000000A63
(1599991301.388192) can0 123#0000000000000A63
(1599991301.388418) can0 124#2E932F29A2F0A0CB
(1599991301.388894) can0 125#0000010800000AF5
(1599991301.390919) can0 084#0100007A508C91A9
(1599991301.391142) can0 085#A6000E4649600010
(1599991301.393210) can0 3F0#2536340702170007
(1599991301.394019) can0 0E0#004B00E001810000
(1599991301.394239) can0 1F0#04180000FFFF094F
(1599991301.394487) can0 281#0000000100000888
(1599991301.394954) can0 150#7E0004042D036071
(1599991301.397529) can0 191#0000812000000B27
(1599991301.400876) can0 084#0100007A508C92D8
(1599991301.401090) can0 085#A6000E4694600020
(1599991301.403941) can0 0E0#004B00E011610000
(1599991301.407366) can0 113#0E460000AA090186
(1599991301.407964) can0 122#0000000000000B4C
(1599991301.408197) can0 123#0000000000000B4C
(1599991301.408425) can0 124#2E932F29A2F0B065
(1599991301.408909) can0 125#0000010800000BDA
(1599991301.410955) can0 084#0100007A508C93F7
(1599991301.411175) can0 085#A6000E463A600030
(1599991301.413955) can0 0E0#004B00E0216E0000
(1599991301.414888) can0 150#7E0004042D03615E
(1599991301.415362) can0 2AB#0190430000030100
(1599991301.415616) can0 2B1#2100000000000000
(1599991301.417489) can0 191#0000812000000CEA
(1599991301.420869) can0 084#0100007A508C943A
(1599991301.421090) can0 085#A6000E40CE600040
(1599991301.423323) can0 26D#40540A0412000000
(1599991301.423731) can0 2A0#0000000000000000
(1599991301.423991) can0 2A1#0000007F7F7F7F7F
(1599991301.424228) can0 0E0#004B00E0318E0000
(1599991301.424479) can0 285#C920C92000000100
(1599991301.424707) can0 2A3#E707E71800000300
(1599991301.424981) can0 2A4#0080000000000000
(1599991301.425225) can0 380#17908B0000000000
(1599991301.425474) can0 2A5#000F071F00000000
(1599991301.425738) can0 2A7#0000000000001400
(1599991301.426010) can0 2A8#00400000000080B4
(1599991301.426275) can0 2AA#0000000000000000
(1599991301.426540) can0 2AE#0100000000000000
(1599991301.426808) can0 3E1#00000000000004D6
(1599991301.427074) can0 3E2#00000000000004D6
(1599991301.427308) can0 113#0E460000AA0902F7
(1599991301.428068) can0 122#0000000000000C81
(1599991301.428433) can0 123#0000000000000C81
(1599991301.428750) can0 124#2E932F29A2F0C05E
(1599991301.429007) can0 125#0000010800000C17
(1599991301.430932) can0 084#0100007A508C9515
(1599991301.431134) can0 085#A6000E4060600050
(1599991301.431875) can0 218#5E00000000000640
(1599991301.433272) can0 260#0000000000001D00
(1599991301.434054) can0 0E0#004B00E041700000
(1599991301.434276) can0 1F2#9E9FA0A14E535052
(1599991301.434728) can0 150#7E0004042D03622F
(1599991301.434960) can0 286#C920C92000000000
(1599991301.437514) can0 191#0000812000000DC5
(1599991301.440888) can0 084#0100007A508C9664
(1599991301.441107) can0 085#A6000E40BD600060
(1599991301.441589) can0 288#A500004D00000059
(1599991301.441817) can0 28A#C3000200985707E7
(1599991301.442670) can0 2F1#2188FFFFFFFF7900
(1599991301.442905) can0 2F2#110210090A000000
(1599991301.443917) can0 0E0#004B00E051900000
(1599991301.444154) can0 1F0#04180000FFFF0A3E
(1599991301.444773) can0 284#004140530C680200
(1599991301.447352) can0 113#0E400000AA09030F
(1599991301.447974) can0 122#0000000000000DAE
(1599991301.448212) can0 123#0000000000000DAE
(1599991301.448449) can0 124#2E932F29A2F0D0F0
(1599991301.448678) can0 2FB#000007DE466207F3
(1599991301.448920) can0 125#0000010800000D38
(1599991301.449164) can0 2FC#0A00000000004019
(1599991301.449411) can0 2FD#0000000000001000
(1599991301.450940) can0 084#0100007A508C974B
(1599991301.451155) can0 085#A7000E40E7600070
(1599991301.453972) can0 0E0#004B00E0619F0000
(1599991301.454878) can0 287#005900000000C940
(1599991301.455095) can0 150#7E000403ED036346
(1599991301.457515) can0 191#0000812000000EB4
(1599991301.460863) can0 084#0100007A508C98D1
(1599991301.461091) can0 085#A7000E403F600080
(1599991301.463951) can0 0E0#004B00E0717F0000
(1599991301.467357) can0 113#0E400000AA0904C2
(1599991301.467976) can0 122#0000000000000EDF
(1599991301.468216) can0 123#0000000000000EDF
(1599991301.468443) can0 124#2E932F29A2F0E02D
(1599991301.468909) can0 125#0000010800000E49
(1599991301.470935) can0 084#0100007A508C99FE
(1599991301.471160) can0 085#A7000E4C20600090
(1599991301.473974) can0 0E0#004B00E0814C0000
(1599991301.474864) can0 150#7E0004042D0364CD
(1599991301.477596) can0 191#0000812000000F9B
(1599991301.480883) can0 084#0100007A508C9A8F
(1599991301.481096) can0 085#A7000E4CFD6000A0
(1599991301.483940) can0 0E0#004B00E091AC0000
(1599991301.484140) can0 1F2#9E9FA0A14E535052
(1599991301.485420) can0 2C2#0000000000000000
(1599991301.487384) can0 113#0E4C0000AA09056C
(1599991301.487982) can0 122#0000000000000FF0
(1599991301.488225) can0 123#0000000000000FF0
(1599991301.488454) can0 124#2E932F29A2F0F083
(1599991301.488921) can0 125#0000010800000F66
(1599991301.491003) can0 084#0100007A508C9BA0
(1599991301.491199) can0 085#A7000E4C536000B0
(1599991301.493977) can0 0E0#004C00E0A1200000
(1599991301.494197) can0 1F0#04180000FFFF0B11
(1599991301.494443) can0 281#00000001000009A7
(1599991301.494906) can0 150#7E0004042D0365E2
(1599991301.497556) can0 191#0000812000000001
(1599991301.500876) can0 084#0100007A508C9C6D
(1599991301.501102) can0 085#A7000E4C686000C0
(1599991301.503746) can0 407#0710050110000000
(1599991301.503947) can0 0E0#004B00E0B1430000
(1599991301.507378) can0 113#0E4C0000AA09061D
(1599991301.507976) can0 122#000000000000006A
(1599991301.508221) can0 123#000000000000006A
(1599991301.508463) can0 124#2E932F29A2F0005B
(1599991301.508944) can0 125#00000108000000FC
(1599991301.510980) can0 084#0100007A508C9D42
(1599991301.511199) can0 085#A7000E52446000D0
(1599991301.513972) can0 0E0#004B00E0C1BD0000
(1599991301.514863) can0 150#7E0004042D036693
(1599991301.515390) can0 2B1#2100000000000000
(1599991301.517511) can0 191#000081200000012E
(1599991301.520872) can0 084#0100007A508C9E33
(1599991301.521085) can0 085#A7000E52996000E0
(1599991301.523306) can0 26D#40540A0412000000
(1599991301.523732) can0 2A0#0000000000000000
(1599991301.523991) can0 2A1#0000007F7F7F7F7F
(1599991301.524229) can0 0E0#004B00E0D15D0000
(1599991301.524472) can0 285#C920C92000000100
(1599991301.524708) can0 2A3#E707E71800000300
(1599991301.524981) can0 2A4#0080000000000000
(1599991301.525246) can0 2A5#000F071F00000000
(1599991301.525511) can0 2A7#0000000000001400
(1599991301.525781) can0 2A8#004000000000901A
(1599991301.526047) can0 2AA#0000000000000000
(1599991301.526319) can0 2AE#0100000000000000
(1599991301.527387) can0 113#0E520000AA0907C8
(1599991301.527983) can0 122#0000000000000145
(1599991301.528221) can0 123#0000000000000145
(1599991301.528452) can0 124#2E932F29A2F010F5
(1599991301.528956) can0 125#00000108000001D3
(1599991301.531009) can0 084#0100007A508C9F1C
(1599991301.531215) can0 085#A7000E52376000F0
(1599991301.531960) can0 218#5E0000000000076F
(1599991301.533257) can0 3F6#3D25FF0000000372
(1599991301.533482) can0 260#0000000000001D00
(1599991301.533947) can0 0E0#004B00E0E1520000
(1599991301.534172) can0 1F2#9E9FA0A14E535052
(1599991301.534770) can0 150#7E0004042D0367BC
(1599991301.534998) can0 286#C920C92000000000
(1599991301.537520) can0 191#000081200000025F
(1599991301.540895) can0 084#0100007A508C9086
(1599991301.541146) can0 085#A7000E52EF600000
(1599991301.541602) can0 288#A500004D00000059
(1599991301.541828) can0 28A#C30002009857087D
(1599991301.542683) can0 2F1#2188FFFFFFFF7900
(1599991301.542918) can0 2F2#110210090A000000
(1599991301.543930) can0 0E0#004B00E0F1B20000
(1599991301.544149) can0 1F0#04180000FFFF0CDC
(1599991301.544753) can0 284#004140530C680200
(1599991301.547388) can0 113#0E520000AA090852
(1599991301.547970) can0 122#0000000000000234
(1599991301.548209) can0 123#0000000000000234
(1599991301.548451) can0 124#2E932F29A2F02028
(1599991301.548676) can0 2FB#000007DC465D07ED
(1599991301.548919) can0 125#00000108000002A2
(1599991301.549164) can0 2FC#0A00000000004019
(1599991301.549412) can0 2FD#0000000000001000
(1599991301.551532) can0 084#0100007A508C91A9
(1599991301.551736) can0 085#A7000E4E86600010
(1599991301.553981) can0 0E0#004B00E001810000
(1599991301.554850) can0 287#005900000000C940
(1599991301.555074) can0 150#7E0004046D0368D7
(1599991301.557516) can0 191#0000812000000370
(1599991301.560872) can0 084#0100007A508C92D8
(1599991301.561094) can0 085#A7000E4E5B600020
(1599991301.563921) can0 0E0#004C00E011E20000
(1599991301.567383) can0 113#0E4E0000AA09092F
(1599991301.567971) can0 122#000000000000031B
(1599991301.568219) can0 123#000000000000031B
(1599991301.568477) can0 124#2E932F29A2F03086
(1599991301.568924) can0 125#000001080000038D
(1599991301.570998) can0 084#0100007A508C93F7
(1599991301.571205) can0 085#A7000E4EF5600030
(1599991301.573975) can0 0E0#004B00E0216E0000
(1599991301.574831) can0 150#7E0004042D036909
(1599991301.577528) can0 191#00008120000004BD
(1599991301.580874) can0 084#0100007A508C943A
(1599991301.581091) can0 085#A7000E4ECE600040
(1599991301.583920) can0 1F2#9E9FA0A14E535052
(1599991301.584129) can0 0E0#004B00E0318E0000
(1599991301.586437) can0 2C2#0000000000000000
(1599991301.587357) can0 113#0E4E0000AA090A5E
(1599991301.587971) can0 122#00000000000004D6
(1599991301.588213) can0 123#00000000000004D6
(1599991301.588445) can0 124#2E932F29A2F040BD
(1599991301.588919) can0 125#0000010800000440
(1599991301.589412) can0 41C#1C00020102000000
(1599991301.590955) can0 084#0100007A508C9515
(1599991301.591182) can0 085#A7000E4E60600050
(1599991301.593984) can0 0E0#004C00E041F30000
(1599991301.594200) can0 1F0#04180000FFFF0DF3
(1599991301.594447) can0 281#0000000100000AD6
(1599991301.594933) can0 150#7E000403ED036A3E
(1599991301.597537) can0 191#0000812000000592
(1599991301.600878) can0 084#0100007A508C9664
(1599991301.601094) can0 085#A7000E5C8E600060
(1599991301.603942) can0 0E0#004B00E051900000
(1599991301.607413) can0 113#0E4E0000AA090B71
(1599991301.607990) can0 122#00000000000005F9
(1599991301.608224) can0 123#00000000000005F9
(1599991301.608807) can0 124#2E932F29A2F05013
(1599991301.608926) can0 125#000001080000056F
(1599991301.611008) can0 084#0100007A508C974B
(1599991301.611215) can0 085#A7000E5C20600070
(1599991301.613953) can0 0E0#004B00E0619F0000
(1599991301.614852) can0 150#7E000403AD036BE0
(1599991301.615377) can0 2AB#0190430000030100
(1599991301.615632) can0 2B1#2100000000000000
(1599991301.617502) can0 191#00008120000006E3
(1599991301.618368) can0 40E#0E100601E0030000
(1599991301.620868) can0 084#0100007A508C98D1
(1599991301.621092) can0 085#A7000E5CF8600080
(1599991301.623283) can0 26D#40540A0412000000
(1599991301.623742) can0 2A0#0000000000000000
(1599991301.623999) can0 2A1#0000007F7F7F7F7F
(1599991301.624327) can0 0E0#004B00E0717F0000
(1599991301.624500) can0 285#C920C92000000100
(1599991301.624719) can0 2A3#E707E71800000300
(1599991301.624991) can0 2A4#0080000000000000
(1599991301.625234) can0 380#17A0D10000000000
(1599991301.625484) can0 2A5#000F071F00000000
(1599991301.625755) can0 2A7#0000000000001400
(1599991301.626017) can0 2A8#004000000000A0C7
(1599991301.626285) can0 2AA#0000000000000000
(1599991301.626549) can0 2AE#0100000000000000
(1599991301.626824) can0 3E1#00000000000005F9
(1599991301.627091) can0 3E2#00000000000005F9
(1599991301.627404) can0 113#0E5C0000AA090CC7
(1599991301.628066) can0 122#0000000000000688
(1599991301.628341) can0 123#0000000000000688
(1599991301.628534) can0 124#2E932F29A2F060CE
(1599991301.629015) can0 125#000001080000061E
(1599991301.631045) can0 084#0100007A508C99FE
(1599991301.631186) can0 085#A7000E5C56600090
(1599991301.631920) can0 218#5E000000000008F5
(1599991301.633275) can0 260#0000000000001D00
(1599991301.634052) can0 0E0#004B00E0814C0000
(1599991301.634276) can0 1F2#9E9FA0A14E535052
(1599991301.634785) can0 150#7E0004026D036CA4
(1599991301.635018) can0 286#C920C92000000000
(1599991301.637562) can0 191#00008120000007CC
(1599991301.640902) can0 084#0100007A508C9A8F
(1599991301.641124) can0 085#A7000E527F6000A0
(1599991301.641607) can0 288#A500004D00000059
(1599991301.641829) can0 28A#C300020098570952
(1599991301.642700) can0 2F1#2188FFFFFFFF7900
(1599991301.642934) can0 2F2#110210090A000000
(1599991301.643909) can0 0E0#004B00E091AC0000
(1599991301.644146) can0 1F0#04180000FFFF0E82
(1599991301.644717) can0 284#004140530C680200
(1599991301.647405) can0 113#0E5C0000AA090DE8
(1599991301.647985) can0 122#00000000000007A7
(1599991301.648222) can0 123#00000000000007A7
(1599991301.648458) can0 124#2E932F29A2F07060
(1599991301.648694) can0 2FB#000007DE466207F3
(1599991301.648936) can0 125#0000010800000731
(1599991301.649245) can0 2FC#0A00000000004019
(1599991301.649427) can0 2FD#0000000000001000
(1599991301.651001) can0 084#0100007A508C9BA0
(1599991301.651211) can0 085#A7000E52D16000B0
(1599991301.653961) can0 0E0#004B00E0A1A30000
(1599991301.654812) can0 287#005900000000C940
(1599991301.655034) can0 150#7E000400AD036DF2
(1599991301.657527) can0 191#0000812000000856
(1599991301.660872) can0 084#0100007A508C9C6D
(1599991301.661099) can0 085#A7000E52EA6000C0
(1599991301.663919) can0 0E0#004B00E0B1430000
(1599991301.667391) can0 113#0E520000AA090EB0
(1599991301.668001) can0 122#000000000000083D
(1599991301.668325) can0 123#000000000000083D
(1599991301.668481) can0 124#2E932F29A2F080B8
(1599991301.668946) can0 125#00000108000008AB
(1599991301.671236) can0 084#0100007A508C9D42
(1599991301.671444) can0 085#A7000E52446000D0
(1599991301.673964) can0 0E0#004B00E0C1BD0000
(1599991301.674823) can0 150#7E000400AD036E83
(1599991301.677545) can0 191#0000812000000979
(1599991301.680881) can0 084#0100007A508C9E33
(1599991301.681103) can0 085#A7000E52996000E0
(1599991301.683901) can0 1F2#9E9FA0A14E535052
(1599991301.684100) can0 0E0#004B00E0D15D0000
(1599991301.687403) can0 113#0E520000AA090F9F
(1599991301.687614) can0 2C2#0000000000000000
(1599991301.687984) can0 122#0000000000000912
(1599991301.688225) can0 123#0000000000000912
(1599991301.688469) can0 124#2E932F29A2F09016
(1599991301.688919) can0 125#0000010800000984
(1599991301.690985) can0 084#0100007A508C9F1C
(1599991301.691188) can0 085#A8000E4C4A6000F0
(1599991301.693971) can0 0E0#004B00E0E1520000
(1599991301.694191) can0 1F0#04180000FFFF0FAD
(1599991301.694436) can0 281#0000000100000BF9
(1599991301.694910) can0 150#7E000401AD036F19
(1599991301.697541) can0 191#0000812000000A08
(1599991301.700870) can0 084#0100007A508C9086
(1599991301.701103) can0 085#A8000E4C92600000
(1599991301.703943) can0 0E0#004B00E0F1B20000
(1599991301.707394) can0 113#0E4C0000AA0900FF
(1599991301.707988) can0 122#0000000000000A63
(1599991301.708224) can0 123#0000000000000A63
(1599991301.708468) can0 124#2E932F29A2F0A0CB
(1599991301.708926) can0 125#0000010800000AF5
(1599991301.710960) can0 084#0100007A508C91A9
(1599991301.711180) can0 085#A8000E4C3C600010
(1599991301.713982) can0 0E0#004B00E001810000
(1599991301.714831) can0 150#7E000401AD036083
(1599991301.715399) can0 2B1#2100000000000000
(1599991301.717525) can0 191#0000812000000B27
(1599991301.720882) can0 084#0100007A508C92D8
(1599991301.721106) can0 085#A8000E4CE1600020
(1599991301.723315) can0 26D#40540A0412000000
(1599991301.723744) can0 2A0#0000000000000000
(1599991301.724001) can0 2A1#0000007F7F7F7F7F
(1599991301.724317) can0 0E0#004C00E011E20000
(1599991301.724482) can0 285#C920C92000000100
(1599991301.724722) can0 2A3#E707E71800000300
(1599991301.724990) can0 2A4#0080000000000000
(1599991301.725260) can0 2A5#000F071F00000000
(1599991301.725527) can0 2A7#0000000000001400
(1599991301.725794) can0 2A8#004000000000B069
(1599991301.726063) can0 2AA#0000000000000000
(1599991301.726330) can0 2AE#0100000000000000
(1599991301.727377) can0 113#0E4C0000AA0901D0
(1599991301.727985) can0 122#0000000000000B4C
(1599991301.728225) can0 123#0000000000000B4C
(1599991301.728453) can0 124#2E932F29A2F0B065
(1599991301.728933) can0 125#0000010800000BDA
(1599991301.731258) can0 084#0100007A508C93F7
(1599991301.731459) can0 085#A8000E48C5600030
(1599991301.731996) can0 218#5E000000000009DA
(1599991301.733285) can0 3F6#3D25FF00000004BF
(1599991301.733510) can0 260#0000000000001D00
(1599991301.733950) can0 0E0#004B00E0216E0000
(1599991301.734175) can0 1F2#9E9FA0A14E535052
(1599991301.734600) can0 150#7E0004022D036191
(1599991301.734829) can0 286#C920C92000000000
(1599991301.737535) can0 191#0000812000000CEA
(1599991301.740950) can0 084#0100007A508C943A
(1599991301.741168) can0 085#A8000E48FE600040
(1599991301.741657) can0 288#A500004D00000059
(1599991301.741878) can0 28A#C300020098570A23
(1599991301.742738) can0 2F1#2188FFFFFFFF7900
(1599991301.742958) can0 2F2#110210090A000000
(1599991301.743919) can0 0E0#004B00E0318E0000
(1599991301.744170) can0 1F0#04180000FFFF0037
(1599991301.744693) can0 284#004140530C680200
(1599991301.747364) can0 113#0E480000AA0902DE
(1599991301.747993) can0 122#0000000000000C81
(1599991301.748236) can0 123#0000000000000C81
(1599991301.748477) can0 124#2E932F29A2F0C05E
(1599991301.748700) can0 2FB#000007DE465B07EF
(1599991301.748945) can0 125#0000010800000C17
(1599991301.749194) can0 2FC#0A00000000004019
(1599991301.749438) can0 2FD#0000000000001000
(1599991301.750931) can0 084#0100007A508C9515
(1599991301.751157) can0 085#A8000E4850600050
(1599991301.753962) can0 0E0#004B00E041700000
(1599991301.754609) can0 150#7E0004026D036211
(1599991301.754839) can0 287#005900000000C940
(1599991301.757525) can0 191#0000812000000DC5
(1599991301.760892) can0 084#0100007A508C9664
(1599991301.761104) can0 085#A8000E488D600060
(1599991301.763983) can0 0E0#004B00E051900000
(1599991301.767373) can0 113#0E480000AA0903F1
(1599991301.767999) can0 122#0000000000000DAE
(1599991301.768310) can0 123#0000000000000DAE
(1599991301.768465) can0 124#2E932F29A2F0D0F0
(1599991301.768936) can0 125#0000010800000D38
(1599991301.770949) can0 084#0100007A508C974B
(1599991301.771173) can0 085#A8000E425D600070
(1599991301.773256) can0 402#0210020102000000
(1599991301.773944) can0 0E0#004B00E0619F0000
(1599991301.774581) can0 150#7E0004022D0363CF
(1599991301.777539) can0 191#0000812000000EB4
(1599991301.780880) can0 084#0100007A508C98D1
(1599991301.781102) can0 085#A8000E4285600080
(1599991301.783872) can0 1F2#9E9FA0A14E535052
(1599991301.784079) can0 0E0#004C00E071FC0000
(1599991301.787298) can0 113#0E420000AA09046A
(1599991301.788076) can0 122#0000000000000EDF
(1599991301.788356) can0 123#0000000000000EDF
(1599991301.788492) can0 124#2E932F29A2F0E02D
(1599991301.788746) can0 2C2#0000000000000000
(1599991301.788985) can0 125#0000010800000E49
(1599991301.790879) can0 084#0100007A508C99FE
(1599991301.791088) can0 085#A8000E422B600090
(1599991301.793973) can0 0E0#004B00E0814C0000
(1599991301.794187) can0 1F0#04180000FFFF0118
(1599991301.794430) can0 281#0000000100000C34
(1599991301.794906) can0 150#7E0004026D0364F3
(1599991301.797564) can0 191#0000812000000F9B
(1599991301.800886) can0 084#0100007A508C9A8F
(1599991301.801105) can0 085#A8000E42F66000A0
(1599991301.803927) can0 0E0#004B00E091AC0000
(1599991301.807374) can0 113#0E420000AA090545
(1599991301.808014) can0 122#0000000000000FF0
(1599991301.808325) can0 123#0000000000000FF0
(1599991301.808478) can0 124#2E932F29A2F0F083
(1599991301.808951) can0 125#0000010800000F66
(1599991301.809965) can0 390#0800000000000000
(1599991301.810966) can0 084#0100007A508C9BA0
(1599991301.811187) can0 085#A8000E42586000B0
(1599991301.813952) can0 0E0#004B00E0A1A30000
(1599991301.814586) can0 150#7E000402ED036511
(1599991301.815394) can0 2AB#0190430000030100
(1599991301.815648) can0 2B1#2100000000000000
(1599991301.817557) can0 191#0000812000000001
(1599991301.820878) can0 084#0100007A508C9C6D
(1599991301.821103) can0 085#A8000E3EBF6000C0
(1599991301.823334) can0 26D#40540A0412000000
(1599991301.823752) can0 2A0#0000000000000000
(1599991301.824009) can0 2A1#0000007F7F7F7F7F
(1599991301.824333) can0 0E0#004B00E0B1430000
(1599991301.824493) can0 285#C920C92000000100
(1599991301.824729) can0 2A3#E707E71800000300
(1599991301.824998) can0 2A4#0080000000000000
(1599991301.825247) can0 380#17B0020000000000
(1599991301.825495) can0 2A5#000F071F00000000
(1599991301.825766) can0 2A7#0000000000001400
(1599991301.826026) can0 2A8#004000000000C052
(1599991301.826296) can0 2AA#0000000000000000
(1599991301.826562) can0 2AE#0100000000000000
(1599991301.826834) can0 3E1#0000000000000688
(1599991301.827100) can0 3E2#0000000000000688
(1599991301.827329) can0 113#0E420000AA090634
(1599991301.828080) can0 122#000000000000006A
(1599991301.828342) can0 123#000000000000006A
(1599991301.828787) can0 124#2E932F29A2F0005B
(1599991301.829048) can0 125#00000108000000FC
(1599991301.830949) can0 084#0100007A508C9D42
(1599991301.831182) can0 085#A8000E3E116000D0
(1599991301.831909) can0 218#5E00000000000AAB
(1599991301.833283) can0 260#0000000000001D00
(1599991301.834053) can0 1F2#9E9FA0A14E535052
(1599991301.834287) can0 0E0#004B00E0C1BD0000
(1599991301.834769) can0 286#C920C92000000000
(1599991301.835025) can0 150#7E0004026D0366AD
(1599991301.837544) can0 191#000081200000012E
(1599991301.840905) can0 084#0100007A508C9E33
(1599991301.841135) can0 085#A8000E3ECC6000E0
(1599991301.841614) can0 288#A500004D00000059
(1599991301.841844) can0 28A#C200020098570BF8
(1599991301.842731) can0 2F1#2188FFFFFFFF7900
(1599991301.842964) can0 2F2#110210090A000000
(1599991301.843909) can0 0E0#004B00E0D15D0000
(1599991301.844136) can0 1F0#04180000FFFF0269
(1599991301.844664) can0 284#004140530C680200
(1599991301.845411) can0 415#1500050110000000
(1599991301.847369) can0 113#0E3E0000AA0907FD
(1599991301.848010) can0 122#0000000000000145
(1599991301.848332) can0 123#0000000000000145
(1599991301.848506) can0 124#2E932F29A2F010F5
(1599991301.848724) can0 2FB#000007DF465F07EF
(1599991301.848968) can0 125#00000108000001D3
(1599991301.849215) can0 2FC#0A00000000004019
(1599991301.849461) can0 2FD#0000000000001000
(1599991301.850986) can0 084#0100007A508C9F1C
(1599991301.851195) can0 085#A8000E3E626000F0
(1599991301.853959) can0 0E0#004B00E0E1520000
(1599991301.854597) can0 150#7F000401AD0367BA
(1599991301.854823) can0 287#005900000000C940
(1599991301.857590) can0 191#000081200000025F
(1599991301.860877) can0 084#0100007A508C9086
(1599991301.861103) can0 085#A8000E4023600000
(1599991301.863878) can0 370#0F00000000000000
(1599991301.864105) can0 0E0#004B00E0F1B20000
(1599991301.867368) can0 113#0E3E0000AA090867
(1599991301.868021) can0 122#0000000000000234
(1599991301.868331) can0 123#0000000000000234
(1599991301.868486) can0 124#2E932F29A2F02028
(1599991301.868951) can0 125#00000108000002A2
(1599991301.870940) can0 084#0100007A508C91A9
(1599991301.871171) can0 085#A8000E408D600010
(1599991301.873247) can0 3F1#015F6F0001219E00
(1599991301.874138) can0 0E0#004B00E001810000
(1599991301.874997) can0 150#7E0004022D0368E9
(1599991301.877538) can0 191#0000812000000370
(1599991301.880891) can0 084#0100007A508C92D8
(1599991301.881117) can0 085#A8000E4050600020
(1599991301.883847) can0 1F2#9E9FA0A14E535052
(1599991301.884047) can0 0E0#004B00E011610000
(1599991301.887380) can0 113#0E400000AA090906
(1599991301.888046) can0 122#000000000000031B
(1599991301.888326) can0 123#000000000000031B
(1599991301.888480) can0 124#2E932F29A2F03086
(1599991301.888952) can0 125#000001080000038D
(1599991301.889441) can0 2C2#0000000000000000
(1599991301.890942) can0 084#0100007A508C93F7
(1599991301.891182) can0 085#A8000E40FE600030
(1599991301.893228) can0 3F0#2636340702170007
(1599991301.894011) can0 0E0#004B00E0216E0000
(1599991301.894244) can0 1F0#04180000FFFF0346
(1599991301.894491) can0 281#0000000100000D1B
(1599991301.894963) can0 150#7E000403ED03694F
(1599991301.897561) can0 191#00008120000004BD
(1599991301.901556) can0 084#0100007A508C943A
(1599991301.901768) can0 085#A8000E40C5600040
(1599991301.903926) can0 0E0#004B00E0318E0000
(1599991301.907301) can0 113#0E400000AA090A77
(1599991301.908020) can0 122#00000000000004D6
(1599991301.908338) can0 123#00000000000004D6
(1599991301.908498) can0 124#2E932F29A2F040BD
(1599991301.908975) can0 125#0000010800000440
(1599991301.910874) can0 084#0100007A508C9515
(1599991301.911105) can0 085#A8000E406B600050
(1599991301.913292) can0 3F7#FFF0FFF8FFF807C6
(1599991301.913957) can0 0E0#004B00E041700000
(1599991301.914889) can0 150#7E0004062D036A3D
(1599991301.915417) can0 2B1#2100000000000000
(1599991301.917562) can0 191#0000812000000592
(1599991301.920894) can0 084#0100007A508C9664
(1599991301.921107) can0 085#A9000E4042600060
(1599991301.923331) can0 26D#40540A0412000000
(1599991301.923762) can0 2A0#0000000000000000
(1599991301.924019) can0 2A1#0000007F7F7F7F7F
(1599991301.924343) can0 0E0#004B00E051900000
(1599991301.924517) can0 285#C920C92000000100
(1599991301.924735) can0 2A3#E707E71800000300
(1599991301.925005) can0 2A4#0080000000000000
(1599991301.925273) can0 2A5#000F071F00000000
(1599991301.925541) can0 2A7#0000000000001400
(1599991301.925806) can0 2A8#004000000000D0FC
(1599991301.926073) can0 2AA#0000000000000000
(1599991301.926343) can0 2AE#0100000000000000
(1599991301.927357) can0 113#0E400000AA090B58
(1599991301.928020) can0 122#00000000000005F9
(1599991301.928333) can0 123#00000000000005F9
(1599991301.928481) can0 124#2E932F29A2F05013
(1599991301.928963) can0 125#000001080000056F
(1599991301.930954) can0 084#0100007A508C974B
(1599991301.931191) can0 085#A9000E40EC600070
(1599991301.931947) can0 218#5E00000000000B84
(1599991301.933321) can0 3F6#3CFFFF00000005A6
(1599991301.933554) can0 260#0000000000001D00
(1599991301.933935) can0 0E0#004B00E0619F0000
(1599991301.934164) can0 1F2#9E9FA0A14E535052
(1599991301.934608) can0 150#7E0004066D036BE3
(1599991301.934846) can0 286#C920C92000000000
(1599991301.937554) can0 191#00008120000006E3
(1599991301.940912) can0 084#0100007A508C98D1
(1599991301.941129) can0 085#A9000E4034600080
(1599991301.941620) can0 288#A500004D00000059
(1599991301.941842) can0 28A#C300020098570CC1
(1599991301.942762) can0 2F1#2188FFFFFFFF7900
(1599991301.942980) can0 2F2#110210090A000000
(1599991301.943920) can0 0E0#004B00E0717F0000
(1599991301.944146) can0 1F0#04180000FFFF048B
(1599991301.944678) can0 284#004140530C680200
(1599991301.947295) can0 113#0E400000AA090C95
(1599991301.948032) can0 122#0000000000000688
(1599991301.948344) can0 123#0000000000000688
(1599991301.948504) can0 124#2E932F29A2F060CE
(1599991301.948747) can0 2FB#000007DD466407F3
(1599991301.948986) can0 125#000001080000061E
(1599991301.949232) can0 2FC#0A00000000004019
(1599991301.949480) can0 2FD#0000000000001000
(1599991301.950891) can0 084#0100007A508C99FE
(1599991301.951095) can0 085#A9000E2E75600090
(1599991301.953952) can0 0E0#004C00E081CF0000
(1599991301.954607) can0 150#7E0004046D036C6B
(1599991301.954839) can0 287#005900000000C940
(1599991301.957550) can0 191#00008120000007CC
(1599991301.960925) can0 084#0100007A508C9A8F
(1599991301.961140) can0 085#A9000E2EA86000A0
(1599991301.963932) can0 0E0#004B00E091AC0000
(1599991301.967372) can0 113#0E2E0000AA090D27
(1599991301.968022) can0 122#00000000000007A7
(1599991301.968331) can0 123#00000000000007A7
(1599991301.968490) can0 124#2E932F29A2F07060
(1599991301.968965) can0 125#0000010800000731
(1599991301.970979) can0 084#0100007A508C9BA0
(1599991301.971185) can0 085#A9000E2E066000B0
(1599991301.973969) can0 0E0#004B00E0A1A30000
(1599991301.975013) can0 150#7E000402AD036DB7
(1599991301.977561) can0 191#0000812000000856
(1599991301.980896) can0 084#0100007A508C9C6D
(1599991301.981108) can0 085#A9000E2E3D6000C0
(1599991301.983801) can0 1F2#9E9FA0A14E535052
(1599991301.984014) can0 0E0#004B00E0B1430000
(1599991301.987308) can0 113#0E2E0000AA090E56
(1599991301.988030) can0 122#000000000000083D
(1599991301.988436) can0 123#000000000000083D
(1599991301.988728) can0 124#2E932F29A2F080B8
(1599991301.988979) can0 125#00000108000008AB
(1599991301.990474) can0 2C2#0000000000000000
(1599991301.990875) can0 084#0100007A508C9D42
(1599991301.991101) can0 085#A9000E36DE6000D0
(1599991301.993962) can0 0E0#004B00E0C1BD0000
(1599991301.994186) can0 1F0#04180000FFFF05A4
(1599991301.994426) can0 281#0000000100000E6A
(1599991301.994892) can0 150#7E000401ED036EC7
(1599991301.997578) can0 191#0000812000000979
(1599991302.000888) can0 084#0100007A508C9E33
(1599991302.001109) can0 085#A9000E36036000E0
(1599991302.003767) can0 407#0710050110000000
(1599991302.003975) can0 0E0#004B00E0D15D0000
(1599991302.007389) can0 113#0E360000AA090F54
(1599991302.008019) can0 122#0000000000000912
(1599991302.008336) can0 123#0000000000000912
(1599991302.008487) can0 124#2E932F29A2F09016
(1599991302.008959) can0 125#0000010800000984
(1599991302.010973) can0 084#0100007A508C9F1C
(1599991302.011176) can0 085#A9000E36AD6000F0
(1599991302.013964) can0 0E0#004B00E0E1520000
(1599991302.014907) can0 150#7E0004022D036F24
(1599991302.015410) can0 2AB#0190430000030100
(1599991302.015663) can0 2B1#2100000000000000
(1599991302.017560) can0 191#0000812000000A08
(1599991302.020904) can0 084#0100007A508C9086
(1599991302.021119) can0 085#A9000E3675600000
(1599991302.023353) can0 26D#40540A0412000000
(1599991302.023766) can0 2A0#0000000000000000
(1599991302.024022) can0 2A1#0000007F7F7F7F7F
(1599991302.024345) can0 0E0#004B00E0F1B20000
(1599991302.024499) can0 285#C920C92000000100
(1599991302.024739) can0 2A3#E707E71800000300
(1599991302.025012) can0 2A4#0080000000000000
(1599991302.025258) can0 380#17C0650000000000
(1599991302.025510) can0 2A5#000F071F00000000
(1599991302.025779) can0 2A7#0000000000001400
(1599991302.026048) can0 2A8#004000000000E021
(1599991302.026309) can0 2AA#0000000000000000
(1599991302.026575) can0 2AE#0100000000000000
(1599991302.026843) can0 3E1#00000000000007A7
(1599991302.027110) can0 3E2#00000000000007A7
(1599991302.027345) can0 113#0E360000AA0900CE
(1599991302.028095) can0 122#0000000000000A63
(1599991302.028341) can0 123#0000000000000A63
(1599991302.028783) can0 124#2E932F29A2F0A0CB
(1599991302.029030) can0 125#0000010800000AF5
(1599991302.030874) can0 084#0100007A508C91A9
(1599991302.031087) can0 085#A9000E36DB600010
(1599991302.031835) can0 218#5E00000000000C49
(1599991302.033319) can0 260#0000000000001D00
(1599991302.034000) can0 1F2#9E9FA0A14E535052
(1599991302.034233) can0 0E0#004B00E001810000
(1599991302.034720) can0 286#C920C92000000000
(1599991302.034977) can0 150#7E0004032D03600B
(1599991302.037583) can0 191#0000812000000B27
(1599991302.040918) can0 084#0100007A508C92D8
(1599991302.041135) can0 085#A9000E3443600020
(1599991302.041626) can0 288#A500004D00000059
(1599991302.041845) can0 28A#C300020098570DEE
(1599991302.042776) can0 2F1#2188FFFFFFFF7900
(1599991302.043000) can0 2F2#110210090A000000
(1599991302.043911) can0 0E0#004B00E011610000
(1599991302.044134) can0 1F0#04180000FFFF06D5
(1599991302.044644) can0 284#004140530C680200
(1599991302.047390) can0 113#0E360000AA0901E1
(1599991302.048021) can0 122#0000000000000B4C
(1599991302.048342) can0 123#0000000000000B4C
(1599991302.048496) can0 124#2E932F29A2F0B065
(1599991302.048725) can0 2FB#000007DF465B07F0
(1599991302.048972) can0 125#0000010800000BDA
(1599991302.049217) can0 2FC#0A00000000004019
(1599991302.049464) can0 2FD#0000000000001000
(1599991302.050968) can0 084#0100007A508C93F7
(1599991302.051188) can0 085#A9000E34ED600030
(1599991302.053968) can0 0E0#004B00E0216E0000
(1599991302.054632) can0 150#7E0004046D0361AF
(1599991302.054856) can0 287#005900000000C940
(1599991302.057555) can0 191#0000812000000CEA
(1599991302.060893) can0 084#0100007A508C943A
(1599991302.061103) can0 085#A9000E34D6600040
(1599991302.063928) can0 0E0#004B00E0318E0000
(1599991302.067387) can0 113#0E340000AA090238
(1599991302.068026) can0 122#0000000000000C81
(1599991302.068472) can0 123#0000000000000C81
(1599991302.068518) can0 124#2E932F29A2F0C05E
(1599991302.068965) can0 125#0000010800000C17
(1599991302.070957) can0 084#0100007A508C9515
(1599991302.071167) can0 085#A9000E3478600050
(1599991302.074018) can0 0E0#004B00E041700000
(1599991302.074677) can0 150#7E0004052D03629A
(1599991302.077561) can0 191#0000812000000DC5
(1599991302.080904) can0 084#0100007A508C9664
(1599991302.081120) can0 085#A9000E4042600060
(1599991302.083787) can0 1F2#9E9FA0A14E535052
(1599991302.083988) can0 0E0#004B00E051900000
(1599991302.087398) can0 113#0E340000AA090317
(1599991302.088034) can0 122#0000000000000DAE
(1599991302.088344) can0 123#0000000000000DAE
(1599991302.088492) can0 124#2E932F29A2F0D0F0
(1599991302.088973) can0 125#0000010800000D38
(1599991302.090532) can0 41C#1C00020102000000
(1599991302.090965) can0 084#0100007A508C974B
(1599991302.091188) can0 085#A9000E40EC600070
(1599991302.091476) can0 2C2#0000000000000000
(1599991302.093963) can0 0E0#004B00E0619F0000
(1599991302.094179) can0 1F0#04180000FFFF07FA
(1599991302.094426) can0 281#0000000100000F45
(1599991302.094661) can0 150#7E000403ED036346
(1599991302.097577) can0 191#0000812000000EB4
(1599991302.100902) can0 084#0100007A508C98D1
(1599991302.101111) can0 085#A9000E4034600080
(1599991302.103933) can0 0E0#004B00E0717F0000
(1599991302.107393) can0 113#0E400000AA0904C2
(1599991302.108041) can0 122#0000000000000EDF
(1599991302.108336) can0 123#0000000000000EDF
(1599991302.108507) can0 124#2E932F29A2F0E02D
(1599991302.108979) can0 125#0000010800000E49
(1599991302.110978) can0 084#0100007A508C99FE
(1599991302.111181) can0 085#A9000E409A600090
(1599991302.113963) can0 0E0#004B00E0814C0000
(1599991302.114939) can0 150#7E0004032D0364B7
(1599991302.115420) can0 2B1#2100000000000000
(1599991302.117575) can0 191#0000812000000F9B
(1599991302.118350) can0 40E#0E100601E0030000
(1599991302.121084) can0 084#0100007A508C9A8F
(1599991302.121316) can0 085#A9000E56FE6000A0
(1599991302.123301) can0 26D#40540A0412000000
(1599991302.123771) can0 2A0#0000000000000000
(1599991302.124030) can0 2A1#0000007F7F7F7F7F
(1599991302.124339) can0 0E0#004B00E091AC0000
(1599991302.124506) can0 285#C920C92000000100
(1599991302.124745) can0 2A3#E707E71800000300
(1599991302.125019) can0 2A4#0081000000000000
(1599991302.125283) can0 2A5#000F071F00000000
(1599991302.125549) can0 2A7#0000000000001400
(1599991302.125811) can0 2A8#004000000000F08F
(1599991302.126078) can0 2AA#0000000000000000
(1599991302.126349) can0 2AE#0100000000000000
(1599991302.127396) can0 113#0E400000AA0905ED
(1599991302.128042) can0 122#0000000000000FF0
(1599991302.128340) can0 123#0000000000000FF0
(1599991302.128510) can0 124#2E932F29A2F0F083
(1599991302.128987) can0 125#0000010800000F66
(1599991302.131005) can0 084#0100007A508C9BA0
(1599991302.131212) can0 085#A9000E56506000B0
(1599991302.131945) can0 218#5F00000000000D92
(1599991302.133317) can0 3F6#3CFFFF00000006D7
(1599991302.133546) can0 260#0000000000001D00
(1599991302.133934) can0 0E0#004B00E0A1A30000
(1599991302.134191) can0 1F2#9E9FA0A14E535052
(1599991302.134660) can0 286#C920C92000000000
(1599991302.134882) can0 150#7E000403ED0365A4
(1599991302.137571) can0 191#0000812000000001
(1599991302.140924) can0 084#0100007A508C9C6D
(1599991302.141140) can0 085#A9000E566B6000C0
(1599991302.141630) can0 288#A500004D00000059
(1599991302.141846) can0 28A#C300020098570E9F
(1599991302.142791) can0 2F1#2188FFFFFFFF7900
(1599991302.143012) can0 2F2#110210090A000000
(1599991302.143901) can0 1F0#04180000FFFF0860
(1599991302.144135) can0 0E0#004C00E0B1C00000
(1599991302.144619) can0 284#004140530C680200
(1599991302.147314) can0 113#0E560000AA090698
(1599991302.148043) can0 122#000000000000006A
(1599991302.148341) can0 123#000000000000006A
(1599991302.148527) can0 2FB#000007DE466207F1
(1599991302.148757) can0 124#2E932F29A2F0005B
(1599991302.149004) can0 125#00000108000000FC
(1599991302.149248) can0 2FC#0A00000000004019
(1599991302.149497) can0 2FD#0000000000001000
(1599991302.150919) can0 084#0100007A508C9D42
(1599991302.151123) can0 085#A9000E56C56000D0
(1599991302.153964) can0 0E0#004B00E0C1BD0000
(1599991302.154676) can0 287#005900000000C940
(1599991302.154992) can0 150#7E0004046D036662
(1599991302.157562) can0 191#000081200000012E
(1599991302.160894) can0 084#0100007A508C9E33
(1599991302.161109) can0 085#AA000E562B6000E0
(1599991302.163919) can0 0E0#004B00E0D15D0000
(1599991302.167406) can0 113#0E560000AA0907B7
(1599991302.168042) can0 122#0000000000000145
(1599991302.168346) can0 123#0000000000000145
(1599991302.168506) can0 124#2E932F29A2F010F5
(1599991302.168981) can0 125#00000108000001D3
(1599991302.171003) can0 084#0100007A508C9F1C
(1599991302.171209) can0 085#AA000E5A346000F0
(1599991302.173964) can0 0E0#004B00E0E1520000
(1599991302.174665) can0 150#7E000403AD03670B
(1599991302.177576) can0 191#000081200000025F
(1599991302.180933) can0 084#0100007A508C9086
(1599991302.181154) can0 085#AA000E5AEC600000
(1599991302.183738) can0 1F2#9E9FA0A14E535052
(1599991302.183961) can0 0E0#004B00E0F1B20000
(1599991302.187371) can0 113#0E5A0000AA0908AC
(1599991302.188025) can0 122#0000000000000234
(1599991302.188320) can0 123#0000000000000234
(1599991302.188494) can0 124#2E932F29A2F02028
(1599991302.188976) can0 125#00000108000002A2
(1599991302.190972) can0 084#0100007A508C91A9
(1599991302.191229) can0 085#AA000E5A42600010
(1599991302.192472) can0 2C2#0000000000000000
(1599991302.193946) can0 1F0#04180000FFFF094F
(1599991302.194177) can0 0E0#004B00E001810000
(1599991302.194427) can0 281#00000001000000DF
(1599991302.194659) can0 150#7E000403AD036891
(1599991302.197570) can0 191#0000812000000370
(1599991302.200895) can0 084#0100007A508C92D8
(1599991302.201124) can0 085#AA000E5A9F600020
(1599991302.203898) can0 0E0#004B00E011610000
(1599991302.207383) can0 113#0E5A0000AA090983
(1599991302.208035) can0 122#000000000000031B
(1599991302.208329) can0 123#000000000000031B
(1599991302.208503) can0 124#2E932F29A2F03086
(1599991302.208974) can0 125#000001080000038D
(1599991302.210975) can0 084#0100007A508C93F7
(1599991302.211196) can0 085#AA000E5EBB600030
(1599991302.213939) can0 0E0#004B00E0216E0000
(1599991302.214958) can0 150#7E0004042D036909
(1599991302.215420) can0 2AB#0190430000030100
(1599991302.215675) can0 2B1#2100000000000000
(1599991302.217578) can0 191#00008120000004BD
(1599991302.220889) can0 084#0100007A508C943A
(1599991302.221116) can0 085#AA000E5E80600040
(1599991302.223336) can0 26D#40540A0412000000
(1599991302.223779) can0 2A0#0000000000000000
(1599991302.224038) can0 2A1#0000007F7F7F7F7F
(1599991302.224325) can0 0E0#004C00E0310D0000
(1599991302.224520) can0 285#C920C92000000100
(1599991302.224759) can0 2A3#E707E71800000300
(1599991302.225032) can0 2A4#0080000000000000
(1599991302.225280) can0 380#17D0B60000000000
(1599991302.225528) can0 2A5#000F071F00000000
(1599991302.225793) can0 2A7#0000000000001400
(1599991302.226062) can0 2A8#0040000000000057
(1599991302.226328) can0 2AA#0000000000000000
(1599991302.226595) can0 2AE#0100000000000000
(1599991302.226868) can0 3E1#000000000000083D
(1599991302.227140) can0 3E2#000000000000083D
(1599991302.227373) can0 113#0E5E0000AA090A8D
(1599991302.228118) can0 122#00000000000004D6
(1599991302.228362) can0 123#00000000000004D6
(1599991302.228807) can0 124#2E932F29A2F040BD
(1599991302.229056) can0 125#0000010800000440
(1599991302.231132) can0 084#0100007A508C9515
(1599991302.231354) can0 085#AA000E5E2E600050
(1599991302.231839) can0 218#5F00000000000EE3
(1599991302.233275) can0 260#0000000000001D00
(1599991302.233934) can0 1F2#9E9FA0A14E535052
(1599991302.234172) can0 0E0#004B00E041700000
(1599991302.234657) can0 286#C920C92000000000
(1599991302.234890) can0 150#7E0004046D036A89
(1599991302.237612) can0 191#0000812000000592
(1599991302.240918) can0 084#0100007A508C9664
(1599991302.241142) can0 085#AA000E5EF3600060
(1599991302.241624) can0 288#A500004D00000059
(1599991302.241854) can0 28A#C100020098570F77
(1599991302.242796) can0 2F1#2188FFFFFFFF7900
(1599991302.243031) can0 2F2#110210090A000000
(1599991302.243869) can0 1F0#04180000FFFF0A3E
(1599991302.244105) can0 0E0#004B00E051900000
(1599991302.244586) can0 284#004140530C680200
(1599991302.247364) can0 113#0E5E0000AA090BA2
(1599991302.248040) can0 122#00000000000005F9
(1599991302.248323) can0 2FB#000007DE465B07EF
(1599991302.248518) can0 123#00000000000005F9
(1599991302.248750) can0 124#2E932F29A2F05013
(1599991302.248990) can0 125#000001080000056F
(1599991302.249238) can0 2FC#0A00000000004019
(1599991302.249486) can0 2FD#0000000000001000
(1599991302.251509) can0 084#0100007A508C974B
(1599991302.251736) can0 085#AA000E6808600070
(1599991302.254048) can0 0E0#004B00E0619F0000
(1599991302.254636) can0 287#005900000000C940
(1599991302.254871) can0 150#7E000403AD036BE0
(1599991302.257566) can0 191#00008120000006E3
(1599991302.260893) can0 084#0100007A508C98D1
(1599991302.261114) can0 085#AA000E68D0600080
(1599991302.263913) can0 0E0#004C00E071FC0000
(1599991302.267396) can0 113#0E680000AA090CE2
(1599991302.268042) can0 122#0000000000000688
(1599991302.268350) can0 123#0000000000000688
(1599991302.268502) can0 124#2E932F29A2F060CE
(1599991302.268985) can0 125#000001080000061E
(1599991302.270985) can0 084#0100007A508C99FE
(1599991302.271185) can0 085#AA000E687E600090
(1599991302.273298) can0 402#0210020102000000
(1599991302.273993) can0 0E0#004B00E0814C0000
(1599991302.274668) can0 150#7E000403AD036C2D
(1599991302.277587) can0 191#00008120000007CC
(1599991302.280917) can0 084#0100007A508C9A8F
(1599991302.281130) can0 085#AA000E68A36000A0
(1599991302.283737) can0 1F2#9E9FA0A14E535052
(1599991302.283935) can0 0E0#004B00E091AC0000
(1599991302.287395) can0 113#0E680000AA090DCD
(1599991302.288047) can0 122#00000000000007A7
(1599991302.288344) can0 123#00000000000007A7
(1599991302.288513) can0 124#2E932F29A2F07060
(1599991302.288991) can0 125#0000010800000731
(1599991302.290984) can0 084#0100007A508C9BA0
(1599991302.291194) can0 085#AA000E680D6000B0
(1599991302.293499) can0 2C2#0000000000000000
(1599991302.293995) can0 1F0#04180000FFFF0B11
(1599991302.294187) can0 0E0#004B00E0A1A30000
(1599991302.294436) can0 281#00000001000001F0
(1599991302.295118) can0 150#7E0004042D036DB5
(1599991302.297573) can0 191#0000812000000856
(1599991302.300906) can0 084#0100007A508C9C6D
(1599991302.301121) can0 085#AA000E6CBC6000C0
(1599991302.303912) can0 0E0#004B00E0B1430000
(1599991302.307387) can0 113#0E680000AA090EBC
(1599991302.308057) can0 122#000000000000083D
(1599991302.308352) can0 123#000000000000083D
(1599991302.308521) can0 124#2E932F29A2F080B8
(1599991302.309003) can0 125#00000108000008AB
(1599991302.310006) can0 390#0800000000000000
(1599991302.310972) can0 084#0100007A508C9D42
(1599991302.311195) can0 085#AA000E6C126000D0
(1599991302.314046) can0 0E0#004B00E0C1BD0000
(1599991302.315003) can0 150#7E000403ED036E82
(1599991302.315444) can0 2B1#2100000000000000
(1599991302.317580) can0 191#0000812000000979
(1599991302.320900) can0 084#0100007A508CAEEE
(1599991302.321121) can0 085#AA000E6CCF6000E0
(1599991302.323345) can0 26D#40540A0412000000
(1599991302.323785) can0 2A0#0000000000000000
(1599991302.324043) can0 2A1#0000007F7F7F7F7F
(1599991302.324333) can0 0E0#004B00E0D15D0000
(1599991302.324519) can0 285#C920C92000000100
(1599991302.324762) can0 2A3#E707E71800000300
(1599991302.325034) can0 2A4#0080000000000000
(1599991302.325300) can0 2A5#000F071F00000000
(1599991302.325566) can0 2A7#0000000000001400
(1599991302.325836) can0 2A8#00400000000010F9
(1599991302.326102) can0 2AA#0000000000000000
(1599991302.326367) can0 2AE#0100000000000000
(1599991302.327370) can0 113#0E6C0000AA090FEC
(1599991302.328038) can0 122#0000000000000912
(1599991302.328351) can0 123#0000000000000912
(1599991302.328506) can0 124#2E932F29A2F09016
(1599991302.328979) can0 125#0000010800000984
(1599991302.330976) can0 084#0100007A508CAFC1
(1599991302.331190) can0 085#AA000E6C616000F0
(1599991302.331942) can0 218#5F00000000000FCC
(1599991302.333324) can0 3F6#3D25FF00000007CE
(1599991302.333553) can0 260#0000000000001D00
(1599991302.333874) can0 1F2#9E9FA0A14E535052
(1599991302.334108) can0 0E0#004B00E0E1520000
(1599991302.334599) can0 286#C920C92000000000
(1599991302.334833) can0 150#7E000403ED036FAD
(1599991302.337580) can0 191#0000812000000A08
(1599991302.340940) can0 084#0100007A508CA05B
(1599991302.341159) can0 085#AA000E6008600000
(1599991302.341645) can0 288#A500004D00000059
(1599991302.341901) can0 28A#C4000200985700B8
(1599991302.342813) can0 2F1#2188FFFFFFFF7900
(1599991302.343046) can0 2F2#110210090A000000
(1599991302.343836) can0 1F0#04180000FFFF0CDC
(1599991302.344070) can0 0E0#004B00E0F1B20000
(1599991302.344560) can0 284#004140530C680200
(1599991302.345444) can0 415#1500050110000000
(1599991302.347283) can0 113#0E6C0000AA090076
(1599991302.348039) can0 122#0000000000000A63
(1599991302.348339) can0 123#0000000000000A63
(1599991302.348515) can0 2FB#000007DE465F07F0
(1599991302.348760) can0 124#2E932F29A2F0A0CB
(1599991302.348985) can0 125#0000010800000AF5
(1599991302.349235) can0 2FC#0A00000000004019
(1599991302.349483) can0 2FD#0000000000001000
(1599991302.351130) can0 084#0100007A508CA174
(1599991302.351351) can0 085#AA000E60A6600010
(1599991302.353980) can0 0E0#004B00E001810000
(1599991302.354621) can0 287#005900000000C940
(1599991302.354852) can0 150#7E000403ED036037
(1599991302.357571) can0 191#0000812000000B27
(1599991302.360922) can0 084#0100007A508C92D8
(1599991302.361136) can0 085#AA000E607B600020
(1599991302.363750) can0 370#0F00000000000000
(1599991302.363954) can0 0E0#004B00E011610000
(1599991302.367420) can0 113#0E600000AA0901D8
(1599991302.368057) can0 122#0000000000000B4C
(1599991302.368353) can0 123#0000000000000B4C
(1599991302.368515) can0 124#2E932F29A2F0B065
(1599991302.369006) can0 125#0000010800000BDA
(1599991302.371014) can0 084#0100007A508C93F7
(1599991302.371216) can0 085#AA000E60D5600030
(1599991302.373978) can0 0E0#004B00E0216E0000
(1599991302.374672) can0 150#7E0004042D03615E
(1599991302.377579) can0 191#0000812000000CEA
(1599991302.381398) can0 084#0100007A508C943A
(1599991302.381615) can0 085#AA000E7AE6600040
(1599991302.383697) can0 1F2#9E9FA0A14E535052
(1599991302.383905) can0 0E0#004B00E0318E0000
(1599991302.387309) can0 113#0E600000AA0902A9
(1599991302.388061) can0 122#0000000000000C81
(1599991302.388327) can0 123#0000000000000C81
(1599991302.388737) can0 124#2E932F29A2F0C05E
(1599991302.389000) can0 125#0000010800000C17
(1599991302.390887) can0 084#0100007A508C9515
(1599991302.391113) can0 085#AB000E7ABC600050
(1599991302.393236) can0 3F0#2636340702170007
(1599991302.394169) can0 0E0#004C00E041F30000
(1599991302.394372) can0 1F0#04180000FFFF0DF3
(1599991302.394618) can0 281#0000000100000281
(1599991302.394855) can0 150#7E000403ED036269
(1599991302.395106) can0 2C2#0000000000000000
(1599991302.397602) can0 191#0000812000000DC5
(1599991302.400901) can0 084#0100007A508CA6B9
(1599991302.401123) can0 085#AB000E7A61600060
(1599991302.403930) can0 0E0#004B00E051900000
(1599991302.407386) can0 113#0E7A0000AA090303
(1599991302.408060) can0 122#0000000000000DAE
(1599991302.408331) can0 123#0000000000000DAE
(1599991302.408522) can0 124#2E932F29A2F0D0F0
(1599991302.408994) can0 125#0000010800000D38
(1599991302.411007) can0 084#0100007A508CA796
(1599991302.411213) can0 085#AB000E7ACF600070
(1599991302.414038) can0 0E0#004B00E0619F0000
(1599991302.415031) can0 150#7E000403ED036346
(1599991302.415441) can0 2AB#0190430000030100
(1599991302.415691) can0 2B1#2100000000000000
(1599991302.417594) can0 191#0000812000000EB4
(1599991302.420921) can0 084#0100007A508CA80C
(1599991302.421133) can0 085#AB000E7A17600080
(1599991302.423367) can0 26D#40540A0412000000
(1599991302.423790) can0 2A0#0000000000000000
(1599991302.424051) can0 2A1#0000007F7F7F7F7F
(1599991302.424358) can0 0E0#004B00E0717F0000
(1599991302.424527) can0 285#C920C92000000100
(1599991302.424770) can0 2A3#E707E71800000300
(1599991302.425040) can0 2A4#0080000000000000
(1599991302.425290) can0 380#17E0EC0000000000
(1599991302.425539) can0 2A5#000F071F00000000
(1599991302.425803) can0 2A7#0000000000001400
(1599991302.426075) can0 2A8#0040000000002024
(1599991302.426340) can0 2AA#0000000000000000
(1599991302.426609) can0 2AE#0100000000000000
(1599991302.426874) can0 3E1#0000000000000912
(1599991302.427141) can0 3E2#0000000000000912
(1599991302.427374) can0 113#0E7A0000AA0904CE
(1599991302.428136) can0 122#0000000000000EDF
(1599991302.428371) can0 123#0000000000000EDF
(1599991302.428820) can0 124#2E932F29A2F0E02D
(1599991302.429068) can0 125#0000010800000E49
(1599991302.430908) can0 084#0100007A508CA923
(1599991302.431117) can0 085#AB000E70C7600090
(1599991302.431858) can0 218#5F00000000000056
(1599991302.433325) can0 260#0000000000001D00
(1599991302.433889) can0 1F2#9E9FA0A14E535052
(1599991302.434117) can0 0E0#004C00E081CF0000
(1599991302.434358) can0 286#C920C92000000000
(1599991302.435170) can0 150#7E000403ED03648B
(1599991302.437585) can0 191#0000812000000F9B
(1599991302.441032) can0 084#0100007A508CAA52
(1599991302.441192) can0 085#AB000E701A6000A0
(1599991302.441680) can0 288#A500004D00000059
(1599991302.441896) can0 28A#C300020098570105
(1599991302.442844) can0 2F1#2188FFFFFFFF7900
(1599991302.443071) can0 2F2#110210090A000000
(1599991302.443861) can0 1F0#04180000FFFF0E82
(1599991302.444086) can0 0E0#004B00E091AC0000
(1599991302.444571) can0 284#004140530C680200
(1599991302.447401) can0 113#0E700000AA0905B7
(1599991302.448081) can0 122#0000000000000FF0
(1599991302.448354) can0 2FB#000007E0466207F3
(1599991302.448558) can0 123#0000000000000FF0
(1599991302.448788) can0 124#2E932F29A2F0F083
(1599991302.449025) can0 125#0000010800000F66
(1599991302.449271) can0 2FC#0A00000000004019
(1599991302.449519) can0 2FD#0000000000001000
(1599991302.451005) can0 084#0100007A508CAB7D
(1599991302.451205) can0 085#AB000E70B46000B0
(1599991302.453967) can0 0E0#004B00E0A1A30000
(1599991302.454598) can0 287#005900000000C940
(1599991302.454813) can0 150#7E0004042D0365E2
(1599991302.457589) can0 191#0000812000000001
(1599991302.460921) can0 084#0100007A508C9C6D
(1599991302.461139) can0 085#AB000E708F6000C0
(1599991302.463914) can0 0E0#004B00E0B1430000
(1599991302.467324) can0 113#0E700000AA0906C6
(1599991302.468068) can0 122#000000000000006A
(1599991302.468334) can0 123#000000000000006A
(1599991302.468769) can0 124#2E932F29A2F0005B
(1599991302.469025) can0 125#00000108000000FC
(1599991302.470924) can0 084#0100007A508C9D42
(1599991302.471145) can0 085#AB000E76EE6000D0
(1599991302.473997) can0 0E0#004B00E0C1BD0000
(1599991302.474686) can0 150#7E000403ED0366D5
(1599991302.477584) can0 191#000081200000012E
(1599991302.480914) can0 084#0100007A508C9E33
(1599991302.481127) can0 085#AB000E76336000E0
(1599991302.483661) can0 1F2#9E9FA0A14E535052
(1599991302.483882) can0 0E0#004B00E0D15D0000
(1599991302.487396) can0 113#0E760000AA09073E
(1599991302.488070) can0 122#0000000000000145
(1599991302.488446) can0 123#0000000000000145
(1599991302.488533) can0 124#2E932F29A2F010F5
(1599991302.489014) can0 125#00000108000001D3
(1599991302.490983) can0 084#0100007A508C9F1C
(1599991302.491202) can0 085#AB000E769D6000F0
(1599991302.493865) can0 1F0#04180000FFFF0FAD
(1599991302.494095) can0 0E0#004B00E0E1520000
(1599991302.494655) can0 281#00000001000003AE
(1599991302.495123) can0 150#7E000403AD03670B
(1599991302.495534) can0 2C2#0000000000000000
(1599991302.497591) can0 191#000081200000025F
(1599991302.500917) can0 084#0100007A508C9086
(1599991302.501132) can0 085#AB000E7645600000
(1599991302.503818) can0 407#0710050110000000
(1599991302.504022) can0 0E0#004B00E0F1B20000
(1599991302.507406) can0 113#0E760000AA0908A4
(1599991302.508070) can0 122#0000000000000234
(1599991302.508345) can0 123#0000000000000234
(1599991302.508525) can0 124#2E932F29A2F02028
(1599991302.509005) can0 125#00000108000002A2
(1599991302.511392) can0 084#0100007A508C91A9
(1599991302.511623) can0 085#AB000E781F600010
(1599991302.513955) can0 0E0#004B00E001810000
(1599991302.515066) can0 150#7E000403ED036860
(1599991302.515454) can0 2B1#2100000000000000
(1599991302.517579) can0 191#0000812000000370
(1599991302.520914) can0 084#0100007A508C92D8
(1599991302.521136) can0 085#AB000E78C2600020
(1599991302.523355) can0 26D#40540A0412000000
(1599991302.523793) can0 2A0#0000000000000000
(1599991302.524026) can0 0E0#004B00E011610000
(1599991302.524325) can0 285#C920C92000000100
(1599991302.524509) can0 2A1#0000007F7F7F7F7F
(1599991302.524788) can0 2A3#E707E71800000300
(1599991302.525057) can0 2A4#0080000000000000
(1599991302.525324) can0 2A5#000F071F00000000
(1599991302.525591) can0 2A7#0000000000001400
(1599991302.525863) can0 2A8#004000000000308A
(1599991302.526130) can0 2AA#0000000000000000
(1599991302.526396) can0 2AE#0100000000000000
(1599991302.527366) can0 113#0E780000AA0909A2
(1599991302.528055) can0 122#000000000000031B
(1599991302.528322) can0 123#000000000000031B
(1599991302.528531) can0 124#2E932F29A2F03086
(1599991302.529003) can0 125#000001080000038D
(1599991302.530962) can0 084#0100007A508CA32A
(1599991302.531188) can0 085#AB000E786C600030
(1599991302.531924) can0 218#5F00000000000179
(1599991302.533293) can0 3F6#3CFFFF0000000862
(1599991302.533529) can0 260#0000000000001D00
(1599991302.533836) can0 1F2#9E9FA0A14E535052
(1599991302.534076) can0 0E0#004C00E021ED0000
(1599991302.534539) can0 286#C920C92000000000
(1599991302.534773) can0 150#7E0004042D036909
(1599991302.537589) can0 191#00008120000004BD
(1599991302.540943) can0 084#0100007A508CA4E7
(1599991302.541153) can0 085#AB000E7857600040
(1599991302.541636) can0 288#A500004D00000059
(1599991302.541862) can0 28A#C300020098570274
(1599991302.542845) can0 2F1#2188FFFFFFFF7900
(1599991302.543076) can0 2F2#110210090A000000
(1599991302.543886) can0 1F0#04180000FFFF0037
(1599991302.544085) can0 0E0#004C00E0310D0000
(1599991302.544564) can0 284#004140530C680200
(1599991302.547407) can0 113#0E780000AA090AD3
(1599991302.548065) can0 122#00000000000004D6
(1599991302.548342) can0 2FB#000007DC465F07EE
(1599991302.548536) can0 123#00000000000004D6
(1599991302.548767) can0 124#2E932F29A2F040BD
(1599991302.549011) can0 125#0000010800000440
(1599991302.549256) can0 2FC#0A00000000004019
(1599991302.549505) can0 2FD#0000000000001000
(1599991302.550987) can0 084#0100007A508CA5C8
(1599991302.551197) can0 085#AB000E78F9600050
(1599991302.553954) can0 0E0#004C00E041F30000
(1599991302.554569) can0 287#005900000000C940
(1599991302.554793) can0 150#7E000403AD036ACF
(1599991302.557564) can0 191#0000812000000592
(1599991302.560910) can0 084#0100007A508CA6B9
(1599991302.561131) can0 085#AB000E64E3600060
(1599991302.563923) can0 0E0#004B00E051900000
(1599991302.567399) can0 113#0E780000AA090BFC
(1599991302.568076) can0 122#00000000000005F9
(1599991302.568352) can0 123#00000000000005F9
(1599991302.568544) can0 124#2E932F29A2F05013
(1599991302.569024) can0 125#000001080000056F
(1599991302.570990) can0 084#0100007A508CA796
(1599991302.571202) can0 085#AB000E644D600070
(1599991302.573929) can0 0E0#004B00E0619F0000
(1599991302.574715) can0 150#7E000403ED036B11
(1599991302.577617) can0 191#00008120000006E3
(1599991302.580926) can0 084#0100007A508CA80C
(1599991302.581143) can0 085#AB000E6495600080
(1599991302.583644) can0 1F2#9E9FA0A14E535052
(1599991302.583899) can0 0E0#004B00E0717F0000
(1599991302.587421) can0 113#0E640000AA090C63
(1599991302.588059) can0 122#0000000000000688
(1599991302.588341) can0 123#0000000000000688
(1599991302.588529) can0 124#2E932F29A2F060CE
(1599991302.588998) can0 125#000001080000061E
(1599991302.590996) can0 084#0100007A508CA923
(1599991302.591211) can0 085#AB000E643B600090
(1599991302.591509) can0 41C#1C00020102000000
(1599991302.593856) can0 1F0#04180000FFFF0118
(1599991302.594073) can0 0E0#004C00E081CF0000
(1599991302.594665) can0 281#0000000100000463
(1599991302.595121) can0 150#7E0004042D036C9A
(1599991302.596562) can0 2C2#0000000000000000
(1599991302.597602) can0 191#00008120000007CC
(1599991302.600919) can0 084#0100007A508CAA52
(1599991302.601131) can0 085#AB000E64E66000A0
(1599991302.603919) can0 0E0#004B00E091AC0000
(1599991302.607415) can0 113#0E640000AA090D4C
(1599991302.608074) can0 122#00000000000007A7
(1599991302.608341) can0 123#00000000000007A7
(1599991302.608547) can0 124#2E932F29A2F07060
(1599991302.609024) can0 125#0000010800000731
(1599991302.611010) can0 084#0100007A508CAB7D
(1599991302.611214) can0 085#AB000E64486000B0
(1599991302.613940) can0 0E0#004B00E0A1A30000
(1599991302.615096) can0 150#7E000403ED036DF3
(1599991302.615457) can0 2AB#0190430000030100
(1599991302.615713) can0 2B1#2100000000000000
(1599991302.617593) can0 191#0000812000000856
(1599991302.618328) can0 40E#0E100601E0030000
(1599991302.620902) can0 084#0100007A508CACB0
(1599991302.621131) can0 085#AB000E64736000C0
(1599991302.623314) can0 26D#40540A0412000000
(1599991302.623805) can0 2A0#0000000000000000
(1599991302.624064) can0 2A1#0000007F7F7F7F7F
(1599991302.624334) can0 0E0#004B00E0B1430000
(1599991302.624542) can0 285#C920C92000000100
(1599991302.624778) can0 2A3#E707E71800000300
(1599991302.625050) can0 2A4#0080000000000000
(1599991302.625303) can0 380#17F03F0000000000
(1599991302.625554) can0 2A5#000F071F00000000
(1599991302.625823) can0 2A7#0000000000001400
(1599991302.626090) can0 2A8#00400000000040B1
(1599991302.626353) can0 2AA#0000000000000000
(1599991302.626621) can0 2AE#0100000000000000
(1599991302.626889) can0 3E1#0000000000000A63
(1599991302.627160) can0 3E2#0000000000000A63
(1599991302.627391) can0 113#0E640000AA090E3D
(1599991302.628151) can0 122#000000000000083D
(1599991302.628392) can0 123#000000000000083D
(1599991302.628842) can0 124#2E932F29A2F080B8
(1599991302.629093) can0 125#00000108000008AB
(1599991302.631029) can0 084#0100007A508CAD9F
(1599991302.631234) can0 085#AC000E644F6000D0
(1599991302.631974) can0 218#5F00000000000208
(1599991302.633330) can0 260#0000000000001D00
(1599991302.633829) can0 1F2#9E9FA0A14E535052
(1599991302.634161) can0 0E0#004B00E0C1BD0000
(1599991302.634395) can0 286#C920C92000000000
(1599991302.635088) can0 150#7E000403AD036E73
(1599991302.637603) can0 191#0000812000000979
(1599991302.641422) can0 084#0100007A508CAEEE
(1599991302.641641) can0 085#AC000E5C336000E0
(1599991302.642123) can0 288#A500004D00000059
(1599991302.642351) can0 28A#C30002009857035B
(1599991302.642914) can0 2F1#2188FFFFFFFF7900
(1599991302.643108) can0 2F2#110210090A000000
(1599991302.643816) can0 1F0#04180000FFFF0269
(1599991302.644044) can0 0E0#004B00E0D15D0000
(1599991302.644528) can0 284#004140530C680200
(1599991302.647337) can0 113#0E640000AA090F12
(1599991302.648076) can0 122#0000000000000912
(1599991302.648362) can0 2FB#000007DF466407F2
(1599991302.648543) can0 123#0000000000000912
(1599991302.648774) can0 124#2E932F29A2F09016
(1599991302.649014) can0 125#0000010800000984
(1599991302.649257) can0 2FC#0A00000000004019
(1599991302.649579) can0 2FD#0000000000001000
(1599991302.650912) can0 084#0100007A508C9F1C
(1599991302.651127) can0 085#AC000E5C9D6000F0
(1599991302.653947) can0 0E0#004B00E0E1520000
(1599991302.654532) can0 287#005900000000C940
(1599991302.655078) can0 150#7E000403ED036FAD
(1599991302.657628) can0 191#0000812000000A08
(1599991302.660927) can0 084#0100007A508C9086
(1599991302.661140) can0 085#AC000E5C45600000
(1599991302.663921) can0 0E0#004B00E0F1B20000
(1599991302.667420) can0 113#0E5C0000AA09002C
(1599991302.668076) can0 122#0000000000000A63
(1599991302.668336) can0 123#0000000000000A63
(1599991302.668539) can0 124#2E932F29A2F0A0CB
(1599991302.669018) can0 125#0000010800000AF5
(1599991302.671010) can0 084#0100007A508C91A9
(1599991302.671210) can0 085#AC000E5CEB600010
(1599991302.673961) can0 0E0#004B00E001810000
(1599991302.674720) can0 150#7E000403ED036037
(1599991302.677594) can0 191#0000812000000B27
(1599991302.680933) can0 084#0100007A508C92D8
(1599991302.681147) can0 085#AC000E5C36600020
(1599991302.683618) can0 1F2#9E9FA0A14E535052
(1599991302.683880) can0 0E0#004B00E011610000
(1599991302.687424) can0 113#0E5C0000AA090103
(1599991302.688083) can0 122#0000000000000B4C
(1599991302.688344) can0 123#0000000000000B4C
(1599991302.688546) can0 124#2E932F29A2F0B065
(1599991302.689020) can0 125#0000010800000BDA
(1599991302.691014) can0 084#0100007A508C93F7
(1599991302.691219) can0 085#AC000E667C600030
(1599991302.693833) can0 1F0#04180000FFFF0346
(1599991302.694040) can0 0E0#004B00E0216E0000
(1599991302.694667) can0 281#000000010000054C
(1599991302.695117) can0 150#7E000403AD0361E9
(1599991302.697546) can0 2C2#0000000000000000
(1599991302.697790) can0 191#0000812000000CEA
(1599991302.700926) can0 084#0100007A508CA4E7
(1599991302.701137) can0 085#AC000E6647600040
(1599991302.703920) can0 0E0#004B00E0318E0000
(1599991302.707428) can0 113#0E660000AA09027E
(1599991302.708083) can0 122#0000000000000C81
(1599991302.708344) can0 123#0000000000000C81
(1599991302.708553) can0 124#2E932F29A2F0C05E
(1599991302.709029) can0 125#0000010800000C17
(1599991302.711003) can0 084#0100007A508CA5C8
(1599991302.711209) can0 085#AC000E66E9600050
(1599991302.713951) can0 0E0#004B00E041700000
(1599991302.715119) can0 150#7E000403ED036269
(1599991302.715479) can0 2B1#2100000000000000
(1599991302.717597) can0 191#0000812000000DC5
(1599991302.720922) can0 084#0100007A508CA6B9
(1599991302.721139) can0 085#AC000E6634600060
(1599991302.723374) can0 26D#40540A0412000000
(1599991302.723807) can0 2A0#0000000000000000
(1599991302.724040) can0 285#C920C92000000100
(1599991302.724347) can0 0E0#004B00E051900000
(1599991302.724525) can0 2A1#0000007F7F7F7F7F
(1599991302.724782) can0 2A3#E707E71800000300
(1599991302.725055) can0 2A4#0080000000000000
(1599991302.725322) can0 2A5#000F071F00000000
(1599991302.725590) can0 2A7#0000000000001400
(1599991302.725861) can0 2A8#004000000000501F
(1599991302.726128) can0 2AA#0000000000000000
(1599991302.726394) can0 2AE#0100000000000000
(1599991302.727396) can0 113#0E660000AA090351
(1599991302.728094) can0 122#0000000000000DAE
(1599991302.728350) can0 123#0000000000000DAE
(1599991302.728553) can0 124#2E932F29A2F0D0F0
(1599991302.729034) can0 125#0000010800000D38
(1599991302.731255) can0 084#0100007A508CA796
(1599991302.731474) can0 085#AC000E5C7E600070
(1599991302.731951) can0 218#5F00000000000327
(1599991302.733313) can0 3F6#3D25FF000000097B
(1599991302.733550) can0 260#0000000000001D00
(1599991302.733772) can0 1F2#9E9FA0A14E535052
(1599991302.734012) can0 0E0#004B00E0619F0000
(1599991302.734491) can0 286#C920C92000000000
(1599991302.735251) can0 150#7E000403ED036346
(1599991302.737612) can0 191#0000812000000EB4
(1599991302.740961) can0 084#0100007A508C98D1
(1599991302.741173) can0 085#AC000E5CA6600080
(1599991302.741664) can0 288#A500004D00000059
(1599991302.741882) can0 28A#C300020098570496
(1599991302.742888) can0 2F1#2188FFFFFFFF7900
(1599991302.743106) can0 2F2#110210090A000000
(1599991302.743790) can0 1F0#04180000FFFF048B
(1599991302.744020) can0 0E0#004B00E0717F0000
(1599991302.744538) can0 284#004140530C680200
(1599991302.747424) can0 113#0E5C0000AA090490
(1599991302.748102) can0 122#0000000000000EDF
(1599991302.748346) can0 2FB#000007E0465F07F3
(1599991302.748577) can0 123#0000000000000EDF
(1599991302.748801) can0 124#2E932F29A2F0E02D
(1599991302.749045) can0 125#0000010800000E49
(1599991302.749290) can0 2FC#0A00000000004019
(1599991302.749538) can0 2FD#0000000000001000
(1599991302.751013) can0 084#0100007A508C99FE
(1599991302.751226) can0 085#AC000E5C08600090
(1599991302.753936) can0 0E0#004B00E0814C0000
(1599991302.754499) can0 287#005900000000C940
(1599991302.755124) can0 150#7E000403ED03648B
(1599991302.757596) can0 191#0000812000000F9B
(1599991302.761175) can0 084#0100007A508C9A8F
(1599991302.761390) can0 085#AC000E5CD56000A0
(1599991302.763914) can0 0E0#004B00E091AC0000
(1599991302.767422) can0 113#0E5C0000AA0905BF
(1599991302.768103) can0 122#0000000000000FF0
(1599991302.768405) can0 123#0000000000000FF0
(1599991302.768636) can0 124#2E932F29A2F0F083
(1599991302.769045) can0 125#0000010800000F66
(1599991302.770990) can0 084#0100007A508C9BA0
(1599991302.771214) can0 085#AC000E5C7B6000B0
(1599991302.773302) can0 402#0210020102000000
(1599991302.773915) can0 0E0#004B00E0A1A30000
(1599991302.775112) can0 150#7E000403AD036555
(1599991302.777616) can0 191#0000812000000001
(1599991302.780932) can0 084#0100007A508C9C6D
(1599991302.781147) can0 085#AC000E6A156000C0
(1599991302.783587) can0 1F2#9E9FA0A14E535052
(1599991302.783879) can0 0E0#004B00E0B1430000
(1599991302.787422) can0 113#0E5C0000AA0906CE
(1599991302.788094) can0 122#000000000000006A
(1599991302.788329) can0 123#000000000000006A
(1599991302.788565) can0 124#2E932F29A2F0005B
(1599991302.789065) can0 125#00000108000000FC
(1599991302.791037) can0 084#0100007A508C9D42
(1599991302.791245) can0 085#AC000E6ABB6000D0
(1599991302.793796) can0 1F0#04180000FFFF05A4
(1599991302.794014) can0 0E0#004B00E0C1BD0000
(1599991302.794658) can0 281#000000010000063D
(1599991302.795112) can0 150#7E0004042D036693
(1599991302.797610) can0 191#000081200000012E
(1599991302.798532) can0 2C2#0000000000000000
(1599991302.800944) can0 084#0100007A508C9E33
(1599991302.801137) can0 085#AC000E6A666000E0
(1599991302.803908) can0 0E0#004B00E0D15D0000
(1599991302.807423) can0 113#0E6A0000AA09076C
(1599991302.808101) can0 122#0000000000000145
(1599991302.808350) can0 123#0000000000000145
(1599991302.808562) can0 124#2E932F29A2F010F5
(1599991302.809043) can0 125#00000108000001D3
(1599991302.810058) can0 390#0800000000000000
(1599991302.811012) can0 084#0100007A508C9F1C
(1599991302.811240) can0 085#AC000E6AC86000F0
(1599991302.813943) can0 0E0#004B00E0E1520000
(1599991302.815149) can0 150#7E000403ED0367FA
(1599991302.815473) can0 2AB#0190430000030100
(1599991302.815732) can0 2B1#2100000000000000
(1599991302.817616) can0 191#000081200000025F
(1599991302.820933) can0 084#0100007A508C9086
(1599991302.821155) can0 085#AC000E5E00600000
(1599991302.823365) can0 26D#40540A0412000000
(1599991302.823818) can0 2A0#0000000000000000
(1599991302.824049) can0 285#C920C92000000100
(1599991302.824348) can0 0E0#004B00E0F1B20000
(1599991302.824529) can0 2A1#0000007F7F7F7F7F
(1599991302.824793) can0 2A3#E707E71800000300
(1599991302.825059) can0 2A4#0080000000000000
(1599991302.825305) can0 380#1700220000000000
(1599991302.825559) can0 2A5#000F071F00000000
(1599991302.825824) can0 2A7#0000000000001400
(1599991302.826090) can0 2A8#00400000000060C2
(1599991302.826354) can0 2AA#0000000000000000
(1599991302.826624) can0 2AE#0100000000000000
(1599991302.826894) can0 3E1#0000000000000B4C
(1599991302.827160) can0 3E2#0000000000000B4C
(1599991302.827390) can0 113#0E6A0000AA0908F6
(1599991302.828144) can0 122#0000000000000234
(1599991302.828411) can0 123#0000000000000234
(1599991302.828630) can0 124#2E932F29A2F02028
(1599991302.829087) can0 125#00000108000002A2
(1599991302.831017) can0 084#0100007A508C91A9
(1599991302.831232) can0 085#AC000E5EAE600010
(1599991302.831973) can0 218#5F000000000004EA
(1599991302.833339) can0 260#0000000000001D00
(1599991302.833770) can0 1F2#9E9FA0A14E535052
(1599991302.834154) can0 0E0#004B00E001810000
(1599991302.834389) can0 286#C920C92000000000
(1599991302.835154) can0 150#7E000403ED036860
(1599991302.837606) can0 191#0000812000000370
(1599991302.840957) can0 084#0100007A508C92D8
(1599991302.841174) can0 085#AC000E5E73600020
(1599991302.841662) can0 288#A500004D00000059
(1599991302.841887) can0 28A#C20002009857054D
(1599991302.842901) can0 2F1#2188FFFFFFFF7900
(1599991302.843126) can0 2F2#110210090A000000
(1599991302.843753) can0 1F0#04180000FFFF06D5
(1599991302.844017) can0 0E0#004B00E011610000
(1599991302.844468) can0 284#004140530C680200
(1599991302.845467) can0 415#1500050110000000
(1599991302.847313) can0 113#0E5E0000AA0909FC
(1599991302.848082) can0 122#000000000000031B
(1599991302.848319) can0 2FB#000007DC465F07F1
(1599991302.848572) can0 123#000000000000031B
(1599991302.848800) can0 124#2E932F29A2F03086
(1599991302.849044) can0 125#000001080000038D
(1599991302.849291) can0 2FC#0A00000000004019
(1599991302.849537) can0 2FD#0000000000001000
(1599991302.850938) can0 084#0100007A508C93F7
(1599991302.851146) can0 085#AC000E5EDD600030
(1599991302.853941) can0 0E0#004B00E0216E0000
(1599991302.854479) can0 287#005900000000C940
(1599991302.855136) can0 150#7E000403ED03694F
(1599991302.857615) can0 191#00008120000004BD
(1599991302.860942) can0 084#0100007A508C943A
(1599991302.861151) can0 085#AC000E5829600040
(1599991302.863602) can0 370#0F00000000000000
(1599991302.863885) can0 0E0#004B00E0318E0000
(1599991302.867427) can0 113#0E5E0000AA090A8D
(1599991302.868098) can0 122#00000000000004D6
(1599991302.868345) can0 123#00000000000004D6
(1599991302.868562) can0 124#2E932F29A2F040BD
(1599991302.869037) can0 125#0000010800000440
(1599991302.870999) can0 084#0100007A508C9515
(1599991302.871211) can0 085#AD000E5873600050
(1599991302.873290) can0 3F1#015F6F0001219E00
(1599991302.874073) can0 0E0#004C00E041F30000
(1599991302.875170) can0 150#7E000403ED036A3E
(1599991302.877594) can0 191#0000812000000592
(1599991302.880932) can0 084#0100007A508C9664
(1599991302.881164) can0 085#AD000E58AE600060
(1599991302.883563) can0 1F2#9E9FA0A14E535052
(1599991302.883879) can0 0E0#004B00E051900000
(1599991302.887430) can0 113#0E580000AA090B75
(1599991302.888109) can0 122#00000000000005F9
(1599991302.888413) can0 123#00000000000005F9
(1599991302.888639) can0 124#2E932F29A2F05013
(1599991302.889045) can0 125#000001080000056F
(1599991302.891008) can0 084#0100007A508C974B
(1599991302.891214) can0 085#AD000E5800600070
(1599991302.893278) can0 3F0#2736340702170007
