(1599989991.956001) can0 1F0#04180000FFFF05A4
(1599989991.956225) can0 150#7E0004042D036909
(1599989991.957423) can0 084#0100007A308C87FB
(1599989991.957644) can0 085#ED000E86AD600070
(1599989991.961964) can0 0E0#005100E0E1D70000
(1599989991.962188) can0 2A0#0000000000000000
(1599989991.962449) can0 2A3#E707E71800000300
(1599989991.962718) can0 2A8#004000000000308A
(1599989991.962987) can0 2AE#0100000000000000
(1599989991.965409) can0 26D#40560A0412000000
(1599989991.967464) can0 084#0100007A308C8861
(1599989991.967684) can0 085#ED000E8675600080
(1599989991.970066) can0 122#0000000000000145
(1599989991.970295) can0 123#0000000000000145
(1599989991.970527) can0 124#2E832E29A2F0108B
(1599989991.970768) can0 125#00000108000001D3
(1599989991.971001) can0 113#0E860000AA090452
(1599989991.971990) can0 191#0000812000000001
(1599989991.972456) can0 0E0#005100E0F1370000
(1599989991.973729) can0 218#5B000000000000F7
(1599989991.973987) can0 2C2#0000000000000000
(1599989991.975314) can0 260#0000000000001CB0
(1599989991.976089) can0 150#7E0004042D036A78
(1599989991.977422) can0 084#0100007A308C894E
(1599989991.977645) can0 085#ED000E86DB600090
(1599989991.982042) can0 0E0#005100E001040000
(1599989991.986046) can0 285#0140014000000100
(1599989991.987502) can0 084#0100007A308C8A3F
(1599989991.987724) can0 085#ED000E86066000A0
(1599989991.988204) can0 288#A500004C00000059
(1599989991.988453) can0 28A#C400020098570197
(1599989991.990063) can0 122#0000000000000234
(1599989991.990294) can0 123#0000000000000234
(1599989991.990526) can0 124#2E832E29A2F02056
(1599989991.990775) can0 125#00000108000002A2
(1599989991.991011) can0 113#0E860000AA09057D
(1599989991.991996) can0 191#000081200000012E
(1599989991.992443) can0 0E0#005100E011E40000
(1599989991.995982) can0 1F2#9D9C9D9C4E4E4D4E
(1599989991.996178) can0 150#7E0004042D036B57
(1599989991.996465) can0 286#0140014000000000
(1599989991.997428) can0 084#0100007A308C8B10
(1599989991.997650) can0 085#ED000E8E936000B0
(1599989991.998154) can0 2FB#000007DD465907F2
(1599989991.998389) can0 2FC#0A00000000004019
(1599989991.998639) can0 2FD#0000000000001000
(1599989992.002029) can0 0E0#005100E021EB0000
(1599989992.005842) can0 1F0#04180000FFFF06D5
(1599989992.006314) can0 284#004140530C680200
(1599989992.007483) can0 084#0100007A308C8CDD
(1599989992.007713) can0 085#ED000E8EA86000C0
(1599989992.010067) can0 122#000000000000031B
(1599989992.010310) can0 123#000000000000031B
(1599989992.010528) can0 124#2E832E29A2F030F8
(1599989992.010772) can0 125#000001080000038D
(1599989992.012033) can0 113#0E8E0000AA0906F2
(1599989992.012333) can0 0E0#005100E0310B0000
(1599989992.012494) can0 191#000081200000025F
(1599989992.016128) can0 150#7E000403ED036CDC
(1599989992.016427) can0 287#0059000000000120
(1599989992.017419) can0 084#0100007A308C8DF2
(1599989992.017638) can0 085#EE000E8E356000D0
(1599989992.022047) can0 0E0#005100E041F50000
(1599989992.022280) can0 281#0000000100000281
(1599989992.027278) can0 2B1#2100000000000000
(1599989992.027491) can0 084#0100007A308C8E83
(1599989992.027767) can0 085#EE000E8EE86000E0
(1599989992.030059) can0 122#00000000000004D6
(1599989992.030295) can0 123#00000000000004D6
(1599989992.030526) can0 124#2E832E29A2F040C3
(1599989992.030772) can0 125#0000010800000440
(1599989992.031007) can0 113#0E8E0000AA0907DD
(1599989992.031984) can0 191#0000812000000370
(1599989992.032454) can0 0E0#005100E051150000
(1599989992.036132) can0 150#7E0004042D036DB5
(1599989992.037416) can0 084#0100007A308C8FAC
(1599989992.037636) can0 085#EE000E78256000F0
(1599989992.039851) can0 2F1#2188FFFFFFFF7800
(1599989992.040077) can0 2F2#110210090A000000
(1599989992.042024) can0 0E0#005100E0611A0000
(1599989992.042265) can0 2A1#0000007F7F7F7F7F
(1599989992.042518) can0 2A4#0080000000000000
(1599989992.042784) can0 2A5#000F071F00000000
(1599989992.043073) can0 2A7#0000000000001400
(1599989992.043336) can0 2AA#0000000000000000
(1599989992.043604) can0 3E1#0000000000000234
(1599989992.043872) can0 3E2#0000000000000234
(1599989992.044676) can0 380#1780580000000000
(1599989992.045787) can0 1F2#9D9C9D9C4E4E4D4E
(1599989992.047476) can0 084#0100007A308C8036
(1599989992.047688) can0 085#EE000E78FD600000
(1599989992.050097) can0 122#00000000000005F9
(1599989992.050303) can0 123#00000000000005F9
(1599989992.050542) can0 124#2E832E29A2F0506D
(1599989992.050783) can0 125#000001080000056F
(1599989992.052042) can0 113#0E780000AA09088D
(1599989992.052358) can0 0E0#005100E071FA0000
(1599989992.052556) can0 191#00008120000004BD
(1599989992.055992) can0 1F0#04180000FFFF07FA
(1599989992.056184) can0 150#7E000403ED036E82
(1599989992.057435) can0 084#0100007A308C8119
(1599989992.057644) can0 085#EE000E7853600010
(1599989992.062045) can0 0E0#005100E081C90000
(1599989992.062265) can0 2A0#0000000000000000
(1599989992.062527) can0 2A3#E707E71800000300
(1599989992.062792) can0 2A8#00400000000040B1
(1599989992.063059) can0 2AE#0100000000000000
(1599989992.065383) can0 26D#40560A0412000000
(1599989992.067725) can0 084#0100007A308C8268
(1599989992.067930) can0 085#EE000E788E600020
(1599989992.070082) can0 122#0000000000000688
(1599989992.070294) can0 123#0000000000000688
(1599989992.070532) can0 124#2E832E29A2F060B0
(1599989992.070770) can0 125#000001080000061E
(1599989992.071001) can0 113#0E780000AA0909A2
(1599989992.072004) can0 191#0000812000000592
(1599989992.072451) can0 0E0#005100E091290000
(1599989992.073733) can0 218#5B000000000001D8
(1599989992.075010) can0 2C2#0000000000000000
(1599989992.075367) can0 3F6#3D25FF0000000003
(1599989992.075607) can0 260#0000000000001CB0
(1599989992.076106) can0 150#7E000403ED036FAD
(1599989992.077446) can0 084#0100007A308C8347
(1599989992.077659) can0 085#EE000E7820600030
(1599989992.082029) can0 0E0#005100E0A1260000
(1599989992.086032) can0 285#0140014000000100
(1599989992.087501) can0 084#0100007A308C848A
(1599989992.087708) can0 085#EE000E7ED4600040
(1599989992.088200) can0 288#A500004C00000059
(1599989992.088503) can0 28A#C300020098570274
(1599989992.090104) can0 122#00000000000007A7
(1599989992.090313) can0 123#00000000000007A7
(1599989992.090547) can0 124#2E832E29A2F0701E
(1599989992.090790) can0 125#0000010800000731
(1599989992.092047) can0 113#0E780000AA090AD3
(1599989992.092354) can0 0E0#005100E0B1C60000
(1599989992.092503) can0 191#00008120000006E3
(1599989992.095945) can0 1F2#9D9C9D9C4E4E4D4E
(1599989992.096151) can0 150#7E0004042D036071
(1599989992.096421) can0 286#0140014000000000
(1599989992.097411) can0 084#0100007A308C85A5
(1599989992.097638) can0 085#EE000E7E7A600050
(1599989992.098124) can0 2FB#000007DD465F07F5
(1599989992.098365) can0 2FC#0A00000000004019
(1599989992.098613) can0 2FD#0000000000001000
(1599989992.102045) can0 0E0#005100E0C1380000
(1599989992.105816) can0 1F0#04180000FFFF0860
(1599989992.106287) can0 284#004140530C680200
(1599989992.107461) can0 084#0100007A308C86D4
(1599989992.107683) can0 085#EE000E7EA7600060
(1599989992.110082) can0 122#000000000000083D
(1599989992.110314) can0 123#000000000000083D
(1599989992.110545) can0 124#2E832E29A2F080C6
(1599989992.110785) can0 125#00000108000008AB
(1599989992.112036) can0 113#0E7E0000AA090B2B
(1599989992.112346) can0 0E0#005100E0D1D80000
(1599989992.112503) can0 191#00008120000007CC
(1599989992.116140) can0 150#7E0004042D03615E
(1599989992.116581) can0 287#0059000000000120
(1599989992.117430) can0 084#0100007A308C87FB
(1599989992.117642) can0 085#EE000E7E09600070
(1599989992.122020) can0 0E0#005100E0E1D70000
(1599989992.122243) can0 281#00000001000003AE
(1599989992.127272) can0 2AB#0190430000030100
(1599989992.127482) can0 084#0100007A308C8861
(1599989992.127715) can0 085#EE000E7ED1600080
(1599989992.127963) can0 2B1#2100000000000000
(1599989992.130082) can0 122#0000000000000912
(1599989992.130334) can0 123#0000000000000912
(1599989992.130532) can0 124#2E832E29A2F09068
(1599989992.130772) can0 125#0000010800000984
(1599989992.132041) can0 113#0E7E0000AA090CE6
(1599989992.132347) can0 0E0#005100E0F1370000
(1599989992.132497) can0 191#0000812000000856
(1599989992.136146) can0 150#7E000403ED036269
(1599989992.137420) can0 084#0100007A308C894E
(1599989992.137644) can0 085#EE000E7E7F600090
(1599989992.139866) can0 2F1#2188FFFFFFFF7800
(1599989992.140102) can0 2F2#110210090A000000
(1599989992.142000) can0 0E0#005100E001040000
(1599989992.142226) can0 2A1#0000007F7F7F7F7F
(1599989992.142495) can0 2A4#0080000000000000
(1599989992.142759) can0 2A5#000F071F00000000
(1599989992.143025) can0 2A7#0000000000001400
(1599989992.143295) can0 2AA#0000000000000000
(1599989992.145727) can0 1F2#9D9C9D9C4E4E4D4E
(1599989992.147476) can0 084#0100007A308C8A3F
(1599989992.147680) can0 085#EE000E7EA26000A0
(1599989992.150073) can0 122#0000000000000A63
(1599989992.150300) can0 123#0000000000000A63
(1599989992.150530) can0 124#2E832E29A2F0A0B5
(1599989992.150771) can0 125#0000010800000AF5
(1599989992.152031) can0 113#0E7E0000AA090DC9
(1599989992.152327) can0 0E0#005100E011E40000
(1599989992.152486) can0 191#0000812000000979
(1599989992.155934) can0 1F0#04180000FFFF094F
(1599989992.156152) can0 150#7E0004042D036300
(1599989992.157417) can0 084#0100007A308C8B10
(1599989992.157644) can0 085#EE000E7E0C6000B0
(1599989992.162001) can0 0E0#005100E021EB0000
(1599989992.162237) can0 2A0#0000000000000000
(1599989992.162497) can0 2A3#E707E71800000300
(1599989992.162766) can0 2A8#004000000000501F
(1599989992.163032) can0 2AE#0100000000000000
(1599989992.165397) can0 26D#40560A0412000000
(1599989992.167502) can0 084#0100007A308C8CDD
(1599989992.167704) can0 085#EE000E60B56000C0
(1599989992.168228) can0 40E#0E100601E0030000
(1599989992.170098) can0 122#0000000000000B4C
(1599989992.170303) can0 123#0000000000000B4C
(1599989992.170532) can0 124#2E832E29A2F0B01B
(1599989992.170780) can0 125#0000010800000BDA
(1599989992.172038) can0 113#0E7E0000AA090EB8
(1599989992.172350) can0 0E0#005100E0310B0000
(1599989992.172721) can0 191#0000812000000A08
(1599989992.173735) can0 218#5B000000000002A9
(1599989992.175396) can0 260#0000000000001CB0
(1599989992.175949) can0 2C2#0000000000000000
(1599989992.176169) can0 150#7E0004042D0364CD
(1599989992.177439) can0 084#0100007A308C8DF2
(1599989992.177692) can0 085#EE000E601B6000D0
(1599989992.181976) can0 0E0#005100E041F50000
(1599989992.185978) can0 285#0140014000000100
(1599989992.187497) can0 084#0100007A308C8E83
(1599989992.187717) can0 085#EE000E60C66000E0
(1599989992.188205) can0 288#A500004C00000059
(1599989992.188471) can0 28A#C30002009857035B
(1599989992.190087) can0 122#0000000000000C81
(1599989992.190313) can0 123#0000000000000C81
(1599989992.190545) can0 124#2E832E29A2F0C020
(1599989992.190783) can0 125#0000010800000C17
(1599989992.192055) can0 113#0E600000AA090F6D
(1599989992.192377) can0 0E0#005100E051150000
(1599989992.192508) can0 191#0000812000000B27
(1599989992.195927) can0 1F2#9D9C9D9C4E4E4D4E
(1599989992.196124) can0 150#7E000403ED0365A4
(1599989992.196393) can0 286#0140014000000000
(1599989992.197675) can0 084#0100007A308C8FAC
(1599989992.197889) can0 085#EE000E60686000F0
(1599989992.198127) can0 2FB#000007DE465D07F5
(1599989992.198372) can0 2FC#0A00000000004019
(1599989992.198619) can0 2FD#0000000000001000
(1599989992.201960) can0 0E0#005100E0611A0000
(1599989992.205782) can0 1F0#04180000FFFF0A3E
(1599989992.206258) can0 284#004140530C680200
(1599989992.207460) can0 084#0100007A308C8036
(1599989992.207697) can0 085#EE000E60B0600000
(1599989992.210106) can0 122#0000000000000DAE
(1599989992.210319) can0 123#0000000000000DAE
(1599989992.210549) can0 124#2E832E29A2F0D08E
(1599989992.210785) can0 125#0000010800000D38
(1599989992.212056) can0 113#0E600000AA0900F7
(1599989992.212344) can0 0E0#005100E071FA0000
(1599989992.212516) can0 191#0000812000000CEA
(1599989992.215369) can0 402#0210020102000000
(1599989992.216131) can0 150#7E000403ED0366D5
(1599989992.216407) can0 287#0059000000000120
(1599989992.217430) can0 084#0100007A308C8119
(1599989992.217644) can0 085#EE000E625B600010
(1599989992.221968) can0 390#0800000000000000
(1599989992.222201) can0 0E0#005100E081C90000
(1599989992.222432) can0 281#0000000100000463
(1599989992.225781) can0 370#0F00000000000000
(1599989992.227273) can0 2B1#2100000000000000
(1599989992.227501) can0 084#0100007A308C8268
(1599989992.227735) can0 085#EE000E6286600020
(1599989992.230112) can0 122#0000000000000EDF
(1599989992.230357) can0 123#0000000000000EDF
(1599989992.230554) can0 124#2E832E29A2F0E053
(1599989992.230796) can0 125#0000010800000E49
(1599989992.232065) can0 113#0E620000AA090170
(1599989992.232356) can0 0E0#005100E091290000
(1599989992.232519) can0 191#0000812000000DC5
(1599989992.236423) can0 150#7E0004042D0367BC
(1599989992.237444) can0 084#0100007A308C8347
(1599989992.237653) can0 085#EE000E6228600030
(1599989992.239877) can0 2F1#2188FFFFFFFF7800
(1599989992.240088) can0 2F2#110210090A000000
(1599989992.242094) can0 2A1#0000007F7F7F7F7F
(1599989992.242297) can0 0E0#005100E0A1260000
(1599989992.242549) can0 2A4#0080000000000000
(1599989992.242816) can0 2A5#000F071F00000000
(1599989992.243085) can0 2A7#0000000000001400
(1599989992.243348) can0 2AA#0000000000000000
(1599989992.243613) can0 3E1#000000000000031B
(1599989992.243881) can0 3E2#000000000000031B
(1599989992.244679) can0 380#17908B0000000000
(1599989992.245719) can0 1F2#9D9C9D9C4E4E4D4E
(1599989992.247488) can0 084#0100007A308C848A
(1599989992.247702) can0 085#EF000E62E7600040
(1599989992.250091) can0 122#0000000000000FF0
(1599989992.250334) can0 123#0000000000000FF0
(1599989992.250559) can0 124#2E832E29A2F0F0FD
(1599989992.250796) can0 125#0000010800000F66
(1599989992.252046) can0 113#0E620000AA090201
(1599989992.252329) can0 0E0#005100E0B1C60000
(1599989992.252517) can0 191#0000812000000EB4
(1599989992.255924) can0 1F0#04180000FFFF0B11
(1599989992.256226) can0 150#7E0004042D036826
(1599989992.257289) can0 415#1500050110000000
(1599989992.257513) can0 084#0100007A308C85A5
(1599989992.257733) can0 085#EF000E600C600050
(1599989992.262053) can0 0E0#005100E0C1380000
(1599989992.262269) can0 2A0#0000000000000000
(1599989992.262534) can0 2A3#E707E71800000300
(1599989992.262799) can0 2A8#00400000000060C2
(1599989992.263065) can0 2AE#0100000000000000
(1599989992.265421) can0 26D#40560A0412000000
(1599989992.267507) can0 084#0100007A308C86D4
(1599989992.267715) can0 085#EF000E60D1600060
(1599989992.270099) can0 122#000000000000006A
(1599989992.270340) can0 123#000000000000006A
(1599989992.270560) can0 124#2E832E29A2F00025
(1599989992.270806) can0 125#00000108000000FC
(1599989992.272056) can0 113#0E600000AA090386
(1599989992.272348) can0 0E0#005100E0D1D80000
(1599989992.272519) can0 191#0000812000000F9B
(1599989992.273774) can0 218#5B00000000000386
(1599989992.275383) can0 3F6#3D25FF000000012C
(1599989992.275594) can0 260#0000000000001CB0
(1599989992.276535) can0 150#7E000403ED03694F
(1599989992.276955) can0 2C2#0000000000000000
(1599989992.277428) can0 084#0100007A308C87FB
(1599989992.277658) can0 085#EF000E607F600070
(1599989992.282040) can0 0E0#005100E0E1D70000
(1599989992.285977) can0 285#0140014000000100
(1599989992.287504) can0 084#0100007A308C8861
(1599989992.287716) can0 085#EF000E60A7600080
(1599989992.288208) can0 288#A500004C00000059
(1599989992.288481) can0 28A#C300020098570496
(1599989992.290110) can0 122#0000000000000145
(1599989992.290345) can0 123#0000000000000145
(1599989992.290558) can0 124#2E832E29A2F0108B
(1599989992.290799) can0 125#00000108000001D3
(1599989992.292048) can0 113#0E600000AA09044B
(1599989992.292344) can0 0E0#005100E0F1370000
(1599989992.292522) can0 191#0000812000000001
(1599989992.292944) can0 41C#1C00020102000000
(1599989992.295897) can0 1F2#9D9C9D9C4E4E4D4E
(1599989992.296199) can0 150#7E0004042D036A78
(1599989992.296442) can0 286#0140014000000000
(1599989992.297440) can0 084#0100007A308C894E
(1599989992.297650) can0 085#EF000E5093600090
(1599989992.298145) can0 2FB#000007DA465F07F3
(1599989992.298381) can0 2FC#0A00000000004019
(1599989992.298631) can0 2FD#0000000000001000
(1599989992.302045) can0 0E0#005100E001040000
(1599989992.305764) can0 1F0#04180000FFFF0CDC
(1599989992.306229) can0 284#004140530C680200
(1599989992.307483) can0 084#0100007A308C8A3F
(1599989992.307694) can0 085#EF000E504E6000A0
(1599989992.310103) can0 122#0000000000000234
(1599989992.310318) can0 123#0000000000000234
(1599989992.310549) can0 124#2E832E29A2F02056
(1599989992.310793) can0 125#00000108000002A2
(1599989992.312061) can0 113#0E500000AA09053E
(1599989992.312372) can0 0E0#005100E011E40000
(1599989992.312515) can0 191#000081200000012E
(1599989992.316407) can0 287#0059000000000120
(1599989992.316585) can0 150#7E0004042D036B57
(1599989992.317439) can0 084#0100007A308C8B10
(1599989992.317658) can0 085#EF000E50E06000B0
(1599989992.321992) can0 0E0#005100E021EB0000
(1599989992.322205) can0 281#000000010000054C
(1599989992.327394) can0 2AB#0190430000030100
(1599989992.327508) can0 084#0100007A308C8CDD
(1599989992.327726) can0 085#EF000E50DB6000C0
(1599989992.327982) can0 2B1#2100000000000000
(1599989992.330175) can0 122#000000000000031B
(1599989992.330327) can0 123#000000000000031B
(1599989992.330561) can0 124#2E832E29A2F030F8
(1599989992.330803) can0 125#000001080000038D
(1599989992.332074) can0 113#0E500000AA09064F
(1599989992.332357) can0 0E0#005100E0310B0000
(1599989992.332533) can0 191#000081200000025F
(1599989992.335399) can0 3F0#3020340702170007
(1599989992.336392) can0 150#7E0004042D036C9A
(1599989992.337439) can0 084#0100007A308C8DF2
(1599989992.337654) can0 085#EF000E50756000D0
(1599989992.339889) can0 2F1#2188FFFFFFFF7800
(1599989992.340105) can0 2F2#110210090A000000
(1599989992.342046) can0 0E0#005100E041F50000
(1599989992.342258) can0 2A1#0000007F7F7F7F7F
(1599989992.342527) can0 2A4#0080000000000000
(1599989992.342796) can0 2A5#000F071F00000000
(1599989992.343076) can0 2A7#0000000000001400
(1599989992.343340) can0 2AA#0000000000000000
(1599989992.345685) can0 1F2#9D9C9D9C4E4E4D4E
(1599989992.347492) can0 084#0100007A308C8E83
(1599989992.347695) can0 085#EF000E64B86000E0
(1599989992.350108) can0 122#00000000000004D6
(1599989992.350324) can0 123#00000000000004D6
(1599989992.350559) can0 124#2E832E29A2F040C3
(1599989992.350797) can0 125#0000010800000440
(1599989992.352065) can0 113#0E500000AA090760
(1599989992.352350) can0 0E0#005100E051150000
(1599989992.352529) can0 191#0000812000000370
(1599989992.355898) can0 1F0#04180000FFFF0DF3
(1599989992.356376) can0 150#7E0004042D036DB5
(1599989992.357446) can0 084#0100007A308C8FAC
(1599989992.357664) can0 085#EF000E64166000F0
(1599989992.362050) can0 0E0#005100E0611A0000
(1599989992.362267) can0 2A0#0000000000000000
(1599989992.362529) can0 2A3#E707E71800000300
(1599989992.362797) can0 2A8#004000000000706C
(1599989992.363064) can0 2AE#0100000000000000
(1599989992.365388) can0 26D#40560A0412000000
(1599989992.367495) can0 084#0100007A308C8036
(1599989992.367698) can0 085#EF000E64CE600000
(1599989992.370115) can0 122#00000000000005F9
(1599989992.370332) can0 123#00000000000005F9
(1599989992.370568) can0 124#2E832E29A2F0506D
(1599989992.370808) can0 125#000001080000056F
(1599989992.372074) can0 113#0E640000AA0908DF
(1599989992.372386) can0 0E0#005100E071FA0000
(1599989992.372531) can0 191#00008120000004BD
(1599989992.373769) can0 218#5B0000000000044B
(1599989992.375384) can0 260#0000000000001CB0
(1599989992.376376) can0 150#7E0004042D036EC4
(1599989992.377442) can0 084#0100007A308C8119
(1599989992.377702) can0 085#EF000E6460600010
(1599989992.377959) can0 2C2#0000000000000000
(1599989992.382082) can0 0E0#005100E081C90000
(1599989992.385945) can0 285#0140014000000100
(1599989992.387513) can0 084#0100007A308C8268
(1599989992.387733) can0 085#EF000E6272600020
(1599989992.388204) can0 288#A500004C00000059
(1599989992.388434) can0 28A#C3000200985705B9
(1599989992.390107) can0 122#0000000000000688
(1599989992.390345) can0 123#0000000000000688
(1599989992.390558) can0 124#2E832E29A2F060B0
(1599989992.390796) can0 125#000001080000061E
(1599989992.392046) can0 113#0E640000AA0909F0
(1599989992.392343) can0 0E0#005100E091290000
(1599989992.392514) can0 191#0000812000000592
(1599989992.395841) can0 1F2#9D9C9D9C4E4E4D4E
(1599989992.396172) can0 150#7E0004042D036FEB
(1599989992.396415) can0 286#0140014000000000
(1599989992.397462) can0 084#0100007A308C8347
(1599989992.397698) can0 085#EF000E62DC600030
(1599989992.398152) can0 2FB#000007DC466407F5
(1599989992.398393) can0 2FC#0A00000000004019
(1599989992.398639) can0 2FD#0000000000001000
(1599989992.401961) can0 0E0#005100E0A1260000
(1599989992.405740) can0 1F0#04180000FFFF0E82
(1599989992.406204) can0 284#004140530C680200
(1599989992.407496) can0 084#0100007A308C848A
(1599989992.407711) can0 085#EF000E62E7600040
(1599989992.410106) can0 122#00000000000007A7
(1599989992.410331) can0 123#00000000000007A7
(1599989992.410565) can0 124#2E832E29A2F0701E
(1599989992.410806) can0 125#0000010800000731
(1599989992.412054) can0 113#0E620000AA090A56
(1599989992.412339) can0 0E0#005100E0B1C60000
(1599989992.412514) can0 191#00008120000006E3
(1599989992.416416) can0 287#0059000000000120
(1599989992.416555) can0 150#7E0004042D036071
(1599989992.417430) can0 084#0100007A308C85A5
(1599989992.417652) can0 085#EF000E6249600050
(1599989992.422037) can0 0E0#005100E0C1380000
(1599989992.422288) can0 407#0710050110000000
(1599989992.422509) can0 281#000000010000063D
(1599989992.427318) can0 2B1#2100000000000000
(1599989992.427514) can0 084#0100007A308C86D4
(1599989992.427745) can0 085#EF000E661E600060
(1599989992.430121) can0 122#000000000000083D
(1599989992.430343) can0 123#000000000000083D
(1599989992.430571) can0 124#2E832E29A2F080C6
(1599989992.430811) can0 125#00000108000008AB
(1599989992.432077) can0 113#0E620000AA090B79
(1599989992.432385) can0 0E0#005100E0D1D80000
(1599989992.432531) can0 191#00008120000007CC
(1599989992.436416) can0 150#7E0004042D03615E
(1599989992.437451) can0 084#0100007A308C87FB
(1599989992.437664) can0 085#EF000E66B0600070
(1599989992.439919) can0 2F1#2188FFFFFFFF7800
(1599989992.440126) can0 2F2#110210090A000000
(1599989992.442051) can0 0E0#005100E0E1D70000
(1599989992.442262) can0 2A1#0000007F7F7F7F7F
(1599989992.442533) can0 2A4#0080000000000000
(1599989992.442802) can0 2A5#000F071F00000000
(1599989992.443067) can0 2A7#0000000000001400
(1599989992.443331) can0 2AA#0000000000000000
(1599989992.443598) can0 3E1#00000000000004D6
(1599989992.443867) can0 3E2#00000000000004D6
(1599989992.444666) can0 380#17A0D10000000000
(1599989992.445675) can0 1F2#9D9C9D9C4E4E4D4E
(1599989992.447492) can0 084#0100007A308C8861
(1599989992.447700) can0 085#EF000E6668600080
(1599989992.450106) can0 122#0000000000000912
(1599989992.450344) can0 123#0000000000000912
(1599989992.450560) can0 124#2E832E29A2F09068
(1599989992.450798) can0 125#0000010800000984
(1599989992.452049) can0 113#0E660000AA090CCB
(1599989992.452335) can0 0E0#005100E0F1370000
(1599989992.452518) can0 191#0000812000000856
(1599989992.455882) can0 1F0#04180000FFFF0FAD
(1599989992.456354) can0 150#7E0004042D03622F
(1599989992.457437) can0 084#0100007A308C894E
(1599989992.457655) can0 085#EF000E66C6600090
(1599989992.462059) can0 0E0#005100E001040000
(1599989992.462278) can0 2A0#0000000000000000
(1599989992.462540) can0 2A3#E707E71800000300
(1599989992.462802) can0 2A8#00400000000080B4
(1599989992.463070) can0 2AE#0100000000000000
(1599989992.465410) can0 26D#40560A0412000000
(1599989992.467472) can0 084#0100007A308C8A3F
(1599989992.467701) can0 085#EF000E661B6000A0
(1599989992.470113) can0 122#0000000000000A63
(1599989992.470330) can0 123#0000000000000A63
(1599989992.470559) can0 124#2E832E29A2F0A0B5
(1599989992.470800) can0 125#0000010800000AF5
(1599989992.472057) can0 113#0E660000AA090DE4
(1599989992.472354) can0 0E0#005100E011E40000
(1599989992.472511) can0 191#0000812000000979
(1599989992.473735) can0 218#5B00000000000564
(1599989992.475354) can0 3F6#3D25FF000000025D
(1599989992.475571) can0 260#0000000000001CB0
(1599989992.476373) can0 150#7E0004042D036300
(1599989992.477502) can0 084#0100007A308C8B10
(1599989992.477670) can0 085#F0000E6EAB6000B0
(1599989992.478992) can0 2C2#0000000000000000
(1599989992.481967) can0 0E0#005100E021EB0000
(1599989992.485910) can0 285#0140014000000100
(1599989992.487547) can0 084#0100007A308C8CDD
(1599989992.487753) can0 085#F0000E6E906000C0
(1599989992.488236) can0 288#A500004C00000059
(1599989992.488492) can0 28A#C3000200985706C8
(1599989992.490110) can0 122#0000000000000B4C
(1599989992.490336) can0 123#0000000000000B4C
(1599989992.490560) can0 124#2E832E29A2F0B01B
(1599989992.490804) can0 125#0000010800000BDA
(1599989992.492060) can0 113#0E6E0000AA090E6B
(1599989992.492345) can0 0E0#005100E0310B0000
(1599989992.492527) can0 191#0000812000000A08
(1599989992.495843) can0 1F2#9D9C9D9C4E4E4D4E
(1599989992.496153) can0 150#7E0004042D0364CD
(1599989992.496395) can0 286#0140014000000000
(1599989992.497430) can0 084#0100007A308C8DF2
(1599989992.497662) can0 085#F0000E6E3E6000D0
(1599989992.498150) can0 2FB#000007DF465F07F6
(1599989992.498393) can0 2FC#0A00000000004019
(1599989992.498642) can0 2FD#0000000000001000
(1599989992.502034) can0 0E0#005100E041F50000
(1599989992.505711) can0 1F0#04180000FFFF0037
(1599989992.506179) can0 284#004140530C680200
(1599989992.507495) can0 084#0100007A308C8E83
(1599989992.507704) can0 085#F0000E6EE36000E0
(1599989992.510126) can0 122#0000000000000C81
(1599989992.510340) can0 123#0000000000000C81
(1599989992.510577) can0 124#2E832E29A2F0C020
(1599989992.510819) can0 125#0000010800000C17
(1599989992.512074) can0 113#0E6E0000AA090F44
(1599989992.512351) can0 0E0#005100E051150000
(1599989992.512533) can0 191#0000812000000B27
(1599989992.516393) can0 287#0059000000000120
(1599989992.516532) can0 150#7E0004042D0365E2
(1599989992.517436) can0 084#0100007A308C8FAC
(1599989992.517666) can0 085#F0000E66766000F0
(1599989992.521965) can0 0E0#005100E0611A0000
(1599989992.522188) can0 281#0000000100000712
(1599989992.527316) can0 2AB#0190430000030100
(1599989992.527511) can0 084#0100007A308C8036
(1599989992.527747) can0 085#F0000E66AE600000
(1599989992.527994) can0 2B1#2100000000000000
(1599989992.530121) can0 122#0000000000000DAE
(1599989992.530378) can0 123#0000000000000DAE
(1599989992.530574) can0 124#2E832E29A2F0D08E
(1599989992.530812) can0 125#0000010800000D38
(1599989992.532068) can0 113#0E660000AA090020
(1599989992.532420) can0 0E0#005100E071FA0000
(1599989992.532544) can0 191#0000812000000CEA
(1599989992.536501) can0 150#7E000403ED0366D5
(1599989992.537441) can0 084#0100007A308C8119
(1599989992.537675) can0 085#F0000E6600600010
(1599989992.539935) can0 2F1#2188FFFFFFFF7800
(1599989992.540140) can0 2F2#110210090A000000
(1599989992.541965) can0 0E0#005100E081C90000
(1599989992.542192) can0 2A1#0000007F7F7F7F7F
(1599989992.542460) can0 2A4#0080000000000000
(1599989992.542730) can0 2A5#000F071F00000000
(1599989992.542994) can0 2A7#0000000000001400
(1599989992.543263) can0 2AA#0000000000000000
(1599989992.545623) can0 1F2#9D9C9D9C4E4E4D4E
(1599989992.547496) can0 084#0100007A308C8268
(1599989992.547705) can0 085#F0000E66DD600020
(1599989992.550134) can0 122#0000000000000EDF
(1599989992.550350) can0 123#0000000000000EDF
(1599989992.550585) can0 124#2E832E29A2F0E053
(1599989992.550821) can0 125#0000010800000E49
(1599989992.552088) can0 113#0E660000AA09010F
(1599989992.552356) can0 0E0#005100E091290000
(1599989992.552544) can0 191#0000812000000DC5
(1599989992.555842) can0 1F0#04180000FFFF0118
(1599989992.556360) can0 150#7E0004042D0367BC
(1599989992.557457) can0 084#0100007A308C8347
(1599989992.557677) can0 085#F0000E62F9600030
(1599989992.561957) can0 0E0#005100E0A1260000
(1599989992.562178) can0 2A0#0000000000000000
(1599989992.562441) can0 2A3#E707E71800000300
(1599989992.562706) can0 2A8#004000000000901A
(1599989992.562972) can0 2AE#0100000000000000
(1599989992.565399) can0 26D#40560A0412000000
(1599989992.567501) can0 084#0100007A308C848A
(1599989992.567721) can0 085#F0000E62C2600040
(1599989992.570137) can0 122#0000000000000FF0
(1599989992.570360) can0 123#0000000000000FF0
(1599989992.570589) can0 124#2E832E29A2F0F0FD
(1599989992.570825) can0 125#0000010800000F66
(1599989992.572083) can0 113#0E620000AA090201
(1599989992.572368) can0 0E0#005100E0B1C60000
(1599989992.572546) can0 191#0000812000000EB4
(1599989992.573777) can0 218#5B00000000000615
(1599989992.575386) can0 260#0000000000001CB0
(1599989992.576381) can0 150#7E0004042D036826
(1599989992.577442) can0 084#0100007A308C85A5
(1599989992.577664) can0 085#F0000E626C600050
(1599989992.580003) can0 2C2#0000000000000000
(1599989992.582043) can0 0E0#005100E0C1380000
(1599989992.585881) can0 285#0140014000000100
(1599989992.587564) can0 084#0100007A308C86D4
(1599989992.587729) can0 085#F0000E62B1600060
(1599989992.588223) can0 288#A500004C00000059
(1599989992.588521) can0 28A#C3000200985707E7
(1599989992.590132) can0 122#000000000000006A
(1599989992.590355) can0 123#000000000000006A
(1599989992.590583) can0 124#2E832E29A2F00025
(1599989992.590831) can0 125#00000108000000FC
(1599989992.592090) can0 113#0E620000AA09032E
(1599989992.592348) can0 0E0#005100E0D1D80000
(1599989992.592547) can0 191#0000812000000F9B
(1599989992.595813) can0 1F2#9D9C9D9C4E4E4D4E
(1599989992.596179) can0 150#7E000403ED03694F
(1599989992.596414) can0 286#0140014000000000
(1599989992.597443) can0 084#0100007A308C87FB
(1599989992.597664) can0 085#F0000E621F600070
(1599989992.598144) can0 2FB#000007DE466407F4
(1599989992.598382) can0 2FC#0A00000000004019
(1599989992.598627) can0 2FD#0000000000001000
(1599989992.601965) can0 0E0#005100E0E1D70000
(1599989992.605684) can0 1F0#04180000FFFF0269
(1599989992.606151) can0 284#004140530C680200
(1599989992.607486) can0 084#0100007A308C8861
(1599989992.607704) can0 085#F0000E5EEC600080
(1599989992.610132) can0 122#0000000000000145
(1599989992.610352) can0 123#0000000000000145
(1599989992.610583) can0 124#2E832E29A2F0108B
(1599989992.610826) can0 125#00000108000001D3
(1599989992.612089) can0 113#0E620000AA0904E3
(1599989992.612351) can0 0E0#005100E0F1370000
(1599989992.612552) can0 191#0000812000000001
(1599989992.616407) can0 287#0059000000000120
(1599989992.616522) can0 150#7E0004042D036A78
(1599989992.617492) can0 084#0100007A308C894E
(1599989992.617718) can0 085#F0000E5E42600090
(1599989992.621977) can0 0E0#005100E001040000
(1599989992.622196) can0 281#0000000100000888
(1599989992.627326) can0 2B1#2100000000000000
(1599989992.627527) can0 084#0100007A308C8A3F
(1599989992.627765) can0 085#F0000E5E9F6000A0
(1599989992.630127) can0 122#0000000000000234
(1599989992.630344) can0 123#0000000000000234
(1599989992.630580) can0 124#2E832E29A2F02056
(1599989992.630821) can0 125#00000108000002A2
(1599989992.632070) can0 113#0E5E0000AA090517
(1599989992.632341) can0 0E0#005100E011E40000
(1599989992.632535) can0 191#000081200000012E
(1599989992.636410) can0 150#7E0004042D036B57
(1599989992.637448) can0 084#0100007A308C8B10
(1599989992.637662) can0 085#F0000E5E316000B0
(1599989992.639955) can0 2F1#2188FFFFFFFF7800
(1599989992.640196) can0 2F2#110210090A000000
(1599989992.641964) can0 0E0#005100E021EB0000
(1599989992.642188) can0 2A1#0000007F7F7F7F7F
(1599989992.642452) can0 2A4#0080000000000000
(1599989992.642718) can0 2A5#000F071F00000000
(1599989992.642984) can0 2A7#0000000000001400
(1599989992.643251) can0 2AA#0000000000000000
(1599989992.643525) can0 3E1#00000000000005F9
(1599989992.643794) can0 3E2#00000000000005F9
(1599989992.644690) can0 380#17B0020000000000
(1599989992.645612) can0 1F2#9D9C9D9C4E4E4D4E
(1599989992.647502) can0 084#0100007A308C8CDD
(1599989992.647712) can0 085#F0000E56316000C0
(1599989992.650137) can0 122#000000000000031B
(1599989992.650352) can0 123#000000000000031B
(1599989992.650585) can0 124#2E832E29A2F030F8
(1599989992.650827) can0 125#000001080000038D
(1599989992.652083) can0 113#0E5E0000AA090666
(1599989992.652341) can0 0E0#005100E0310B0000
(1599989992.652551) can0 191#000081200000025F
(1599989992.655811) can0 1F0#04180000FFFF0346
(1599989992.656357) can0 150#7E000403ED036CDC
(1599989992.657441) can0 084#0100007A308C8DF2
(1599989992.657663) can0 085#F0000E569F6000D0
(1599989992.662044) can0 0E0#005100E041F50000
(1599989992.662269) can0 2A0#0000000000000000
(1599989992.662535) can0 2A3#E707E71800000300
(1599989992.662799) can0 2A8#004000000000A0C7
(1599989992.663067) can0 2AE#0100000000000000
(1599989992.665430) can0 26D#40560A0412000000
(1599989992.667499) can0 084#0100007A308C8E83
(1599989992.667705) can0 085#F0000E56426000E0
(1599989992.668186) can0 40E#0E100601E0030000
(1599989992.670117) can0 122#00000000000004D6
(1599989992.670351) can0 123#00000000000004D6
(1599989992.670581) can0 124#2E832E29A2F040C3
(1599989992.670823) can0 125#0000010800000440
(1599989992.672085) can0 113#0E560000AA0907B7
(1599989992.672344) can0 0E0#005100E051150000
(1599989992.672765) can0 191#0000812000000370
(1599989992.673782) can0 218#5A000000000007CE
(1599989992.675425) can0 3F6#3CFFFF0000000344
(1599989992.675647) can0 260#0000000000001CB0
(1599989992.676372) can0 150#7E0004042D036DB5
(1599989992.677470) can0 084#0100007A308C8FAC
(1599989992.677687) can0 085#F0000E56EC6000F0
(1599989992.681004) can0 2C2#0000000000000000
(1599989992.681968) can0 0E0#005100E0611A0000
(1599989992.685916) can0 285#0140014000000100
(1599989992.687536) can0 084#0100007A308C8036
(1599989992.687751) can0 085#F0000E4E79600000
(1599989992.688234) can0 288#A500004C00000059
(1599989992.688476) can0 28A#C200020098570889
(1599989992.690136) can0 122#00000000000005F9
(1599989992.690379) can0 123#00000000000005F9
(1599989992.690591) can0 124#2E832E29A2F0506D
(1599989992.690834) can0 125#000001080000056F
(1599989992.692094) can0 113#0E560000AA09082D
(1599989992.692352) can0 0E0#005100E071FA0000
(1599989992.692557) can0 191#00008120000004BD
(1599989992.695783) can0 1F2#9D9C9D9C4E4E4D4E
(1599989992.696186) can0 150#7E0004042D036EC4
(1599989992.696425) can0 286#0140014000000000
(1599989992.697452) can0 084#0100007A308C8119
(1599989992.697670) can0 085#F0000E4ED7600010
(1599989992.698134) can0 2FB#000007DD466407F3
(1599989992.698377) can0 2FC#0A00000000004019
(1599989992.698625) can0 2FD#0000000000001000
(1599989992.701984) can0 0E0#005100E081C90000
(1599989992.705658) can0 1F0#04180000FFFF048B
(1599989992.706123) can0 284#004140530C680200
(1599989992.707513) can0 084#0100007A308C8268
(1599989992.707729) can0 085#F0000E4E0A600020
(1599989992.710131) can0 122#0000000000000688
(1599989992.710350) can0 123#0000000000000688
(1599989992.710583) can0 124#2E832E29A2F060B0
(1599989992.710823) can0 125#000001080000061E
(1599989992.712074) can0 113#0E4E0000AA09092F
(1599989992.712336) can0 0E0#005100E091290000
(1599989992.712537) can0 191#0000812000000592
(1599989992.715387) can0 402#0210020102000000
(1599989992.716361) can0 287#0059000000000120
(1599989992.716579) can0 150#7E0004042D036FEB
(1599989992.717457) can0 084#0100007A308C8347
(1599989992.717679) can0 085#F1000E4E50600030
(1599989992.721965) can0 0E0#005100E0A1260000
(1599989992.722177) can0 281#00000001000009A7
(1599989992.722436) can0 390#0800000000000000
(1599989992.725644) can0 370#0F00000000000000
(1599989992.727318) can0 2AB#0190430000030100
(1599989992.727524) can0 084#0100007A308C848A
(1599989992.727760) can0 085#F1000E4E6B600040
(1599989992.728010) can0 2B1#2100000000000000
(1599989992.730140) can0 122#00000000000007A7
(1599989992.730380) can0 123#00000000000007A7
(1599989992.730595) can0 124#2E832E29A2F0701E
(1599989992.730836) can0 125#0000010800000731
(1599989992.732084) can0 113#0E4E0000AA090A5E
(1599989992.732342) can0 0E0#005100E0B1C60000
(1599989992.732543) can0 191#00008120000006E3
(1599989992.736420) can0 150#7E0004042D036071
(1599989992.737456) can0 084#0100007A308C85A5
(1599989992.737667) can0 085#F1000E4EC5600050
(1599989992.739957) can0 2F1#2188FFFFFFFF7800
(1599989992.740165) can0 2F2#110210090A000000
(1599989992.742121) can0 2A1#0000007F7F7F7F7F
(1599989992.742335) can0 0E0#005100E0C1380000
(1599989992.742582) can0 2A4#0080000000000000
(1599989992.742849) can0 2A5#000F071F00000000
(1599989992.743118) can0 2A7#0000000000001400
(1599989992.743387) can0 2AA#0000000000000000
(1599989992.745565) can0 1F2#9D9C9D9C4E4E4D4E
(1599989992.747500) can0 084#0100007A308C86D4
(1599989992.747702) can0 085#F1000E4E18600060
(1599989992.750147) can0 122#000000000000083D
(1599989992.750372) can0 123#000000000000083D
(1599989992.750600) can0 124#2E832E29A2F080C6
(1599989992.750842) can0 125#00000108000008AB
(1599989992.752094) can0 113#0E4E0000AA090B71
(1599989992.752347) can0 0E0#005100E0D1D80000
(1599989992.752560) can0 191#00008120000007CC
(1599989992.755788) can0 1F0#04180000FFFF05A4
(1599989992.756356) can0 150#7E0004042D03615E
(1599989992.757311) can0 415#1500050110000000
(1599989992.757533) can0 084#0100007A308C87FB
(1599989992.757766) can0 085#F1000E4EB6600070
(1599989992.761978) can0 0E0#005100E0E1D70000
(1599989992.762199) can0 2A0#0000000000000000
(1599989992.762460) can0 2A3#E707E71800000300
(1599989992.762725) can0 2A8#004000000000B069
(1599989992.762994) can0 2AE#0100000000000000
(1599989992.765458) can0 26D#40560A0412000000
(1599989992.767506) can0 084#0100007A308C8861
(1599989992.767709) can0 085#F1000E4E6E600080
(1599989992.770146) can0 122#0000000000000912
(1599989992.770354) can0 123#0000000000000912
(1599989992.770587) can0 124#2E832E29A2F09068
(1599989992.770828) can0 125#0000010800000984
(1599989992.772091) can0 113#0E4E0000AA090CBC
(1599989992.772355) can0 0E0#005100E0F1370000
(1599989992.772545) can0 191#0000812000000856
(1599989992.773786) can0 218#5B000000000008A0
(1599989992.775401) can0 260#0000000000001CB0
(1599989992.776384) can0 150#7E000403ED036269
(1599989992.777459) can0 084#0100007A308C894E
(1599989992.777680) can0 085#F1000E4034600090
(1599989992.782029) can0 2C2#0000000000000000
(1599989992.782236) can0 0E0#005100E001040000
(1599989992.785835) can0 285#0140014000000100
(1599989992.787521) can0 084#0100007A308C8A3F
(1599989992.787741) can0 085#F1000E40E96000A0
(1599989992.788363) can0 288#A500004C00000059
(1599989992.788565) can0 28A#C300020098570952
(1599989992.790138) can0 122#0000000000000A63
(1599989992.790357) can0 123#0000000000000A63
(1599989992.790588) can0 124#2E832E29A2F0A0B5
(1599989992.790828) can0 125#0000010800000AF5
(1599989992.792085) can0 113#0E400000AA090DBA
(1599989992.792381) can0 0E0#005100E011E40000
(1599989992.792552) can0 191#0000812000000979
(1599989992.794018) can0 41C#1C00020102000000
(1599989992.795758) can0 1F2#9D9C9D9C4E4E4D4E
(1599989992.796201) can0 150#7E0004042D036300
(1599989992.796443) can0 286#0140014000000000
(1599989992.797448) can0 084#0100007A308C7BC8
(1599989992.797669) can0 085#F1000E40476000B0
(1599989992.798131) can0 2FB#000007DE466207F8
(1599989992.798375) can0 2FC#0A00000000004019
(1599989992.798622) can0 2FD#0000000000001000
(1599989992.801983) can0 0E0#005100E021EB0000
(1599989992.805638) can0 1F0#04180000FFFF06D5
(1599989992.806092) can0 284#004140530C680200
(1599989992.807761) can0 084#0100007A308C7C05
(1599989992.807986) can0 085#F1000E407C6000C0
(1599989992.810152) can0 122#0000000000000B4C
(1599989992.810360) can0 123#0000000000000B4C
(1599989992.810591) can0 124#2E832E29A2F0B01B
(1599989992.810836) can0 125#0000010800000BDA
(1599989992.812094) can0 113#0E400000AA090ECB
(1599989992.812351) can0 0E0#005100E0310B0000
(1599989992.812560) can0 191#0000812000000A08
(1599989992.815384) can0 3F1#015F6F0DC1219E00
(1599989992.816232) can0 287#0059000000000120
(1599989992.816534) can0 150#7E0004042D0364CD
(1599989992.817454) can0 084#0100007A308C7D2A
(1599989992.817669) can0 085#F1000E40D26000D0
(1599989992.821985) can0 0E0#005100E041F50000
(1599989992.822199) can0 281#0000000100000AD6
(1599989992.827347) can0 2B1#2100000000000000
(1599989992.827542) can0 084#0100007A308C7E5B
(1599989992.827777) can0 085#F1000E34E86000E0
(1599989992.830152) can0 122#0000000000000C81
(1599989992.830370) can0 123#0000000000000C81
(1599989992.830605) can0 124#2E832E29A2F0C020
(1599989992.830844) can0 125#0000010800000C17
(1599989992.832104) can0 113#0E400000AA090FE4
(1599989992.832349) can0 0E0#005100E051150000
(1599989992.832570) can0 191#0000812000000B27
(1599989992.835412) can0 3F0#3120340702170007
(1599989992.836411) can0 150#7E0004042D0365E2
(1599989992.837465) can0 084#0100007A308C7F74
(1599989992.837678) can0 085#F1000E34466000F0
(1599989992.840016) can0 2F1#2188FFFFFFFF7800
(1599989992.840182) can0 2F2#110210090A000000
(1599989992.841966) can0 0E0#005100E0611A0000
(1599989992.842182) can0 2A1#0000007F7F7F7F7F
(1599989992.842455) can0 2A4#0080000000000000
(1599989992.842722) can0 2A5#000F071F00000000
(1599989992.842988) can0 2A7#0000000000001400
(1599989992.843257) can0 2AA#0000000000000000
(1599989992.843524) can0 3E1#0000000000000688
(1599989992.843789) can0 3E2#0000000000000688
(1599989992.844750) can0 380#17C0650000000000
(1599989992.845555) can0 1F2#9D9C9D9C4E4E4D4E
(1599989992.847504) can0 084#0100007A308C8036
(1599989992.847717) can0 085#F1000E349E600000
(1599989992.850151) can0 122#0000000000000DAE
(1599989992.850377) can0 123#0000000000000DAE
(1599989992.850601) can0 124#2E832E29A2F0D08E
(1599989992.850838) can0 125#0000010800000D38
(1599989992.852113) can0 113#0E340000AA090066
(1599989992.852373) can0 0E0#005100E071FA0000
(1599989992.852568) can0 191#0000812000000CEA
(1599989992.855419) can0 3F7#FFF0FFF8FFF806D6
(1599989992.855731) can0 1F0#04180000FFFF07FA
(1599989992.856346) can0 150#7E000403ED0366D5
(1599989992.857464) can0 084#0100007A308C8119
(1599989992.857676) can0 085#F1000E3430600010
(1599989992.862054) can0 0E0#005100E081C90000
(1599989992.862280) can0 2A0#0000000000000000
(1599989992.862538) can0 2A3#E707E71800000300
(1599989992.862802) can0 2A8#004000000000C052
(1599989992.863072) can0 2AE#0100000000000000
(1599989992.865405) can0 26D#40560A0412000000
(1599989992.867499) can0 084#0100007A308C8268
(1599989992.867722) can0 085#F1000E34ED600020
(1599989992.870154) can0 122#0000000000000EDF
(1599989992.870388) can0 123#0000000000000EDF
(1599989992.870611) can0 124#2E832E29A2F0E053
(1599989992.870852) can0 125#0000010800000E49
(1599989992.872112) can0 113#0E340000AA090149
(1599989992.872343) can0 0E0#005100E091290000
(1599989992.872583) can0 191#0000812000000DC5
(1599989992.873807) can0 218#5B0000000000098F
(1599989992.875442) can0 3F6#3CFFFF0000000489
(1599989992.875670) can0 260#0000000000001CB0
(1599989992.876474) can0 150#7E0004042D0367BC
(1599989992.877498) can0 084#0100007A308C8347
(1599989992.877714) can0 085#F1000E3443600030
(1599989992.881966) can0 0E0#005100E0A1260000
(1599989992.883022) can0 2C2#0000000000000000
(1599989992.885809) can0 285#0140014000000100
(1599989992.887531) can0 084#0100007A308C848A
(1599989992.887754) can0 085#F1000E3478600040
(1599989992.888343) can0 288#A500004C00000059
(1599989992.888507) can0 28A#C300020098570A23
(1599989992.890160) can0 122#0000000000000FF0
(1599989992.890384) can0 123#0000000000000FF0
(1599989992.890617) can0 124#2E832E29A2F0F0FD
(1599989992.890856) can0 125#0000010800000F66
(1599989992.892109) can0 113#0E340000AA090238
(1599989992.892344) can0 0E0#005100E0B1C60000
(1599989992.892575) can0 191#0000812000000EB4
(1599989992.895733) can0 1F2#9D9C9D9C4E4E4D4E
(1599989992.896210) can0 286#0140014000000000
(1599989992.896475) can0 150#7E0004042D036826
(1599989992.897449) can0 084#0100007A308C85A5
(1599989992.897664) can0 085#F1000E34D6600050
(1599989992.898129) can0 2FB#000007DE465D07F2
(1599989992.898370) can0 2FC#0A00000000004019
(1599989992.898616) can0 2FD#0000000000001000
(1599989992.901971) can0 0E0#005100E0C1380000
(1599989992.905604) can0 1F0#04180000FFFF0860
(1599989992.906066) can0 284#004140530C680200
(1599989992.907489) can0 084#0100007A308C86D4
(1599989992.907711) can0 085#F1000E364E600060
(1599989992.910167) can0 122#000000000000006A
(1599989992.910380) can0 123#000000000000006A
(1599989992.910612) can0 124#2E832E29A2F00025
(1599989992.910858) can0 125#00000108000000FC
(1599989992.912106) can0 113#0E340000AA090317
(1599989992.912346) can0 0E0#005100E0D1D80000
(1599989992.912575) can0 191#0000812000000F9B
(1599989992.916219) can0 287#0059000000000120
(1599989992.916579) can0 150#7E000403ED03694F
(1599989992.917454) can0 084#0100007A308C87FB
(1599989992.917676) can0 085#F1000E36E0600070
(1599989992.921967) can0 0E0#005100E0E1D70000
(1599989992.922175) can0 407#0710050110000000
(1599989992.922426) can0 281#0000000100000BF9
(1599989992.927333) can0 2AB#0190430000030100
(1599989992.927535) can0 084#0100007A308C8861
(1599989992.927768) can0 085#F1000E3638600080
(1599989992.928017) can0 2B1#2100000000000000
(1599989992.930167) can0 122#0000000000000145
(1599989992.930378) can0 123#0000000000000145
(1599989992.930610) can0 124#2E832E29A2F0108B
(1599989992.930852) can0 125#00000108000001D3
(1599989992.932114) can0 113#0E360000AA090472
(1599989992.932348) can0 0E0#005100E0F1370000
(1599989992.932576) can0 191#0000812000000001
(1599989992.936459) can0 150#7E0004042D036A78
(1599989992.937456) can0 084#0100007A308C894E
(1599989992.937671) can0 085#F1000E3696600090
(1599989992.939992) can0 2F1#2188FFFFFFFF7800
(1599989992.940201) can0 2F2#110210090A000000
(1599989992.942040) can0 0E0#005100E001040000
(1599989992.942267) can0 2A1#0000007F7F7F7F7F
(1599989992.942533) can0 2A4#0080000000000000
(1599989992.942807) can0 2A5#000F071F00000000
(1599989992.943077) can0 2A7#0000000000001400
(1599989992.943335) can0 2AA#0000000000000000
(1599989992.945495) can0 1F2#9D9C9D9C4E4E4D4E
(1599989992.947496) can0 084#0100007A308C8A3F
(1599989992.947713) can0 085#F2000E36786000A0
(1599989992.950160) can0 122#0000000000000234
(1599989992.950375) can0 123#0000000000000234
(1599989992.950605) can0 124#2E832E29A2F02056
(1599989992.950851) can0 125#00000108000002A2
(1599989992.952109) can0 113#0E360000AA09055D
(1599989992.952353) can0 0E0#005100E011E40000
(1599989992.952567) can0 191#000081200000012E
(1599989992.955733) can0 1F0#04180000FFFF094F
(1599989992.956447) can0 150#7E0004042D036B57
(1599989992.957444) can0 084#0100007A308C8B10
(1599989992.957667) can0 085#F2000E2E9B6000B0
(1599989992.961973) can0 0E0#005100E021EB0000
(1599989992.962197) can0 2A0#0000000000000000
(1599989992.962460) can0 2A3#E707E71800000300
(1599989992.962718) can0 2A8#004000000000D0FC
(1599989992.962985) can0 2AE#0100000000000000
(1599989992.965447) can0 26D#40560A0412000000
(1599989992.967530) can0 084#0100007A308C8CDD
(1599989992.967735) can0 085#F2000E2EA06000C0
(1599989992.970164) can0 122#000000000000031B
(1599989992.970383) can0 123#000000000000031B
(1599989992.970618) can0 124#2E832E29A2F030F8
(1599989992.970860) can0 125#000001080000038D
(1599989992.972127) can0 113#0E2E0000AA090601
(1599989992.972348) can0 0E0#005100E0310B0000
(1599989992.972589) can0 191#000081200000025F
(1599989992.973825) can0 218#5B00000000000AFE
(1599989992.975366) can0 260#0000000000001CB0
(1599989992.976388) can0 150#7E000403ED036CDC
(1599989992.977471) can0 084#0100007A308C8DF2
(1599989992.977681) can0 085#F2000E2E0E6000D0
(1599989992.982002) can0 0E0#005100E041F50000
(1599989992.984041) can0 2C2#0000000000000000
(1599989992.985778) can0 285#0140014000000100
(1599989992.987533) can0 084#0100007A308C8E83
(1599989992.987737) can0 085#F2000E2ED36000E0
(1599989992.988228) can0 288#A500004C00000059
(1599989992.988532) can0 28A#C300020098570B0C
(1599989992.990147) can0 122#00000000000004D6
(1599989992.990380) can0 123#00000000000004D6
(1599989992.990611) can0 124#2E832E29A2F040C3
(1599989992.990852) can0 125#0000010800000440
(1599989992.992107) can0 113#0E2E0000AA09072E
(1599989992.992343) can0 0E0#005100E051150000
(1599989992.992571) can0 191#0000812000000370
(1599989992.995697) can0 1F2#9D9C9D9C4E4E4D4E
(1599989992.996177) can0 286#0140014000000000
(1599989992.996425) can0 150#7E000403ED036DF3
(1599989992.997449) can0 084#0100007A308C8FAC
(1599989992.997683) can0 085#F2000E3E0B6000F0
(1599989992.998135) can0 2FB#000007DE465F07F3
(1599989992.998374) can0 2FC#0A00000000004019
(1599989992.998622) can0 2FD#0000000000001000
(1599989993.001973) can0 0E0#005100E0611A0000
(1599989993.005583) can0 1F0#04180000FFFF0A3E
(1599989993.006043) can0 284#004140530C680200
(1599989993.007503) can0 084#0100007A308C8036
(1599989993.007725) can0 085#F2000E3ED3600000
(1599989993.010168) can0 122#00000000000005F9
(1599989993.010385) can0 123#00000000000005F9
(1599989993.010620) can0 124#2E832E29A2F0506D
(1599989993.010863) can0 125#000001080000056F
(1599989993.012115) can0 113#0E3E0000AA090867
(1599989993.012344) can0 0E0#005100E071FA0000
(1599989993.012586) can0 191#00008120000004BD
(1599989993.016189) can0 287#0059000000000120
(1599989993.016545) can0 150#7E0004042D036EC4
(1599989993.017455) can0 084#0100007A308C8119
(1599989993.017691) can0 085#F2000E3E7D600010
(1599989993.021979) can0 0E0#005100E081C90000
(1599989993.022198) can0 281#0000000100000C34
(1599989993.027361) can0 2B1#2100000000000000
(1599989993.027739) can0 084#0100007A308C8268
(1599989993.027974) can0 085#F2000E3EA0600020
(1599989993.030162) can0 122#0000000000000688
(1599989993.030378) can0 123#0000000000000688
(1599989993.030613) can0 124#2E832E29A2F060B0
(1599989993.030848) can0 125#000001080000061E
(1599989993.032113) can0 113#0E3E0000AA090948
(1599989993.032348) can0 0E0#005100E091290000
(1599989993.032572) can0 191#0000812000000592
(1599989993.036439) can0 150#7E0004042D036FEB
(1599989993.038149) can0 084#0100007A308C8347
(1599989993.038354) can0 085#F2000E3E0E600030
(1599989993.040170) can0 2F1#2188FFFFFFFF7800
(1599989993.040529) can0 2F2#110210090A000000
(1599989993.041968) can0 0E0#005100E0A1260000
(1599989993.042178) can0 2A1#0000007F7F7F7F7F
(1599989993.042487) can0 2A4#0080000000000000
(1599989993.042720) can0 2A5#000F071F00000000
(1599989993.042986) can0 2A7#0000000000001400
(1599989993.043252) can0 2AA#0000000000000000
(1599989993.043517) can0 3E1#00000000000007A7
(1599989993.043786) can0 3E2#00000000000007A7
(1599989993.044816) can0 380#17D0B60000000000
(1599989993.045495) can0 1F2#9D9C9D9C4E4E4D4E
(1599989993.047528) can0 084#0100007A308C848A
(1599989993.047730) can0 085#F2000E4426600040
(1599989993.050160) can0 122#00000000000007A7
(1599989993.050390) can0 123#00000000000007A7
(1599989993.050619) can0 124#2E832E29A2F0701E
(1599989993.050860) can0 125#0000010800000731
(1599989993.052111) can0 113#0E3E0000AA090A39
(1599989993.052339) can0 0E0#005100E0B1C60000
(1599989993.052577) can0 191#00008120000006E3
(1599989993.055703) can0 1F0#04180000FFFF0B11
(1599989993.056415) can0 150#7E0004042D036071
(1599989993.057453) can0 084#0100007A308C85A5
(1599989993.057672) can0 085#F2000E4488600050
(1599989993.062001) can0 0E0#005100E0C1380000
(1599989993.062218) can0 2A0#0000000000000000
(1599989993.062482) can0 2A3#E707E71800000300
(1599989993.062745) can0 2A8#004000000000E021
(1599989993.063009) can0 2AE#0100000000000000
(1599989993.065402) can0 26D#40560A0412000000
(1599989993.067510) can0 084#0100007A308C86D4
(1599989993.067713) can0 085#F2000E4455600060
(1599989993.070187) can0 122#000000000000083D
(1599989993.070402) can0 123#000000000000083D
(1599989993.070635) can0 124#2E832E29A2F080C6
(1599989993.070877) can0 125#00000108000008AB
(1599989993.072127) can0 113#0E440000AA090B27
(1599989993.072350) can0 0E0#005100E0D1D80000
(1599989993.072592) can0 191#00008120000007CC
(1599989993.073820) can0 218#5B00000000000BD1
(1599989993.075430) can0 3F6#3CFFFF00000005A6
(1599989993.075649) can0 260#0000000000001CB0
(1599989993.076450) can0 150#7E0004042D03615E
(1599989993.077475) can0 084#0100007A308C87FB
(1599989993.077699) can0 085#F2000E44FB600070
(1599989993.081975) can0 0E0#005100E0E1D70000
(1599989993.085050) can0 2C2#0000000000000000
(1599989993.085726) can0 285#0140014000000100
(1599989993.087540) can0 084#0100007A308C8861
(1599989993.087741) can0 085#F2000E4423600080
(1599989993.088233) can0 288#A500004C00000059
(1599989993.088508) can0 28A#C300020098570CC1
(1599989993.090159) can0 122#0000000000000912
(1599989993.090384) can0 123#0000000000000912
(1599989993.090619) can0 124#2E832E29A2F09068
(1599989993.090893) can0 125#0000010800000984
(1599989993.092120) can0 113#0E440000AA090CEA
(1599989993.092357) can0 0E0#005100E0F1370000
(1599989993.092573) can0 191#0000812000000856
(1599989993.095680) can0 1F2#9D9C9D9C4E4E4D4E
(1599989993.096156) can0 286#0140014000000000
(1599989993.096382) can0 150#7E0004042D03622F
(1599989993.097500) can0 084#0100007A308C894E
(1599989993.097709) can0 085#F2000E448D600090
(1599989993.098124) can0 2FB#000007DC466407F5
(1599989993.098366) can0 2FC#0A00000000004019
(1599989993.098614) can0 2FD#0000000000001000
(1599989993.101994) can0 0E0#005100E001040000
(1599989993.105542) can0 1F0#04180000FFFF0CDC
(1599989993.106010) can0 284#004140530C680200
(1599989993.107511) can0 084#0100007A308C8A3F
(1599989993.107724) can0 085#F2000E44506000A0
(1599989993.110172) can0 122#0000000000000A63
(1599989993.110381) can0 123#0000000000000A63
(1599989993.110616) can0 124#2E832E29A2F0A0B5
(1599989993.110855) can0 125#0000010800000AF5
(1599989993.112114) can0 113#0E440000AA090DC5
(1599989993.112370) can0 0E0#005100E011E40000
(1599989993.112569) can0 191#0000812000000979
(1599989993.116173) can0 287#0059000000000120
(1599989993.116596) can0 150#7E000403ED036346
(1599989993.117466) can0 084#0100007A308C8B10
(1599989993.117679) can0 085#F2000E44FE6000B0
(1599989993.121984) can0 0E0#005100E021EB0000
(1599989993.122196) can0 281#0000000100000D1B
(1599989993.127353) can0 2AB#0190430000030100
(1599989993.127552) can0 084#0100007A308C8CDD
(1599989993.127781) can0 085#F2000E6E576000C0
(1599989993.128034) can0 2B1#2100000000000000
(1599989993.130187) can0 122#0000000000000B4C
(1599989993.130397) can0 123#0000000000000B4C
(1599989993.130623) can0 124#2E832E29A2F0B01B
(1599989993.130869) can0 125#0000010800000BDA
(1599989993.132132) can0 113#0E440000AA090EB4
(1599989993.132351) can0 0E0#005100E0310B0000
(1599989993.132592) can0 191#0000812000000A08
(1599989993.136424) can0 150#7E0004042D0364CD
(1599989993.137473) can0 084#0100007A308C8DF2
(1599989993.137686) can0 085#F2000E6EF96000D0
(1599989993.140020) can0 2F1#2188FFFFFFFF7800
(1599989993.140226) can0 2F2#110210090A000000
(1599989993.142000) can0 0E0#005100E041F50000
(1599989993.142244) can0 2A1#0000007F7F7F7F7F
(1599989993.142482) can0 2A4#0080000000000000
(1599989993.142751) can0 2A5#000F071F00000000
(1599989993.143016) can0 2A7#0000000000001400
(1599989993.143286) can0 2AA#0000000000000000
(1599989993.145456) can0 1F2#9D9C9D9C4E4E4D4E
(1599989993.147521) can0 084#0100007A308C8E83
(1599989993.147721) can0 085#F2000E6E246000E0
(1599989993.150188) can0 122#0000000000000C81
(1599989993.150402) can0 123#0000000000000C81
(1599989993.150630) can0 124#2E832E29A2F0C020
(1599989993.150872) can0 125#0000010800000C17
(1599989993.152131) can0 113#0E6E0000AA090F44
(1599989993.152348) can0 0E0#005100E051150000
(1599989993.152593) can0 191#0000812000000B27
(1599989993.155688) can0 1F0#04180000FFFF0DF3
(1599989993.156400) can0 150#7E0004042D0365E2
(1599989993.157478) can0 084#0100007A308C8FAC
(1599989993.157694) can0 085#F2000E6E8A6000F0
(1599989993.161995) can0 0E0#005100E0611A0000
(1599989993.162219) can0 2A0#0000000000000000
(1599989993.162479) can0 2A3#E707E71800000300
(1599989993.162743) can0 2A8#004000000000F08F
(1599989993.163010) can0 2AE#0100000000000000
(1599989993.165447) can0 26D#40560A0412000000
(1599989993.167529) can0 084#0100007A308C8036
(1599989993.167727) can0 085#F2000E6E52600000
(1599989993.168175) can0 40E#0E100601E0030000
(1599989993.170177) can0 122#0000000000000DAE
(1599989993.170403) can0 123#0000000000000DAE
(1599989993.170635) can0 124#2E832E29A2F0D08E
(1599989993.170873) can0 125#0000010800000D38
(1599989993.172141) can0 113#0E6E0000AA0900DE
(1599989993.172355) can0 0E0#005100E071FA0000
(1599989993.172809) can0 191#0000812000000CEA
(1599989993.173822) can0 218#5B00000000000C1C
(1599989993.175425) can0 260#0000000000001CB0
(1599989993.176398) can0 150#7E000403ED0366D5
(1599989993.177468) can0 084#0100007A308C8119
(1599989993.177693) can0 085#F2000E6EFC600010
(1599989993.181985) can0 0E0#005100E081C90000
(1599989993.185721) can0 285#0140014000000100
(1599989993.186036) can0 2C2#0000000000000000
(1599989993.187532) can0 084#0100007A308C8268
(1599989993.187758) can0 085#F3000E6ED5600020
(1599989993.188235) can0 288#A500004C00000059
(1599989993.188467) can0 28A#C300020098570DEE
(1599989993.190173) can0 122#0000000000000EDF
(1599989993.190406) can0 123#0000000000000EDF
(1599989993.190633) can0 124#2E832E29A2F0E053
(1599989993.190870) can0 125#0000010800000E49
(1599989993.192137) can0 113#0E6E0000AA0901F1
(1599989993.192370) can0 0E0#005100E091290000
(1599989993.192606) can0 191#0000812000000DC5
(1599989993.195652) can0 1F2#9D9C9D9C4E4E4D4E
(1599989993.196125) can0 286#0140014000000000
(1599989993.196373) can0 150#7E000403ED0367FA
(1599989993.197475) can0 084#0100007A308C8347
(1599989993.197687) can0 085#F3000E6E7B600030
(1599989993.198117) can0 2FB#000007DE465F07F7
(1599989993.198360) can0 2FC#0A00000000004019
(1599989993.198608) can0 2FD#0000000000001000
(1599989993.201962) can0 0E0#005100E0A1260000
(1599989993.205512) can0 1F0#04180000FFFF0E82
(1599989993.205987) can0 284#004140530C680200
(1599989993.207525) can0 084#0100007A308C848A
(1599989993.207758) can0 085#F3000E6E40600040
(1599989993.210187) can0 122#0000000000000FF0
(1599989993.210419) can0 123#0000000000000FF0
(1599989993.210642) can0 124#2E832E29A2F0F0FD
(1599989993.210887) can0 125#0000010800000F66
(1599989993.212156) can0 113#0E6E0000AA090280
(1599989993.212381) can0 0E0#005100E0B1C60000
(1599989993.212608) can0 191#0000812000000EB4
(1599989993.215417) can0 402#0210020102000000
(1599989993.216116) can0 287#0059000000000120
(1599989993.216351) can0 150#7E0004042D036826
(1599989993.217474) can0 084#0100007A308C85A5
(1599989993.217701) can0 085#F3000E80C0600050
(1599989993.221997) can0 0E0#005100E0C1380000
(1599989993.222211) can0 281#0000000100000E6A
(1599989993.222468) can0 390#0800000000000000
(1599989993.225508) can0 370#0F00000000000000
(1599989993.227361) can0 2B1#2100000000000000
(1599989993.227562) can0 084#0100007A308C86D4
(1599989993.227806) can0 085#F3000E801D600060
(1599989993.230190) can0 122#000000000000006A
(1599989993.230413) can0 123#000000000000006A
(1599989993.230642) can0 124#2E832E29A2F00025
(1599989993.230887) can0 125#00000108000000FC
(1599989993.232135) can0 113#0E800000AA090348
(1599989993.232359) can0 0E0#005100E0D1D80000
(1599989993.232607) can0 191#0000812000000F9B
(1599989993.236411) can0 150#7E0004042D036909
(1599989993.237471) can0 084#0100007A308C87FB
(1599989993.237694) can0 085#F3000E80B3600070
(1599989993.240053) can0 2F1#2188FFFFFFFF7800
(1599989993.240349) can0 2F2#110210090A000000
(1599989993.241980) can0 0E0#005100E0E1D70000
(1599989993.242200) can0 2A1#0000007F7F7F7F7F
(1599989993.242483) can0 2A4#0080000000000000
(1599989993.242744) can0 2A5#000F071F00000000
(1599989993.243016) can0 2A7#0000000000001400
(1599989993.243313) can0 2AA#0000000000000000
(1599989993.243553) can0 3E1#000000000000083D
(1599989993.243823) can0 3E2#000000000000083D
(1599989993.244870) can0 380#17E0EC0000000000
(1599989993.245400) can0 1F2#9D9C9D9C4E4E4D4E
(1599989993.247495) can0 084#0100007A308C8861
(1599989993.247727) can0 085#F3000E806B600080
(1599989993.250179) can0 122#0000000000000145
(1599989993.250414) can0 123#0000000000000145
(1599989993.250640) can0 124#2E832E29A2F0108B
(1599989993.250879) can0 125#00000108000001D3
(1599989993.252143) can0 113#0E800000AA090485
(1599989993.252356) can0 0E0#005100E0F1370000
(1599989993.252608) can0 191#0000812000000001
(1599989993.255681) can0 1F0#04180000FFFF0FAD
(1599989993.256417) can0 150#7E000403ED036A3E
(1599989993.257348) can0 415#1500050110000000
(1599989993.257561) can0 084#0100007A308C894E
(1599989993.257793) can0 085#F3000E860A600090
(1599989993.261993) can0 0E0#005100E001040000
(1599989993.262212) can0 2A0#0000000000000000
(1599989993.262474) can0 2A3#E707E71800000300
(1599989993.262740) can0 2A8#0040000000000057
(1599989993.263006) can0 2AE#0100000000000000
(1599989993.265456) can0 26D#40560A0412000000
(1599989993.267528) can0 084#0100007A308C8A3F
(1599989993.267750) can0 085#F3000E86D76000A0
(1599989993.270189) can0 122#0000000000000234
(1599989993.270407) can0 123#0000000000000234
(1599989993.270638) can0 124#2E832E29A2F02056
(1599989993.270881) can0 125#00000108000002A2
(1599989993.272145) can0 113#0E860000AA09057D
(1599989993.272351) can0 0E0#005100E011E40000
(1599989993.272599) can0 191#000081200000012E
(1599989993.273830) can0 218#5B00000000000D33
(1599989993.275423) can0 3F6#3CFFFF00000006D7
(1599989993.275643) can0 260#0000000000001CB0
(1599989993.276411) can0 150#7E0004042D036B57
(1599989993.277471) can0 084#0100007A308C8B10
(1599989993.277691) can0 085#F3000E86796000B0
(1599989993.281980) can0 0E0#005100E021EB0000
(1599989993.285687) can0 285#0140014000000100
(1599989993.287062) can0 2C2#0000000000000000
(1599989993.287596) can0 084#0100007A308C8CDD
(1599989993.287828) can0 085#F3000E86426000C0
(1599989993.288357) can0 288#A500004C00000059
(1599989993.288537) can0 28A#C100020098570E58
(1599989993.290181) can0 122#000000000000031B
(1599989993.290428) can0 123#000000000000031B
(1599989993.290641) can0 124#2E832E29A2F030F8
(1599989993.290887) can0 125#000001080000038D
(1599989993.292161) can0 113#0E860000AA09060C
(1599989993.292412) can0 0E0#005100E0310B0000
(1599989993.292619) can0 191#000081200000025F
(1599989993.295070) can0 41C#1C00020102000000
(1599989993.295591) can0 1F2#9D9C9D9C4E4E4D4E
(1599989993.296092) can0 286#0140014000000000
(1599989993.296339) can0 150#7E000403ED036CDC
(1599989993.297963) can0 2FB#000007DC465F07F3
(1599989993.298189) can0 084#0100007A308C8DF2
(1599989993.298421) can0 085#F3000E86EC6000D0
(1599989993.298665) can0 2FC#0A00000000004019
(1599989993.298917) can0 2FD#0000000000001000
(1599989993.301989) can0 0E0#005100E041F50000
(1599989993.305499) can0 1F0#04180000FFFF0037
(1599989993.305959) can0 284#004140530C680200
(1599989993.307518) can0 084#0100007A308C8E83
(1599989993.307731) can0 085#F3000E86316000E0
(1599989993.310191) can0 122#00000000000004D6
(1599989993.310412) can0 123#00000000000004D6
(1599989993.310646) can0 124#2E832E29A2F040C3
(1599989993.310885) can0 125#0000010800000440
(1599989993.312140) can0 113#0E860000AA090723
(1599989993.312357) can0 0E0#005100E051150000
(1599989993.312606) can0 191#0000812000000370
(1599989993.316093) can0 287#0059000000000120
(1599989993.316339) can0 150#7E0004042D036DB5
(1599989993.317459) can0 084#0100007A308C8FAC
(1599989993.317688) can0 085#F3000E869F6000F0
(1599989993.321993) can0 0E0#005100E0611A0000
(1599989993.322209) can0 281#0000000100000F45
(1599989993.327370) can0 2AB#0190430000030100
(1599989993.327565) can0 084#0100007A308C8036
(1599989993.327799) can0 085#F3000E8647600000
(1599989993.328047) can0 2B1#2100000000000000
(1599989993.330200) can0 122#00000000000005F9
(1599989993.330413) can0 123#00000000000005F9
(1599989993.330648) can0 124#2E832E29A2F0506D
(1599989993.330887) can0 125#000001080000056F
(1599989993.332156) can0 113#0E860000AA0908B9
(1599989993.332374) can0 0E0#005100E071FA0000
(1599989993.332614) can0 191#00008120000004BD
(1599989993.335427) can0 3F0#3120340702170007
(1599989993.336372) can0 150#7E0004042D036EC4
(1599989993.337482) can0 084#0100007A308C8119
(1599989993.337714) can0 085#F3000E86E9600010
(1599989993.340034) can0 2F1#2188FFFFFFFF7800
(1599989993.340429) can0 2F2#110210090A000000
(1599989993.342006) can0 0E0#005100E081C90000
(1599989993.342215) can0 2A1#0000007F7F7F7F7F
(1599989993.342487) can0 2A4#0080000000000000
(1599989993.342752) can0 2A5#000F071F00000000
(1599989993.343022) can0 2A7#0000000000001400
(1599989993.343288) can0 2AA#0000000000000000
(1599989993.345404) can0 1F2#9D9C9D9C4E4E4D4E
(1599989993.347539) can0 084#0100007A308C8268
(1599989993.347743) can0 085#F3000E8634600020
(1599989993.350177) can0 122#0000000000000688
(1599989993.350415) can0 123#0000000000000688
(1599989993.350642) can0 124#2E832E29A2F060B0
(1599989993.350878) can0 125#000001080000061E
(1599989993.352134) can0 113#0E860000AA090996
(1599989993.352349) can0 0E0#005100E091290000
(1599989993.352592) can0 191#0000812000000592
(1599989993.355628) can0 1F0#04180000FFFF0118
(1599989993.356368) can0 150#7E0004042D036FEB
(1599989993.357506) can0 084#0100007A308C8347
(1599989993.357724) can0 085#F3000E869A600030
(1599989993.361981) can0 0E0#005100E0A1260000
(1599989993.362204) can0 2A0#0000000000000000
(1599989993.362464) can0 2A3#E707E71800000300
(1599989993.362730) can0 2A8#00400000000010F9
(1599989993.363000) can0 2AE#0100000000000000
(1599989993.365436) can0 26D#40560A0412000000
(1599989993.367508) can0 084#0100007A308C848A
(1599989993.367733) can0 085#F3000E86A1600040
(1599989993.370196) can0 122#00000000000007A7
(1599989993.370419) can0 123#00000000000007A7
(1599989993.370653) can0 124#2E832E29A2F0701E
(1599989993.370894) can0 125#0000010800000731
(1599989993.372135) can0 113#0E860000AA090AE7
(1599989993.372352) can0 0E0#005100E0B1C60000
(1599989993.372599) can0 191#00008120000006E3
(1599989993.373839) can0 218#5B00000000000E42
(1599989993.375442) can0 260#0000000000001CB0
(1599989993.376356) can0 150#7E000403ED036037
(1599989993.377466) can0 084#0100007A308C85A5
(1599989993.377691) can0 085#F3000E860F600050
(1599989993.382081) can0 0E0#005100E0C1380000
(1599989993.385662) can0 285#0140014000000100
(1599989993.387546) can0 084#0100007A308C86D4
(1599989993.387750) can0 085#F3000E788A600060
(1599989993.388052) can0 2C2#0000000000000000
(1599989993.388344) can0 288#A500004C00000059
(1599989993.388520) can0 28A#C300020098570FB0
(1599989993.390206) can0 122#000000000000083D
(1599989993.390427) can0 123#000000000000083D
(1599989993.390659) can0 124#2E832E29A2F080C6
(1599989993.390897) can0 125#00000108000008AB
(1599989993.392198) can0 113#0E860000AA090BC8
(1599989993.392533) can0 0E0#005100E0D1D80000
(1599989993.392612) can0 191#00008120000007CC
(1599989993.395594) can0 1F2#9D9C9D9C4E4E4D4E
(1599989993.396069) can0 286#0140014000000000
(1599989993.396342) can0 150#7E0004042D03615E
(1599989993.397464) can0 084#0100007A308C87FB
(1599989993.397690) can0 085#F3000E7824600070
(1599989993.398101) can0 2FB#000007DE465B07F4
(1599989993.398350) can0 2FC#0A00000000004019
(1599989993.398600) can0 2FD#0000000000001000
(1599989993.402004) can0 0E0#005100E0E1D70000
(1599989993.405464) can0 1F0#04180000FFFF0269
(1599989993.405929) can0 284#004140530C680200
(1599989993.407504) can0 084#0100007A308C8861
(1599989993.407740) can0 085#F3000E78FC600080
(1599989993.410191) can0 122#0000000000000912
(1599989993.410413) can0 123#0000000000000912
(1599989993.410644) can0 124#2E832E29A2F09068
(1599989993.410884) can0 125#0000010800000984
(1599989993.412143) can0 113#0E780000AA090C31
(1599989993.412362) can0 0E0#005100E0F1370000
(1599989993.412608) can0 191#0000812000000856
(1599989993.416084) can0 287#0059000000000120
(1599989993.416355) can0 150#7E0004042D03622F
(1599989993.417472) can0 084#0100007A308C894E
(1599989993.417694) can0 085#F4000E78C0600090
(1599989993.422004) can0 0E0#005100E001040000
(1599989993.422215) can0 407#0710050110000000
(1599989993.422467) can0 281#00000001000000DF
(1599989993.427378) can0 2B1#2100000000000000
(1599989993.427580) can0 084#0100007A308C8A3F
(1599989993.427816) can0 085#F4000E7C976000A0
(1599989993.430190) can0 122#0000000000000A63
(1599989993.430411) can0 123#0000000000000A63
(1599989993.430640) can0 124#2E832E29A2F0A0B5
(1599989993.430877) can0 125#0000010800000AF5
(1599989993.432141) can0 113#0E780000AA090D1E
(1599989993.432372) can0 0E0#005100E011E40000
(1599989993.432595) can0 191#0000812000000979
(1599989993.436397) can0 150#7E0004042D036300
(1599989993.437571) can0 084#0100007A308C8B10
(1599989993.438047) can0 085#F4000E7C396000B0
(1599989993.440066) can0 2F1#2188FFFFFFFF7800
(1599989993.440376) can0 2F2#110210090A000000
(1599989993.442062) can0 0E0#005100E021EB0000
(1599989993.442278) can0 2A1#0000007F7F7F7F7F
(1599989993.442552) can0 2A4#0080000000000000
(1599989993.442855) can0 2A5#000F071F00000000
(1599989993.443084) can0 2A7#0000000000001400
(1599989993.443353) can0 2AA#0000000000000000
(1599989993.443623) can0 3E1#0000000000000912
(1599989993.443886) can0 3E2#0000000000000912
(1599989993.444946) can0 380#17F03F0000000000
(1599989993.445431) can0 1F2#9D9C9D9C4E4E4D4E
(1599989993.447549) can0 084#0100007A308C8CDD
(1599989993.447765) can0 085#F4000E7C026000C0
(1599989993.450211) can0 122#0000000000000B4C
(1599989993.450418) can0 123#0000000000000B4C
(1599989993.450650) can0 124#2E832E29A2F0B01B
(1599989993.450893) can0 125#0000010800000BDA
(1599989993.452163) can0 113#0E7C0000AA090E10
(1599989993.452429) can0 0E0#005100E0310B0000
(1599989993.452641) can0 191#0000812000000A08
(1599989993.455640) can0 1F0#04180000FFFF0346
(1599989993.456384) can0 150#7E0004042D0364CD
(1599989993.457487) can0 084#0100007A308C8DF2
(1599989993.457695) can0 085#F4000E7CAC6000D0
(1599989993.462077) can0 0E0#005100E041F50000
(1599989993.462301) can0 2A0#0000000000000000
(1599989993.462564) can0 2A3#E707E71800000300
(1599989993.462833) can0 2A8#0040000000002024
(1599989993.463098) can0 2AE#0100000000000000
(1599989993.465659) can0 26D#40560A0412000000
(1599989993.467694) can0 084#0100007A308C8E83
(1599989993.467730) can0 085#F4000E7C716000E0
(1599989993.470212) can0 122#0000000000000C81
(1599989993.470424) can0 123#0000000000000C81
(1599989993.470659) can0 124#2E832E29A2F0C020
(1599989993.470900) can0 125#0000010800000C17
(1599989993.472151) can0 113#0E7C0000AA090F3F
(1599989993.472379) can0 0E0#005100E051150000
(1599989993.472627) can0 191#0000812000000B27
(1599989993.473852) can0 218#5B00000000000F6D
(1599989993.475400) can0 3F6#3D25FF00000007CE
(1599989993.475658) can0 260#0000000000001CB0
(1599989993.476498) can0 150#7E0004042D0365E2
(1599989993.477492) can0 084#0100007A308C8FAC
(1599989993.477735) can0 085#F4000E5AFC6000F0
(1599989993.482018) can0 0E0#005100E0611A0000
(1599989993.485647) can0 285#0140014000000100
(1599989993.487603) can0 084#0100007A308C8036
(1599989993.487802) can0 085#F4000E5A24600000
(1599989993.488486) can0 288#A500004C00000059
(1599989993.488528) can0 28A#C30002009857002A
(1599989993.489072) can0 2C2#0000000000000000
(1599989993.490194) can0 122#0000000000000DAE
(1599989993.490431) can0 123#0000000000000DAE
(1599989993.490693) can0 124#2E832E29A2F0D08E
(1599989993.490898) can0 125#0000010800000D38
(1599989993.492175) can0 113#0E5A0000AA0900FB
(1599989993.492531) can0 0E0#005100E071FA0000
(1599989993.492622) can0 191#0000812000000CEA
(1599989993.495563) can0 1F2#9D9C9D9C4E4E4D4E
(1599989993.496037) can0 286#0140014000000000
(1599989993.496341) can0 150#7E0004042D036693
(1599989993.497480) can0 084#0100007A308C8119
(1599989993.497712) can0 085#F4000E5A8A600010
(1599989993.498123) can0 2FB#000007DD466607F8
(1599989993.498360) can0 2FC#0A00000000004019
(1599989993.498607) can0 2FD#0000000000001000
(1599989993.502014) can0 0E0#005100E081C90000
(1599989993.505432) can0 1F0#04180000FFFF048B
(1599989993.505901) can0 284#004140530C680200
(1599989993.507522) can0 084#0100007A308C8268
(1599989993.507753) can0 085#F4000E5A57600020
(1599989993.510218) can0 122#0000000000000EDF
(1599989993.510435) can0 123#0000000000000EDF
(1599989993.510669) can0 124#2E832E29A2F0E053
(1599989993.510903) can0 125#0000010800000E49
(1599989993.512152) can0 113#0E5A0000AA0901D4
(1599989993.512536) can0 0E0#005100E091290000
(1599989993.512622) can0 191#0000812000000DC5
(1599989993.516056) can0 287#0059000000000120
(1599989993.516355) can0 150#7E0004042D0367BC
(1599989993.517498) can0 084#0100007A308C8347
(1599989993.517727) can0 085#F4000E5C36600030
(1599989993.522066) can0 0E0#005100E0A1260000
(1599989993.522297) can0 281#00000001000001F0
(1599989993.527382) can0 2AB#0190430000030100
(1599989993.527576) can0 084#0100007A308C848A
(1599989993.527809) can0 085#F4000E5C0D600040
(1599989993.528059) can0 2B1#2100000000000000
(1599989993.530211) can0 122#0000000000000FF0
(1599989993.530451) can0 123#0000000000000FF0
(1599989993.530671) can0 124#2E832E29A2F0F0FD
(1599989993.530910) can0 125#0000010800000F66
(1599989993.532172) can0 113#0E5C0000AA090272
(1599989993.532384) can0 0E0#005100E0B1C60000
(1599989993.532633) can0 191#0000812000000EB4
(1599989993.536418) can0 150#7E0004042D036826
(1599989993.537480) can0 084#0100007A308C85A5
(1599989993.537692) can0 085#F4000E5CA3600050
(1599989993.540081) can0 2F1#2188FFFFFFFF7800
(1599989993.540353) can0 2F2#110210090A000000
(1599989993.542069) can0 0E0#005100E0C1380000
(1599989993.542323) can0 2A1#0000007F7F7F7F7F
(1599989993.542563) can0 2A4#0080000000000000
(1599989993.542830) can0 2A5#000F071F00000000
(1599989993.543095) can0 2A7#0000000000001400
(1599989993.543357) can0 2AA#0000000000000000
(1599989993.545338) can0 1F2#9D9C9D9C4E4E4D4E
(1599989993.547572) can0 084#0100007A308C86D4
(1599989993.547779) can0 085#F4000E5C7E600060
(1599989993.550217) can0 122#000000000000006A
(1599989993.550436) can0 123#000000000000006A
(1599989993.550669) can0 124#2E832E29A2F00025
(1599989993.550918) can0 125#00000108000000FC
(1599989993.552172) can0 113#0E5C0000AA09035D
(1599989993.552380) can0 0E0#005100E0D1D80000
(1599989993.552633) can0 191#0000812000000F9B
(1599989993.555638) can0 1F0#04180000FFFF05A4
(1599989993.556459) can0 150#7E000403ED03694F
(1599989993.558160) can0 084#0100007A308C87FB
(1599989993.558365) can0 085#F4000E5CD0600070
(1599989993.562017) can0 0E0#005100E0E1D70000
(1599989993.562239) can0 2A0#0000000000000000
(1599989993.562500) can0 2A3#E707E71800000300
(1599989993.562766) can0 2A8#004000000000308A
(1599989993.563036) can0 2AE#0100000000000000
(1599989993.565422) can0 26D#40560A0412000000
(1599989993.567528) can0 084#0100007A308C8861
(1599989993.567740) can0 085#F4000E52FC600080
(1599989993.570223) can0 122#0000000000000145
(1599989993.570437) can0 123#0000000000000145
(1599989993.570668) can0 124#2E832E29A2F0108B
(1599989993.570910) can0 125#00000108000001D3
(1599989993.572161) can0 113#0E5C0000AA090490
(1599989993.572385) can0 0E0#005100E0F1370000
(1599989993.572635) can0 191#0000812000000001
(1599989993.573875) can0 218#5B000000000000F7
(1599989993.575388) can0 260#0000000000001CB0
(1599989993.576383) can0 150#7E000403ED036A3E
(1599989993.577487) can0 084#0100007A308C894E
(1599989993.577713) can0 085#F4000E5252600090
(1599989993.582099) can0 0E0#005100E001040000
(1599989993.585618) can0 285#0140014000000100
(1599989993.587562) can0 084#0100007A308C8A3F
(1599989993.587761) can0 085#F4000E528F6000A0
(1599989993.588349) can0 288#A500004C00000059
(1599989993.588551) can0 28A#C300020098570105
(1599989993.590102) can0 2C2#0000000000000000
(1599989993.590311) can0 122#0000000000000234
(1599989993.590561) can0 123#0000000000000234
(1599989993.590828) can0 124#2E832E29A2F02056
(1599989993.591038) can0 125#00000108000002A2
(1599989993.592160) can0 113#0E520000AA090596
(1599989993.592373) can0 0E0#005100E011E40000
(1599989993.592619) can0 191#000081200000012E
(1599989993.595543) can0 1F2#9D9C9D9C4E4E4D4E
(1599989993.596020) can0 286#0140014000000000
(1599989993.596519) can0 150#7E0004042D036B57
(1599989993.597487) can0 084#0100007A308C8B10
(1599989993.597699) can0 085#F4000E52216000B0
(1599989993.598101) can0 2FB#000007DF466207F3
(1599989993.598343) can0 2FC#0A00000000004019
(1599989993.598590) can0 2FD#0000000000001000
(1599989993.602006) can0 0E0#005100E021EB0000
(1599989993.605411) can0 1F0#04180000FFFF06D5
(1599989993.605873) can0 284#004140530C680200
(1599989993.607540) can0 084#0100007A308C8CDD
(1599989993.607748) can0 085#F4000E46E66000C0
(1599989993.610221) can0 122#000000000000031B
(1599989993.610437) can0 123#000000000000031B
(1599989993.610676) can0 124#2E832E29A2F030F8
(1599989993.610915) can0 125#000001080000038D
(1599989993.612177) can0 113#0E520000AA0906E7
(1599989993.612395) can0 0E0#005100E0310B0000
(1599989993.612643) can0 191#000081200000025F
(1599989993.616034) can0 287#0059000000000120
(1599989993.616357) can0 150#7E0004042D036C9A
(1599989993.617521) can0 084#0100007A308C8DF2
(1599989993.617733) can0 085#F4000E46486000D0
(1599989993.622088) can0 0E0#005100E041F50000
(1599989993.622303) can0 281#0000000100000281
(1599989993.627398) can0 2B1#2100000000000000
(1599989993.627594) can0 084#0100007A308C8E83
(1599989993.627824) can0 085#F4000E46956000E0
(1599989993.630218) can0 122#00000000000004D6
(1599989993.630434) can0 123#00000000000004D6
(1599989993.630673) can0 124#2E832E29A2F040C3
(1599989993.630912) can0 125#0000010800000440
(1599989993.632168) can0 113#0E460000AA090764
(1599989993.632382) can0 0E0#005100E051150000
(1599989993.632631) can0 191#0000812000000370
(1599989993.636420) can0 150#7E000403ED036DF3
(1599989993.637500) can0 084#0100007A308C8FAC
(1599989993.637723) can0 085#F4000E463B6000F0
(1599989993.640096) can0 2F1#2188FFFFFFFF7800
(1599989993.640357) can0 2F2#110210090A000000
(1599989993.642083) can0 0E0#005100E0611A0000
(1599989993.642313) can0 2A1#0000007F7F7F7F7F
(1599989993.642568) can0 2A4#0080000000000000
(1599989993.642833) can0 2A5#000F071F00000000
(1599989993.643099) can0 2A7#0000000000001400
(1599989993.643397) can0 2AA#0000000000000000
(1599989993.643634) can0 3E1#0000000000000A63
(1599989993.643905) can0 3E2#0000000000000A63
(1599989993.644991) can0 380#1700220000000000
(1599989993.645485) can0 1F2#9D9C9D9C4E4E4D4E
(1599989993.647542) can0 084#0100007A308C8036
(1599989993.647742) can0 085#F5000E5661600000
(1599989993.650219) can0 122#00000000000005F9
(1599989993.650464) can0 123#00000000000005F9
(1599989993.650674) can0 124#2E832E29A2F0506D
(1599989993.650914) can0 125#000001080000056F
(1599989993.652172) can0 113#0E460000AA0908FE
(1599989993.652399) can0 0E0#005100E071FA0000
(1599989993.652645) can0 191#00008120000004BD
(1599989993.655574) can0 1F0#04180000FFFF07FA
(1599989993.656363) can0 150#7E0004042D036EC4
(1599989993.657490) can0 084#0100007A308C8119
(1599989993.657703) can0 085#F5000E56CF600010
(1599989993.662102) can0 0E0#005100E081C90000
(1599989993.662320) can0 2A0#0000000000000000
(1599989993.662589) can0 2A3#E707E71800000300
(1599989993.662853) can0 2A8#00400000000040B1
(1599989993.663126) can0 2AE#0100000000000000
(1599989993.665484) can0 26D#40560A0412000000
(1599989993.667536) can0 084#0100007A308C8268
(1599989993.667750) can0 085#F5000E5612600020
(1599989993.668141) can0 40E#0E100601E0030000
(1599989993.670212) can0 122#0000000000000688
(1599989993.670433) can0 123#0000000000000688
(1599989993.670664) can0 124#2E832E29A2F060B0
(1599989993.670901) can0 125#000001080000061E
(1599989993.672155) can0 113#0E560000AA090902
(1599989993.672381) can0 0E0#005100E091290000
(1599989993.672848) can0 191#0000812000000592
(1599989993.673862) can0 218#5B000000000001D8
(1599989993.675462) can0 3F6#3D25FF0000000854
(1599989993.675687) can0 260#0000000000001CB0
(1599989993.676457) can0 150#7E000403ED036FAD
(1599989993.677493) can0 084#0100007A308C8347
(1599989993.677721) can0 085#F5000E56BC600030
(1599989993.682018) can0 0E0#005100E0A1260000
(1599989993.685587) can0 285#0140014000000100
(1599989993.687566) can0 084#0100007A308C848A
(1599989993.687779) can0 085#F5000E5687600040
(1599989993.688464) can0 288#A500004C00000059
(1599989993.688504) can0 28A#C300020098570274
(1599989993.690223) can0 122#00000000000007A7
(1599989993.690456) can0 123#00000000000007A7
(1599989993.690678) can0 124#2E832E29A2F0701E
(1599989993.690916) can0 125#0000010800000731
(1599989993.691165) can0 2C2#0000000000000000
(1599989993.692150) can0 113#0E560000AA090A73
(1599989993.692413) can0 0E0#005100E0B1C60000
(1599989993.692619) can0 191#00008120000006E3
(1599989993.695515) can0 1F2#9D9C9D9C4E4E4D4E
(1599989993.695992) can0 286#0140014000000000
(1599989993.696496) can0 150#7E000403ED036037
(1599989993.697464) can0 084#0100007A308C85A5
(1599989993.697696) can0 085#F5000E5A98600050
(1599989993.698090) can0 2FB#000007DB465F07F3
(1599989993.698337) can0 2FC#0A00000000004019
(1599989993.698583) can0 2FD#0000000000001000
(1599989993.702098) can0 0E0#005100E0C1380000
(1599989993.705381) can0 1F0#04180000FFFF0860
(1599989993.705851) can0 284#004140530C680200
(1599989993.707532) can0 084#0100007A308C86D4
(1599989993.707742) can0 085#F5000E5A45600060
(1599989993.710220) can0 122#000000000000083D
(1599989993.710455) can0 123#000000000000083D
(1599989993.710679) can0 124#2E832E29A2F080C6
(1599989993.710921) can0 125#00000108000008AB
(1599989993.712177) can0 113#0E5A0000AA090BDD
(1599989993.712397) can0 0E0#005100E0D1D80000
(1599989993.712648) can0 191#00008120000007CC
(1599989993.715430) can0 402#0210020102000000
(1599989993.715977) can0 287#0059000000000120
(1599989993.716353) can0 150#7E0004042D03615E
(1599989993.717480) can0 084#0100007A308C87FB
(1599989993.717699) can0 085#F5000E5AEB600070
(1599989993.721999) can0 0E0#005100E0E1D70000
(1599989993.722225) can0 281#00000001000003AE
(1599989993.722477) can0 390#0800000000000000
(1599989993.725358) can0 370#0F00000000000000
(1599989993.727376) can0 2AB#0190430000030100
(1599989993.727587) can0 084#0100007A308C8861
(1599989993.727821) can0 085#F5000E5A33600080
(1599989993.728069) can0 2B1#2100000000000000
(1599989993.730211) can0 122#0000000000000912
(1599989993.730440) can0 123#0000000000000912
(1599989993.730670) can0 124#2E832E29A2F09068
(1599989993.730913) can0 125#0000010800000984
(1599989993.732176) can0 113#0E5A0000AA090C10
(1599989993.732392) can0 0E0#005100E0F1370000
(1599989993.732638) can0 191#0000812000000856
(1599989993.736382) can0 150#7E0004042D03622F
(1599989993.737486) can0 084#0100007A308C894E
(1599989993.737701) can0 085#F5000E562C600090
(1599989993.740093) can0 2F1#2188FFFFFFFF7800
(1599989993.740353) can0 2F2#110210090A000000
(1599989993.741940) can0 0E0#005100E001040000
(1599989993.742159) can0 2A1#0000007F7F7F7F7F
(1599989993.742430) can0 2A4#0080000000000000
(1599989993.742697) can0 2A5#000F071F00000000
(1599989993.742964) can0 2A7#0000000000001400
(1599989993.743261) can0 2AA#0000000000000000
(1599989993.745289) can0 1F2#9D9C9D9C4E4E4D4E
(1599989993.747567) can0 084#0100007A308C8A3F
(1599989993.747794) can0 085#F5000E56F16000A0
(1599989993.750222) can0 122#0000000000000A63
(1599989993.750437) can0 123#0000000000000A63
(1599989993.750668) can0 124#2E832E29A2F0A0B5
(1599989993.750909) can0 125#0000010800000AF5
(1599989993.752172) can0 113#0E560000AA090DBE
(1599989993.752520) can0 0E0#005100E011E40000
(1599989993.752624) can0 191#0000812000000979
(1599989993.755494) can0 1F0#04180000FFFF094F
(1599989993.756351) can0 150#7E000403ED036346
(1599989993.757368) can0 415#1500050110000000
(1599989993.757596) can0 084#0100007A308C8B10
(1599989993.757829) can0 085#F5000E565F6000B0
(1599989993.762025) can0 0E0#005100E021EB0000
(1599989993.762246) can0 2A0#0000000000000000
(1599989993.762509) can0 2A3#E707E71800000300
(1599989993.762774) can0 2A8#004000000000501F
(1599989993.763042) can0 2AE#0100000000000000
(1599989993.765489) can0 26D#40560A0412000000
(1599989993.767540) can0 084#0100007A308C8CDD
(1599989993.767745) can0 085#F5000E56646000C0
(1599989993.770207) can0 122#0000000000000B4C
(1599989993.770444) can0 123#0000000000000B4C
(1599989993.770672) can0 124#2E832E29A2F0B01B
(1599989993.770912) can0 125#0000010800000BDA
(1599989993.772181) can0 113#0E560000AA090ECF
(1599989993.772503) can0 0E0#005100E0310B0000
(1599989993.772643) can0 191#0000812000000A08
(1599989993.773887) can0 218#5A0000000000025D
(1599989993.775440) can0 260#0000000000001CB0
(1599989993.776363) can0 150#7E000403ED03648B
(1599989993.777493) can0 084#0100007A308C8DF2
(1599989993.777719) can0 085#F5000E56CA6000D0
(1599989993.782100) can0 0E0#005100E041F50000
(1599989993.785560) can0 285#0140014000000100
(1599989993.787573) can0 084#0100007A308C8E83
(1599989993.787774) can0 085#F5000E56176000E0
(1599989993.788358) can0 288#A500004C00000059
(1599989993.788537) can0 28A#C30002009857035B
(1599989993.790225) can0 122#0000000000000C81
(1599989993.790466) can0 123#0000000000000C81
(1599989993.790685) can0 124#2E832E29A2F0C020
(1599989993.790923) can0 125#0000010800000C17
(1599989993.792098) can0 2C2#0000000000000000
(1599989993.792384) can0 0E0#005100E051150000
(1599989993.792563) can0 113#0E560000AA090FE0
(1599989993.792805) can0 191#0000812000000B27
(1599989993.795483) can0 1F2#9D9C9D9C4E4E4D4E
(1599989993.795963) can0 286#0140014000000000
(1599989993.796204) can0 41C#1C00020102000000
(1599989993.796462) can0 150#7E0004042D0365E2
(1599989993.797488) can0 084#0100007A308C8FAC
(1599989993.797709) can0 085#F5000E56B96000F0
(1599989993.798092) can0 2FB#000007DB466207F6
(1599989993.798333) can0 2FC#0A00000000004019
(1599989993.798580) can0 2FD#0000000000001000
(1599989993.802104) can0 0E0#005100E0611A0000
(1599989993.805365) can0 1F0#04180000FFFF0A3E
(1599989993.805823) can0 284#004140530C680200
(1599989993.807541) can0 084#0100007A308C8036
(1599989993.807771) can0 085#F5000E5661600000
(1599989993.810237) can0 122#0000000000000DAE
(1599989993.810459) can0 123#0000000000000DAE
(1599989993.810683) can0 124#2E832E29A2F0D08E
(1599989993.810924) can0 125#0000010800000D38
(1599989993.812184) can0 113#0E560000AA09007A
(1599989993.812410) can0 0E0#005100E071FA0000
(1599989993.812656) can0 191#0000812000000CEA
(1599989993.815390) can0 3F1#015F6F0DC1219E00
(1599989993.815942) can0 287#0059000000000120
(1599989993.816441) can0 150#7E000403ED0366D5
(1599989993.817487) can0 084#0100007A308C8119
(1599989993.817711) can0 085#F5000E56CF600010
(1599989993.822168) can0 0E0#005100E081C90000
(1599989993.822341) can0 281#0000000100000463
(1599989993.827385) can0 2B1#2100000000000000
(1599989993.827607) can0 084#0100007A308C8268
(1599989993.827841) can0 085#F5000E5612600020
(1599989993.830246) can0 122#0000000000000EDF
(1599989993.830459) can0 123#0000000000000EDF
(1599989993.830694) can0 124#2E832E29A2F0E053
(1599989993.830929) can0 125#0000010800000E49
(1599989993.832199) can0 113#0E560000AA090155
(1599989993.832542) can0 0E0#005100E091290000
(1599989993.832655) can0 191#0000812000000DC5
(1599989993.835455) can0 3F0#3220340702170007
(1599989993.836399) can0 150#7E000403ED0367FA
(1599989993.837565) can0 084#0100007A308C8347
(1599989993.837794) can0 085#F5000E56BC600030
(1599989993.840119) can0 2F1#2188FFFFFFFF7800
(1599989993.840367) can0 2F2#110210090A000000
(1599989993.842123) can0 0E0#005100E0A1260000
(1599989993.842333) can0 2A1#0000007F7F7F7F7F
(1599989993.842606) can0 2A4#0080000000000000
(1599989993.842878) can0 2A5#000F071F00000000
(1599989993.843141) can0 2A7#0000000000001400
(1599989993.843405) can0 2AA#0000000000000000
(1599989993.843674) can0 3E1#0000000000000B4C
(1599989993.843941) can0 3E2#0000000000000B4C
(1599989993.845057) can0 380#1710F10000000000
(1599989993.845286) can0 1F2#9D9C9D9C4E4E4D4E
(1599989993.847553) can0 084#0100007A308C7452
(1599989993.847752) can0 085#F5000E5687600040
(1599989993.850253) can0 122#0000000000000FF0
(1599989993.850470) can0 123#0000000000000FF0
(1599989993.850701) can0 124#2E832E29A2F0F0FD
(1599989993.850937) can0 125#0000010800000F66
(1599989993.852200) can0 113#0E560000AA090224
(1599989993.852538) can0 0E0#005100E0B1C60000
(1599989993.852656) can0 191#0000812000000EB4
(1599989993.855466) can0 3F7#FFF0FFF8FFF806D6
(1599989993.855674) can0 1F0#04180000FFFF0B11
(1599989993.856371) can0 150#7E0004042D036826
(1599989993.857498) can0 084#0100007A308C757D
(1599989993.857718) can0 085#F5000E5629600050
(1599989993.862127) can0 0E0#005100E0C1380000
(1599989993.862348) can0 2A0#0000000000000000
(1599989993.862612) can0 2A3#E707E71800000300
(1599989993.862876) can0 2A8#00400000000060C2
(1599989993.863177) can0 2AE#0100000000000000
(1599989993.865470) can0 26D#40560A0412000000
(1599989993.867551) can0 084#0100007A308C760C
(1599989993.867750) can0 085#F5000E4208600060
(1599989993.870254) can0 122#000000000000006A
(1599989993.870467) can0 123#000000000000006A
(1599989993.870699) can0 124#2E832E29A2F00025
(1599989993.870948) can0 125#00000108000000FC
(1599989993.872192) can0 113#0E560000AA09030B
(1599989993.872519) can0 0E0#005100E0D1D80000
(1599989993.872657) can0 191#0000812000000F9B
(1599989993.873915) can0 218#5B00000000000386
(1599989993.875474) can0 3F6#3D25FF000000097B
(1599989993.875711) can0 260#0000000000001CB0
(1599989993.876468) can0 150#7E0004042D036909
(1599989993.877530) can0 084#0100007A308C7723
(1599989993.877740) can0 085#F6000E4295600070
(1599989993.882126) can0 0E0#005100E0E1D70000
(1599989993.885528) can0 285#0140014000000100
(1599989993.887579) can0 084#0100007A308C78B9
(1599989993.887786) can0 085#F6000E424D600080
(1599989993.888370) can0 288#A500004C00000059
(1599989993.888492) can0 28A#C200020098570462
(1599989993.890245) can0 122#0000000000000145
(1599989993.890461) can0 123#0000000000000145
(1599989993.890694) can0 124#2E832E29A2F0108B
(1599989993.890933) can0 125#00000108000001D3
(1599989993.892195) can0 113#0E420000AA09046A
(1599989993.892522) can0 0E0#005100E0F1370000
(1599989993.892656) can0 191#0000812000000001
(1599989993.893104) can0 2C2#0000000000000000
(1599989993.895456) can0 1F2#9D9C9D9C4E4E4D4E
(1599989993.895938) can0 286#0140014000000000
(1599989993.896450) can0 150#7E000403ED036A3E
(1599989993.897496) can0 084#0100007A308C7996
(1599989993.897712) can0 085#F6000E42E3600090
(1599989993.898089) can0 2FB#000007DC465F07F5
(1599989993.898333) can0 2FC#0A00000000004019
(1599989993.898583) can0 2FD#0000000000001000
(1599989993.902129) can0 0E0#005100E001040000
(1599989993.905329) can0 1F0#04180000FFFF0CDC
(1599989993.905792) can0 284#004140530C680200
(1599989993.907691) can0 084#0100007A308C7AE7
(1599989993.907894) can0 085#F6000E500D6000A0
(1599989993.910243) can0 122#0000000000000234
(1599989993.910456) can0 123#0000000000000234
(1599989993.910690) can0 124#2E832E29A2F02056
(1599989993.910934) can0 125#00000108000002A2
(1599989993.912193) can0 113#0E420000AA090545
(1599989993.912540) can0 0E0#005100E011E40000
(1599989993.912646) can0 191#000081200000012E
(1599989993.916015) can0 287#0059000000000120
(1599989993.916390) can0 150#7E0004042D036B57
(1599989993.917500) can0 084#0100007A308C7BC8
(1599989993.917708) can0 085#F6000E50A36000B0
(1599989993.922102) can0 0E0#005100E021EB0000
(1599989993.922307) can0 407#0710050110000000
(1599989993.922557) can0 281#000000010000054C
(1599989993.927405) can0 2AB#0190430000030100
(1599989993.927602) can0 084#0100007A308C7C05
(1599989993.927840) can0 085#F6000E50986000C0
(1599989993.928089) can0 2B1#2100000000000000
(1599989993.930247) can0 122#000000000000031B
(1599989993.930466) can0 123#000000000000031B
(1599989993.930699) can0 124#2E832E29A2F030F8
(1599989993.930965) can0 125#000001080000038D
(1599989993.932218) can0 113#0E500000AA09064F
(1599989993.932605) can0 0E0#005100E0310B0000
(1599989993.932674) can0 191#000081200000025F
(1599989993.936398) can0 150#7E0004042D036C9A
(1599989993.937493) can0 084#0100007A308C7D2A
(1599989993.937719) can0 085#F6000E50366000D0
(1599989993.940135) can0 2F1#2188FFFFFFFF7800
(1599989993.940366) can0 2F2#110210090A000000
(1599989993.942109) can0 0E0#005100E041F50000
(1599989993.942329) can0 2A1#0000007F7F7F7F7F
(1599989993.942602) can0 2A4#0080000000000000
(1599989993.942870) can0 2A5#000F071F00000000
(1599989993.943135) can0 2A7#0000000000001400
(1599989993.943404) can0 2AA#0000000000000000
(1599989993.945225) can0 1F2#9D9C9D9C4E4E4D4E
(1599989993.947544) can0 084#0100007A308C8E83
(1599989993.947750) can0 085#F6000E50EB6000E0
(1599989993.950220) can0 122#00000000000004D6
(1599989993.950462) can0 123#00000000000004D6
(1599989993.950692) can0 124#2E832E29A2F040C3
(1599989993.950935) can0 125#0000010800000440
(1599989993.952189) can0 113#0E500000AA090760
(1599989993.952428) can0 0E0#005100E051150000
(1599989993.952667) can0 191#0000812000000370
(1599989993.955460) can0 1F0#04180000FFFF0DF3
(1599989993.956367) can0 150#7E000403ED036DF3
(1599989993.957490) can0 084#0100007A308C8FAC
(1599989993.957715) can0 085#F6000E52006000F0
(1599989993.962127) can0 0E0#005100E0611A0000
(1599989993.962354) can0 2A0#0000000000000000
(1599989993.962611) can0 2A3#E707E71800000300
(1599989993.962879) can0 2A8#004000000000706C
(1599989993.963147) can0 2AE#0100000000000000
(1599989993.965501) can0 26D#40560A0412000000
(1599989993.967577) can0 084#0100007A308C8036
(1599989993.967794) can0 085#F6000E52D8600000
(1599989993.970254) can0 122#00000000000005F9
(1599989993.970473) can0 123#00000000000005F9
(1599989993.970705) can0 124#2E832E29A2F0506D
(1599989993.970944) can0 125#000001080000056F
(1599989993.972198) can0 113#0E520000AA090852
(1599989993.972528) can0 0E0#005100E071FA0000
(1599989993.972664) can0 191#00008120000004BD
(1599989993.973894) can0 218#5A000000000004BF
(1599989993.975396) can0 260#0000000000001CB0
(1599989993.976357) can0 150#7E0004042D036EC4
(1599989993.977492) can0 084#0100007A308C8119
(1599989993.977720) can0 085#F6000E5276600010
(1599989993.982108) can0 0E0#005100E081C90000
(1599989993.985510) can0 285#0140014000000100
(1599989993.987577) can0 084#0100007A308C8268
(1599989993.987780) can0 085#F6000E52AB600020
(1599989993.988364) can0 288#A500004C00000059
(1599989993.988488) can0 28A#C40002009857052B
(1599989993.990244) can0 122#0000000000000688
(1599989993.990461) can0 123#0000000000000688
(1599989993.990696) can0 124#2E832E29A2F060B0
(1599989993.990935) can0 125#000001080000061E
(1599989993.992198) can0 113#0E520000AA09097D
(1599989993.992535) can0 0E0#005100E091290000
(1599989993.992655) can0 191#0000812000000592
(1599989993.994131) can0 2C2#0000000000000000
(1599989993.995421) can0 1F2#9D9C9D9C4E4E4D4E
(1599989993.995906) can0 286#0140014000000000
(1599989993.996415) can0 150#7E0004042D036FEB
(1599989993.997508) can0 084#0100007A308C8347
(1599989993.997726) can0 085#F6000E46F9600030
(1599989993.998095) can0 2FB#000007DC466207F3
(1599989993.998336) can0 2FC#0A00000000004019
(1599989993.998585) can0 2FD#0000000000001000
(1599989994.002096) can0 0E0#005100E0A1260000
(1599989994.005290) can0 1F0#04180000FFFF0E82
(1599989994.005760) can0 284#004140530C680200
(1599989994.007535) can0 084#0100007A308C848A
(1599989994.007753) can0 085#F6000E46C2600040
(1599989994.010259) can0 122#00000000000007A7
(1599989994.010468) can0 123#00000000000007A7
(1599989994.010707) can0 124#2E832E29A2F0701E
(1599989994.010943) can0 125#0000010800000731
(1599989994.012194) can0 113#0E460000AA090AA0
(1599989994.012492) can0 0E0#005100E0B1C60000
(1599989994.012659) can0 191#00008120000006E3
(1599989994.015925) can0 287#0059000000000120
(1599989994.016440) can0 150#7E0004042D036071
(1599989994.017487) can0 084#0100007A308C85A5
(1599989994.017709) can0 085#F6000E466C600050
(1599989994.022110) can0 0E0#005100E0C1380000
(1599989994.022351) can0 281#000000010000063D
(1599989994.027421) can0 2B1#2100000000000000
(1599989994.027767) can0 084#0100007A308C86D4
(1599989994.027997) can0 085#F6000E46B1600060
(1599989994.030268) can0 122#000000000000083D
(1599989994.030482) can0 123#000000000000083D
(1599989994.030714) can0 124#2E832E29A2F080C6
(1599989994.030953) can0 125#00000108000008AB
(1599989994.032210) can0 113#0E460000AA090B8F
(1599989994.032557) can0 0E0#005100E0D1D80000
(1599989994.032667) can0 191#00008120000007CC
(1599989994.036412) can0 150#7E0004042D03615E
(1599989994.037984) can0 084#0100007A308C87FB
(1599989994.038202) can0 085#F6000E461F600070
(1599989994.040349) can0 2F1#2188FFFFFFFF7800
(1599989994.040562) can0 2F2#110210090A000000
(1599989994.042122) can0 0E0#005100E0E1D70000
(1599989994.042332) can0 2A1#0000007F7F7F7F7F
(1599989994.042604) can0 2A4#0080000000000000
(1599989994.042870) can0 2A5#000F071F00000000
(1599989994.043135) can0 2A7#0000000000001400
(1599989994.043402) can0 2AA#0000000000000000
(1599989994.043673) can0 3E1#0000000000000C81
(1599989994.043945) can0 3E2#0000000000000C81
(1599989994.045118) can0 380#1720AB0000000000
(1599989994.045322) can0 1F2#9D9C9D9C4E4E4D4E
(1599989994.047551) can0 084#0100007A308C8861
(1599989994.047755) can0 085#F6000E5845600080
(1599989994.050243) can0 122#0000000000000912
(1599989994.050469) can0 123#0000000000000912
(1599989994.050696) can0 124#2E832E29A2F09068
(1599989994.050936) can0 125#0000010800000984
(1599989994.052178) can0 113#0E460000AA090C42
(1599989994.052414) can0 0E0#005100E0F1370000
(1599989994.052653) can0 191#0000812000000856
(1599989994.055458) can0 1F0#04180000FFFF0FAD
(1599989994.056364) can0 150#7E0004042D03622F
(1599989994.057498) can0 084#0100007A308C894E
(1599989994.057707) can0 085#F6000E58EB600090
(1599989994.062136) can0 0E0#005100E001040000
(1599989994.062347) can0 2A0#0000000000000000
(1599989994.062607) can0 2A3#E707E71800000300
(1599989994.062871) can0 2A8#00400000000080B4
(1599989994.063143) can0 2AE#0100000000000000
(1599989994.065441) can0 26D#40560A0412000000
(1599989994.067551) can0 084#0100007A308C8A3F
(1599989994.067756) can0 085#F6000E58366000A0
(1599989994.070243) can0 122#0000000000000A63
(1599989994.070465) can0 123#0000000000000A63
(1599989994.070694) can0 124#2E832E29A2F0A0B5
(1599989994.070935) can0 125#0000010800000AF5
(1599989994.072180) can0 113#0E580000AA090D97
(1599989994.072406) can0 0E0#005100E011E40000
(1599989994.072649) can0 191#0000812000000979
(1599989994.073874) can0 218#5B00000000000564
(1599989994.075459) can0 3F6#3D25FF0000000A0A
(1599989994.075692) can0 260#0000000000001CB0
(1599989994.076467) can0 150#7E0004042D036300
(1599989994.077519) can0 084#0100007A308C8B10
(1599989994.077729) can0 085#F6000E58986000B0
(1599989994.082134) can0 0E0#005100E021EB0000
(1599989994.085472) can0 285#0140014000000100
(1599989994.087566) can0 084#0100007A308C8CDD
(1599989994.087789) can0 085#F6000E4E1A6000C0
(1599989994.088330) can0 288#A500004C00000059
(1599989994.088494) can0 28A#C3000200985706C8
(1599989994.090230) can0 122#0000000000000B4C
(1599989994.090470) can0 123#0000000000000B4C
(1599989994.090698) can0 124#2E832E29A2F0B01B
(1599989994.090946) can0 125#0000010800000BDA
(1599989994.092202) can0 113#0E580000AA090EE6
(1599989994.092528) can0 0E0#005100E0310B0000
(1599989994.092666) can0 191#0000812000000A08
(1599989994.095149) can0 2C2#0000000000000000
(1599989994.095366) can0 1F2#9D9C9D9C4E4E4D4E
(1599989994.095884) can0 286#0140014000000000
(1599989994.096393) can0 150#7E000403ED03648B
(1599989994.097525) can0 084#0100007A308C8DF2
(1599989994.097745) can0 085#F6000E4EB46000D0
(1599989994.098078) can0 2FB#000007E0465B07F9
(1599989994.098323) can0 2FC#0A00000000004019
(1599989994.098572) can0 2FD#0000000000001000
(1599989994.102114) can0 0E0#005100E041F50000
(1599989994.105278) can0 1F0#04180000FFFF0037
(1599989994.105738) can0 284#004140530C680200
(1599989994.107556) can0 084#0100007A308C8E83
(1599989994.107757) can0 085#F7000E4E9D6000E0
(1599989994.110261) can0 122#0000000000000C81
(1599989994.110479) can0 123#0000000000000C81
(1599989994.110714) can0 124#2E832E29A2F0C020
(1599989994.110954) can0 125#0000010800000C17
(1599989994.112221) can0 113#0E4E0000AA090FCD
(1599989994.112594) can0 0E0#005100E051150000
(1599989994.112671) can0 191#0000812000000B27
(1599989994.115897) can0 287#0059000000000120
(1599989994.116380) can0 150#7E0004042D0365E2
(1599989994.117510) can0 084#0100007A308C8FAC
(1599989994.117734) can0 085#F7000E4E336000F0
(1599989994.122044) can0 0E0#005100E0611A0000
(1599989994.122287) can0 281#0000000100000712
(1599989994.127417) can0 2AB#0190430000030100
(1599989994.127615) can0 084#0100007A308C8036
(1599989994.127846) can0 085#F7000E4495600000
(1599989994.128097) can0 2B1#2100000000000000
(1599989994.130254) can0 122#0000000000000DAE
(1599989994.130483) can0 123#0000000000000DAE
(1599989994.130713) can0 124#2E832E29A2F0D08E
(1599989994.130954) can0 125#0000010800000D38
(1599989994.132213) can0 113#0E4E0000AA090057
(1599989994.132541) can0 0E0#005100E071FA0000
(1599989994.132675) can0 191#0000812000000CEA
(1599989994.136415) can0 150#7E0004042D036693
(1599989994.137505) can0 084#0100007A308C8119
(1599989994.137729) can0 085#F7000E443B600010
(1599989994.140179) can0 2F1#2188FFFFFFFF7800
(1599989994.140487) can0 2F2#110210090A000000
(1599989994.142093) can0 0E0#005100E081C90000
(1599989994.142314) can0 2A1#0000007F7F7F7F7F
(1599989994.142583) can0 2A4#0080000000000000
(1599989994.142846) can0 2A5#000F071F00000000
(1599989994.143114) can0 2A7#0000000000001400
(1599989994.143382) can0 2AA#0000000000000000
(1599989994.145175) can0 1F2#9D9C9D9C4E4E4D4E
(1599989994.147544) can0 084#0100007A308C8268
